/net039 X,/net039 Y,/net010 X,/net010 Y,/net09 X,/net09 Y,/net08 X,/net08 Y,/net02 X,/net02 Y
0,7.36952162706979e-05,0,7.369521627093128e-05,0,7.369521627102375e-05,0,6.437806297355366e-05,0,0
1.5e-11,7.369521627066604e-05,1.5e-11,7.369521627092489e-05,1.5e-11,7.369521627106432e-05,1.5e-11,6.437806297343472e-05,1.5e-11,0
4.5e-11,7.369521627102173e-05,4.5e-11,7.369521627109125e-05,4.5e-11,7.369521627116098e-05,4.5e-11,6.437806297341648e-05,4.5e-11,0
1.05e-10,7.369521626931512e-05,1.05e-10,7.369521626949816e-05,1.05e-10,7.36952162722295e-05,1.05e-10,6.437806297386581e-05,1.05e-10,0
2.25e-10,7.369521627216387e-05,2.25e-10,7.369521627231227e-05,2.25e-10,7.369521627002436e-05,2.25e-10,6.43780629734604e-05,2.25e-10,0
4.65e-10,7.369521626948937e-05,4.65e-10,7.36952162696932e-05,4.65e-10,7.36952162686351e-05,4.65e-10,6.437806297374658e-05,4.65e-10,0
7.649999999999999e-10,7.369521627578182e-05,7.649999999999999e-10,7.369521627252638e-05,7.649999999999999e-10,7.369521627331185e-05,7.649999999999999e-10,6.43780629732886e-05,7.649999999999999e-10,0
1.065e-09,7.369521626900903e-05,1.065e-09,7.369521626950001e-05,1.065e-09,7.369521627214867e-05,1.065e-09,6.437806297378648e-05,1.065e-09,0
1.365e-09,7.369521627294197e-05,1.365e-09,7.369521627241159e-05,1.365e-09,7.369521627330373e-05,1.365e-09,6.437806297327944e-05,1.365e-09,0
1.665e-09,7.369521626607664e-05,1.665e-09,7.369521626653156e-05,1.665e-09,7.369521626927659e-05,1.665e-09,6.437806297404278e-05,1.665e-09,0
1.8325e-09,7.369521627565536e-05,1.8325e-09,7.369521627551944e-05,1.8325e-09,7.369521626948213e-05,1.8325e-09,6.437806297338378e-05,1.8325e-09,0
2e-09,7.369521626963635e-05,2e-09,7.369521626653785e-05,2e-09,7.369521627556509e-05,2e-09,6.43780629736625e-05,2e-09,0
2.120144127384571e-09,7.369521627110376e-05,2.120144127384571e-09,7.369521627082531e-05,2.120144127384571e-09,7.369521627096971e-05,2.120144127384571e-09,6.437806297385489e-05,2.120144127384571e-09,0.06674673743587282
2.261585129605973e-09,7.369521626945697e-05,2.261585129605973e-09,7.36952162694856e-05,2.261585129605973e-09,7.369521626969808e-05,2.261585129605973e-09,6.437806294827702e-05,2.261585129605973e-09,0.1453250720033182
2.400273538304042e-09,7.369521627214575e-05,2.400273538304042e-09,7.369521627197859e-05,2.400273538304042e-09,7.369521627270593e-05,2.400273538304042e-09,6.437806309035426e-05,2.400273538304042e-09,0.2223741879466899
2.455450261564967e-09,7.369521627262357e-05,2.455450261564967e-09,7.369521626988719e-05,2.455450261564967e-09,7.369521626870771e-05,2.455450261564967e-09,6.437806231625173e-05,2.455450261564967e-09,0.2530279230916481
2.483038623195429e-09,7.369521626962641e-05,2.483038623195429e-09,7.369521627207545e-05,2.483038623195429e-09,7.369521627928837e-05,2.483038623195429e-09,6.437806511453498e-05,2.483038623195429e-09,0.2683547906641272
2.538215346456354e-09,7.369521627504992e-05,2.538215346456354e-09,7.369521626687548e-05,2.538215346456354e-09,7.369521626156072e-05,2.538215346456354e-09,6.437806029885921e-05,2.538215346456354e-09,0.2990085258090854
2.560737121398761e-09,7.36952162678126e-05,2.560737121398761e-09,7.369521627400296e-05,2.560737121398761e-09,7.369521629233741e-05,2.560737121398761e-09,6.437806538445591e-05,2.560737121398761e-09,0.3115206229993115
2.571998008869964e-09,7.369521627324465e-05,2.571998008869964e-09,7.369521626946953e-05,2.571998008869964e-09,7.36952162553699e-05,2.571998008869964e-09,6.43780636925244e-05,2.571998008869964e-09,0.3177766715944246
2.594519783812372e-09,7.369521627146435e-05,2.594519783812372e-09,7.369521627286288e-05,2.594519783812372e-09,7.369521627330508e-05,2.594519783812372e-09,6.437806101296238e-05,2.594519783812372e-09,0.3302887687846509
2.619292015544389e-09,7.369521626797983e-05,2.619292015544389e-09,7.369521626927676e-05,2.619292015544389e-09,7.369521628266726e-05,2.619292015544389e-09,6.43780652531059e-05,2.619292015544389e-09,0.3440511197468827
2.640503769765476e-09,7.36952162731546e-05,2.640503769765476e-09,7.369521627502498e-05,2.640503769765476e-09,7.369521624869254e-05,2.640503769765476e-09,6.437806089461572e-05,2.640503769765476e-09,0.3558354276474868
2.660686031888202e-09,7.369521627185011e-05,2.660686031888202e-09,7.369521626789769e-05,2.660686031888202e-09,7.369521629642953e-05,2.660686031888202e-09,6.437806458559066e-05,2.660686031888202e-09,0.3670477954934453
2.682055619276801e-09,7.369521627042273e-05,2.682055619276801e-09,7.369521627348708e-05,2.682055619276801e-09,7.369521624673674e-05,2.682055619276801e-09,6.437806181934057e-05,2.682055619276801e-09,0.3789197884871114
2.701703988604435e-09,7.369521627178938e-05,2.701703988604435e-09,7.369521626867836e-05,2.701703988604435e-09,7.369521629265872e-05,2.701703988604435e-09,6.437806371129819e-05,2.701703988604435e-09,0.3898355492246859
2.725079201383616e-09,7.369521627029938e-05,2.725079201383616e-09,7.369521627577231e-05,2.725079201383616e-09,7.369521625477482e-05,2.725079201383616e-09,6.437806250765725e-05,2.725079201383616e-09,0.4028217785464532
2.753399842659967e-09,7.369521626885052e-05,2.753399842659967e-09,7.369521626657117e-05,2.753399842659967e-09,7.369521628290785e-05,2.753399842659967e-09,6.437806326619065e-05,2.753399842659967e-09,0.4185554681444263
2.784176825806495e-09,7.369521627277317e-05,2.784176825806495e-09,7.369521627228118e-05,2.784176825806495e-09,7.369521626374482e-05,2.784176825806495e-09,6.437806280480418e-05,2.784176825806495e-09,0.4356537921147196
2.812895477102868e-09,7.369521626937436e-05,2.812895477102868e-09,7.369521627251713e-05,2.812895477102868e-09,7.369521627393326e-05,2.812895477102868e-09,6.437806304011708e-05,2.812895477102868e-09,0.4516085983904824
2.842817606891036e-09,7.369521627233852e-05,2.842817606891036e-09,7.369521626981894e-05,2.842817606891036e-09,7.369521627216555e-05,2.842817606891036e-09,6.437806298112731e-05,2.842817606891036e-09,0.4682320038283532
2.867139585824221e-09,7.369521627015572e-05,2.867139585824221e-09,7.369521627202234e-05,2.867139585824221e-09,7.369521626948341e-05,2.867139585824221e-09,6.437806290026758e-05,2.867139585824221e-09,0.4817442143467893
2.895104265130533e-09,7.369521627184884e-05,2.895104265130533e-09,7.369521627033867e-05,2.895104265130533e-09,7.36952162760725e-05,2.895104265130533e-09,6.437806308656513e-05,2.895104265130533e-09,0.4972801472947404
2.921090929981886e-09,7.36952162698302e-05,2.921090929981886e-09,7.369521627149917e-05,2.921090929981886e-09,7.369521626629797e-05,2.921090929981886e-09,6.437806283107893e-05,2.921090929981886e-09,0.5117171833232698
2.973064259684592e-09,7.369521627203958e-05,2.973064259684592e-09,7.369521627368317e-05,2.973064259684592e-09,7.369521627916979e-05,2.973064259684592e-09,6.4378063127116e-05,2.973064259684592e-09,0.5405912553803286
3.015890532229329e-09,7.369521626728437e-05,3.015890532229329e-09,7.369521626856399e-05,3.015890532229329e-09,7.369521626349456e-05,3.015890532229329e-09,6.437806280923263e-05,3.015890532229329e-09,0.564383629016294
3.059187524506109e-09,7.369521627452439e-05,3.059187524506109e-09,7.369521627333704e-05,3.059187524506109e-09,7.369521627840353e-05,3.059187524506109e-09,6.437806314630245e-05,3.059187524506109e-09,0.588437513614505
3.07030010981317e-09,7.36952162683982e-05,3.07030010981317e-09,7.369521626986404e-05,3.07030010981317e-09,7.369521626533549e-05,3.07030010981317e-09,6.437806278508037e-05,3.07030010981317e-09,0.594611172118428
3.092525280427293e-09,7.369521627077946e-05,3.092525280427293e-09,7.369521627227313e-05,3.092525280427293e-09,7.36952162747056e-05,3.092525280427293e-09,6.437806316194356e-05,3.092525280427293e-09,0.6069584891262738
3.099684254192649e-09,7.369521627092565e-05,3.099684254192649e-09,7.369521627036189e-05,3.099684254192649e-09,7.369521626814874e-05,3.099684254192649e-09,6.437806279869833e-05,3.099684254192649e-09,0.610935696773694
3.114002201723362e-09,7.369521627110694e-05,3.114002201723362e-09,7.369521627209931e-05,3.114002201723362e-09,7.369521627474664e-05,3.114002201723362e-09,6.437806313625204e-05,3.114002201723362e-09,0.6188901120685343
3.124927069161155e-09,7.369521627077774e-05,3.124927069161155e-09,7.369521627250352e-05,3.124927069161155e-09,7.369521626681817e-05,3.124927069161155e-09,6.437806278324865e-05,3.124927069161155e-09,0.6249594828673082
3.135313259469604e-09,7.369521627175416e-05,3.135313259469604e-09,7.369521627043815e-05,3.135313259469604e-09,7.369521627917624e-05,3.135313259469604e-09,6.437806324236035e-05,3.135313259469604e-09,0.6307295885942241
3.147649716046192e-09,7.369521627086683e-05,3.147649716046192e-09,7.369521627126049e-05,3.147649716046192e-09,7.369521626774359e-05,3.147649716046192e-09,6.437806301456794e-05,3.147649716046192e-09,0.637583175581218
3.15768469710684e-09,7.369521627141615e-05,3.15768469710684e-09,7.369521627107137e-05,3.15768469710684e-09,7.369521629587976e-05,3.15768469710684e-09,6.437806401281172e-05,3.15768469710684e-09,0.6431581650593556
3.160409149076917e-09,7.369521626268886e-05,3.160409149076917e-09,7.369521627187409e-05,3.160409149076917e-09,7.369521609366651e-05,3.160409149076917e-09,6.437806066328676e-05,3.160409149076917e-09,0.6446717494871762
3.165858053017071e-09,7.369521623312683e-05,3.165858053017071e-09,7.369521627043604e-05,3.165858053017071e-09,7.369521494475185e-05,3.165858053017071e-09,6.437802920875506e-05,3.165858053017071e-09,0.6476989183428172
3.176755860897379e-09,7.369521629286646e-05,3.176755860897379e-09,7.369521627401262e-05,3.176755860897379e-09,7.369521567733515e-05,3.176755860897379e-09,6.437799083647284e-05,3.176755860897379e-09,0.6537532560540994
3.184473711924341e-09,7.369521744119692e-05,3.184473711924341e-09,7.369521628507487e-05,3.184473711924341e-09,7.369525795239239e-05,3.184473711924341e-09,6.437918173051142e-05,3.184473711924341e-09,0.6580409510690785
3.195005775383879e-09,7.369521617898066e-05,3.195005775383879e-09,7.369521624571444e-05,3.195005775383879e-09,7.369522796034799e-05,3.195005775383879e-09,6.438012156091748e-05,3.195005775383879e-09,0.6638920974354882
3.202561376941215e-09,7.369520192600934e-05,3.202561376941215e-09,7.36952159528595e-05,3.202561376941215e-09,7.369364846833643e-05,3.202561376941215e-09,6.433665930488064e-05,3.202561376941215e-09,0.6680896538562306
3.210983694087454e-09,7.369520933051807e-05,3.210983694087454e-09,7.369521693031822e-05,3.210983694087454e-09,7.369458022759975e-05,3.210983694087454e-09,6.430522534370348e-05,3.210983694087454e-09,0.6727687189374744
3.218019528252907e-09,7.369526226747704e-05,3.218019528252907e-09,7.369521771811713e-05,3.218019528252907e-09,7.370461845245498e-05,3.218019528252907e-09,6.455065194336653e-05,3.218019528252907e-09,0.6766775156960592
3.224396208460353e-09,7.369530185839152e-05,3.224396208460353e-09,7.369521179407336e-05,3.224396208460353e-09,7.36925569293449e-05,3.224396208460353e-09,6.451427449654152e-05,3.224396208460353e-09,0.6802201158113071
3.231792189862973e-09,7.369518728294891e-05,3.231792189862973e-09,7.369521847107435e-05,3.231792189862973e-09,7.368657574158502e-05,3.231792189862973e-09,6.425998555257927e-05,3.231792189862973e-09,0.6843289943683181
3.239450059287379e-09,7.369516687036647e-05,3.239450059287379e-09,7.369521856282446e-05,3.239450059287379e-09,7.36986936283724e-05,3.239450059287379e-09,6.431846040510632e-05,3.239450059287379e-09,0.6885833662707662
3.246950616051277e-09,7.369519939302979e-05,3.246950616051277e-09,7.369521319069212e-05,3.246950616051277e-09,7.369634298464154e-05,3.246950616051277e-09,6.436776774212713e-05,3.246950616051277e-09,0.6927503422507093
3.254159825657934e-09,7.369497834077589e-05,3.254159825657934e-09,7.369521658712029e-05,3.254159825657934e-09,7.369573386373725e-05,3.254159825657934e-09,6.438083339901912e-05,3.254159825657934e-09,0.6967554586988524
3.261467823061916e-09,7.369488944982348e-05,3.261467823061916e-09,7.369521536195757e-05,3.261467823061916e-09,7.369348028046489e-05,3.261467823061916e-09,6.432075514808402e-05,3.261467823061916e-09,0.7008154572566201
3.26707425037637e-09,7.369293694099781e-05,3.26707425037637e-09,7.369520694400617e-05,3.26707425037637e-09,7.369034622276387e-05,3.26707425037637e-09,6.41480872745332e-05,3.26707425037637e-09,0.7039301390979834
3.271528925498825e-09,7.367737572584328e-05,3.271528925498825e-09,7.369512654945544e-05,3.271528925498825e-09,7.369031382268384e-05,3.271528925498825e-09,6.367917785039851e-05,3.271528925498825e-09,0.7064049586104583
3.275483845627093e-09,7.364932724762413e-05,3.275483845627093e-09,7.369505103122965e-05,3.275483845627093e-09,7.369860975245148e-05,3.275483845627093e-09,6.288149474654237e-05,3.275483845627093e-09,0.7086021364594961
3.279521485504651e-09,7.371669143104706e-05,3.279521485504651e-09,7.369567572213344e-05,3.279521485504651e-09,7.370893321086944e-05,3.279521485504651e-09,6.368469629579351e-05,3.279521485504651e-09,0.7108452697248059
3.282944075058471e-09,7.426954283823617e-05,3.282944075058471e-09,7.369903253777717e-05,3.282944075058471e-09,7.371330231797292e-05,3.282944075058471e-09,7.466386574221629e-05,3.282944075058471e-09,0.7127467083658171
3.286376489161751e-09,7.522479288364808e-05,3.286376489161751e-09,7.370140850539179e-05,3.286376489161751e-09,7.371066368066745e-05,3.286376489161751e-09,0.000100221453834406,3.286376489161751e-09,0.7146536050898618
3.289553102788276e-09,7.496007558599336e-05,3.289553102788276e-09,7.369237252679565e-05,3.289553102788276e-09,7.37066578930324e-05,3.289553102788276e-09,0.0001082835340609158,3.289553102788276e-09,0.7164183904379309
3.291928258090734e-09,7.379941781875338e-05,3.291928258090734e-09,7.368406639872074e-05,3.291928258090734e-09,7.370295441683268e-05,3.291928258090734e-09,6.137177950698415e-05,3.291928258090734e-09,0.717737921161519
3.294779353582397e-09,7.265550400294421e-05,3.294779353582397e-09,7.36852448202734e-05,3.294779353582397e-09,7.368065675919581e-05,3.294779353582397e-09,-0.0001621460308242416,3.294779353582397e-09,0.7193218631013314
3.298097002126432e-09,6.869786261156624e-05,3.298097002126432e-09,7.369739839066475e-05,3.298097002126432e-09,7.365641678694622e-05,3.298097002126432e-09,-0.0007926970713721395,3.298097002126432e-09,0.7211650011813511
3.302129563081161e-09,5.730946377232412e-05,3.302129563081161e-09,7.371537819581727e-05,3.302129563081161e-09,7.367961051472176e-05,3.302129563081161e-09,-0.00121192147060343,3.302129563081161e-09,0.723405312822867
3.305053046883444e-09,5.46139180719728e-05,3.305053046883444e-09,7.370558272299947e-05,3.305053046883444e-09,7.369425406904371e-05,3.305053046883444e-09,-0.0009754789723912446,3.305053046883444e-09,0.725029470490802
3.30777206426347e-09,6.304930810994087e-05,3.30777206426347e-09,7.368624840605164e-05,3.30777206426347e-09,7.369006494407591e-05,3.30777206426347e-09,-0.0005998386699573323,3.30777206426347e-09,0.7265400357019278
3.310486936779784e-09,8.257528715330885e-05,3.310486936779784e-09,7.369036740596751e-05,3.310486936779784e-09,7.368759448830627e-05,3.310486936779784e-09,-0.0002771864641771193,3.310486936779784e-09,0.7280482982109912
3.313380916702255e-09,0.0001226736361630024,3.313380916702255e-09,7.371069842782871e-05,3.313380916702255e-09,7.368699277286926e-05,3.313380916702255e-09,-0.0002643972467712499,3.313380916702255e-09,0.7296560648345859
3.315831367862419e-09,0.0001831626467707409,3.315831367862419e-09,7.372858364872658e-05,3.315831367862419e-09,7.369083285582391e-05,3.315831367862419e-09,-0.0006746341242062977,3.315831367862419e-09,0.7310174265902328
3.31848438553297e-09,0.0003207756203193291,3.31848438553297e-09,7.372082104108696e-05,3.31848438553297e-09,7.369960694866986e-05,3.31848438553297e-09,-0.001509946573116497,3.31848438553297e-09,0.7324913252960944
3.322077769092189e-09,0.0003703803921434874,3.322077769092189e-09,7.367594285007091e-05,3.322077769092189e-09,7.371483106640231e-05,3.322077769092189e-09,-0.002698521298111908,3.322077769092189e-09,0.7344876494956603
3.324817852755347e-09,-0.002652705237333572,3.324817852755347e-09,7.363929676465111e-05,3.324817852755347e-09,7.37181589143634e-05,3.324817852755347e-09,-0.003346612517398026,3.324817852755347e-09,0.7360099181974148
3.327786240191342e-09,-0.01053237933387656,3.327786240191342e-09,7.361818997002339e-05,3.327786240191342e-09,7.371421071139059e-05,3.327786240191342e-09,-0.003581802132495258,3.327786240191342e-09,0.7376590223285231
3.330762451144795e-09,-0.01111074354209045,3.330762451144795e-09,7.363141145738773e-05,3.330762451144795e-09,7.370892131231253e-05,3.330762451144795e-09,-0.003168617235637302,3.330762451144795e-09,0.7393124728582192
3.333407553644115e-09,0.02210542355895759,3.333407553644115e-09,7.366705178021474e-05,3.333407553644115e-09,7.369869516519067e-05,3.333407553644115e-09,-0.002362567376399484,3.333407553644115e-09,0.7407819742467308
3.33593245532615e-09,0.1004257138026302,3.33593245532615e-09,7.370000716801311e-05,3.33593245532615e-09,7.368239405667018e-05,3.33593245532615e-09,-0.001654610100014187,3.33593245532615e-09,0.7421846974034166
3.338072533367227e-09,0.1939474270279005,3.338072533367227e-09,7.373469338734977e-05,3.338072533367227e-09,7.368548624859518e-05,3.338072533367227e-09,-0.0009532341022594659,3.338072533367227e-09,0.7433736296484597
3.34063804407828e-09,0.321497388797512,3.34063804407828e-09,7.376179634508777e-05,3.34063804407828e-09,7.369466908738213e-05,3.34063804407828e-09,0.0002032224483774206,3.34063804407828e-09,0.744798913376822
3.343453803827541e-09,0.4719671657004086,3.343453803827541e-09,7.37447840535351e-05,3.343453803827541e-09,7.368552232369333e-05,3.343453803827541e-09,0.001427140949722686,3.343453803827541e-09,0.7463632243486336
3.346189697340038e-09,0.6120190845225448,3.346189697340038e-09,7.372225610038386e-05,3.346189697340038e-09,7.368265506556016e-05,3.346189697340038e-09,0.002370081249536113,3.346189697340038e-09,0.7478831651889101
3.349080149241826e-09,0.7320919256789203,3.349080149241826e-09,7.370318183430538e-05,3.349080149241826e-09,7.368278802270495e-05,3.349080149241826e-09,0.002921030340605461,3.349080149241826e-09,0.7494889718010141
3.351618239994559e-09,0.804239228417207,3.351618239994559e-09,7.369807386985541e-05,3.351618239994559e-09,7.368832703449518e-05,3.351618239994559e-09,0.003049353146543282,3.351618239994559e-09,0.7508990222191994
3.354233821350849e-09,0.8678644383437437,3.354233821350849e-09,7.369864993704885e-05,3.354233821350849e-09,7.369573641461016e-05,3.354233821350849e-09,0.002934561122958198,3.354233821350849e-09,0.7523521229726937
3.357088987051991e-09,1.005100167990342,3.357088987051991e-09,7.369972131219753e-05,3.357088987051991e-09,7.370044324658402e-05,3.357088987051991e-09,0.002625862493397583,3.357088987051991e-09,0.7539383261399947
3.359734589983913e-09,1.335047579610032,3.359734589983913e-09,7.36997884756052e-05,3.359734589983913e-09,7.370280731984694e-05,3.359734589983913e-09,0.00225849943807728,3.359734589983913e-09,0.7554081055466185
3.361815584233974e-09,1.841632841007286,3.361815584233974e-09,7.369939923612386e-05,3.361815584233974e-09,7.370308919319956e-05,3.361815584233974e-09,0.001976541463318645,3.361815584233974e-09,0.7565642134633187
3.363800636168931e-09,2.523145060651816,3.363800636168931e-09,7.369789197881343e-05,3.363800636168931e-09,7.370241400152622e-05,3.363800636168931e-09,0.001733509699534199,3.363800636168931e-09,0.7576670200938508
3.365051950063644e-09,3.001227822028644,3.365051950063644e-09,7.369638214520627e-05,3.365051950063644e-09,7.370094498861949e-05,3.365051950063644e-09,0.001593336258142968,3.365051950063644e-09,0.7583621944798021
3.36676298764042e-09,3.608799966597748,3.36676298764042e-09,7.369433876990926e-05,3.36676298764042e-09,7.369936740819678e-05,3.36676298764042e-09,0.001416600209807167,3.36676298764042e-09,0.7593127709113444
3.368170822619903e-09,3.997680983679544,3.368170822619903e-09,7.369273453364868e-05,3.368170822619903e-09,7.369773746647375e-05,3.368170822619903e-09,0.001281902392264482,3.368170822619903e-09,0.7600949014555016
