/net039 X,/net039 Y,/net010 X,/net010 Y,/net09 X,/net09 Y,/net08 X,/net08 Y,/net02 X,/net02 Y
0,7.369521627070118e-05,0,7.369521627094212e-05,0,7.369521627104613e-05,0,6.437806300473365e-05,0,0
1.5e-11,7.369521627066951e-05,1.5e-11,7.36952162709115e-05,1.5e-11,7.369521627107754e-05,1.5e-11,6.437806300473583e-05,1.5e-11,0
4.5e-11,7.369521627102795e-05,4.5e-11,7.369521627107415e-05,4.5e-11,7.36952162711477e-05,4.5e-11,6.437806300480848e-05,4.5e-11,0
1.05e-10,7.369521626918781e-05,1.05e-10,7.369521626946932e-05,1.05e-10,7.369521626954992e-05,1.05e-10,6.437806300467578e-05,1.05e-10,0
2.25e-10,7.369521626984419e-05,2.25e-10,7.369521627250287e-05,2.25e-10,7.369521627239049e-05,2.25e-10,6.437806300481075e-05,2.25e-10,0
4.65e-10,7.369521626915251e-05,4.65e-10,7.369521626954521e-05,4.65e-10,7.369521626959807e-05,4.65e-10,6.437806300475357e-05,4.65e-10,0
7.649999999999999e-10,7.369521626955091e-05,7.649999999999999e-10,7.369521627249757e-05,7.649999999999999e-10,7.369521627566589e-05,7.649999999999999e-10,6.437806300486422e-05,7.649999999999999e-10,0
1.065e-09,7.369521627256978e-05,1.065e-09,7.369521627238438e-05,1.065e-09,7.369521626976335e-05,1.065e-09,6.437806300466407e-05,1.065e-09,0
1.365e-09,7.369521626926882e-05,1.365e-09,7.369521626664892e-05,1.365e-09,7.369521627570728e-05,1.365e-09,6.437806300477089e-05,1.365e-09,0
1.665e-09,7.369521627284027e-05,1.665e-09,7.369521627552465e-05,1.665e-09,7.369521626656383e-05,1.665e-09,6.437806300483876e-05,1.665e-09,0
1.8325e-09,7.369521626938901e-05,1.8325e-09,7.369521626353298e-05,1.8325e-09,7.369521627558382e-05,1.8325e-09,6.437806300473421e-05,1.8325e-09,0
2e-09,7.369521627244747e-05,2e-09,7.369521627837144e-05,2e-09,7.369521626371423e-05,2e-09,6.437806300490434e-05,2e-09,0
2.120144127384571e-09,7.369521627090127e-05,2.120144127384571e-09,7.369521627090643e-05,2.120144127384571e-09,7.369521627080184e-05,2.120144127384571e-09,6.437806300515094e-05,2.120144127384571e-09,0.06674673743587282
2.261585129605973e-09,7.369521626950903e-05,2.261585129605973e-09,7.369521626940168e-05,2.261585129605973e-09,7.36952162730062e-05,2.261585129605973e-09,6.437806297938291e-05,2.261585129605973e-09,0.1453250720033182
2.400273538304042e-09,7.369521627553052e-05,2.400273538304042e-09,7.369521626965185e-05,2.400273538304042e-09,7.369521627249142e-05,2.400273538304042e-09,6.437806312155376e-05,2.400273538304042e-09,0.2223741879466899
2.455450261564968e-09,7.369521626701068e-05,2.455450261564968e-09,7.369521627225173e-05,2.455450261564968e-09,7.369521626920012e-05,2.455450261564968e-09,6.437806234578519e-05,2.455450261564968e-09,0.2530279230916486
2.48303862319543e-09,7.369521627172993e-05,2.48303862319543e-09,7.369521627272764e-05,2.48303862319543e-09,7.369521627845945e-05,2.48303862319543e-09,6.437806515429998e-05,2.48303862319543e-09,0.2683547906641279
2.538215346456356e-09,7.369521627313091e-05,2.538215346456356e-09,7.369521626653496e-05,2.538215346456356e-09,7.369521625596704e-05,2.538215346456356e-09,6.437806031717122e-05,2.538215346456356e-09,0.2990085258090865
2.560737121398762e-09,7.369521626916515e-05,2.560737121398762e-09,7.369521627171491e-05,2.560737121398762e-09,7.369521629660883e-05,2.560737121398762e-09,6.437806543223061e-05,2.560737121398762e-09,0.3115206229993122
2.571998008869965e-09,7.369521627211283e-05,2.571998008869965e-09,7.369521627010662e-05,2.571998008869965e-09,7.369521625290174e-05,2.571998008869965e-09,6.437806372081888e-05,2.571998008869965e-09,0.3177766715944251
2.594519783812372e-09,7.369521627244847e-05,2.594519783812372e-09,7.369521626929199e-05,2.594519783812372e-09,7.369521627571394e-05,2.594519783812372e-09,6.437806103879408e-05,2.594519783812372e-09,0.3302887687846509
2.619292015544419e-09,7.369521626975555e-05,2.619292015544419e-09,7.369521627232849e-05,2.619292015544419e-09,7.369521628330045e-05,2.619292015544419e-09,6.437806529460357e-05,2.619292015544419e-09,0.3440511197468995
2.640503769765503e-09,7.36952162719319e-05,2.640503769765503e-09,7.369521626975333e-05,2.640503769765503e-09,7.36952162484086e-05,2.640503769765503e-09,6.4378060912639e-05,2.640503769765503e-09,0.3558354276475015
2.660686031888215e-09,7.369521626999531e-05,2.660686031888215e-09,7.369521627503258e-05,2.660686031888215e-09,7.369521629660407e-05,2.660686031888215e-09,6.437806462935142e-05,2.660686031888215e-09,0.3670477954934526
2.682055619276801e-09,7.369521627188585e-05,2.682055619276801e-09,7.36952162675537e-05,2.682055619276801e-09,7.36952162462179e-05,2.682055619276801e-09,6.437806183879781e-05,2.682055619276801e-09,0.3789197884871119
2.701703988604433e-09,7.369521627035825e-05,2.701703988604433e-09,7.369521627116044e-05,2.701703988604433e-09,7.369521628760601e-05,2.701703988604433e-09,6.437806375179068e-05,2.701703988604433e-09,0.3898355492246852
2.725079201383629e-09,7.369521627445107e-05,2.725079201383629e-09,7.369521626797908e-05,2.725079201383629e-09,7.369521625646618e-05,2.725079201383629e-09,6.437806253104259e-05,2.725079201383629e-09,0.4028217785464606
2.753399842659949e-09,7.369521626787251e-05,2.753399842659949e-09,7.369521627356368e-05,2.753399842659949e-09,7.369521628109631e-05,2.753399842659949e-09,6.437806330314146e-05,2.753399842659949e-09,0.4185554681444162
2.784176825806451e-09,7.369521627386892e-05,2.784176825806451e-09,7.369521626859207e-05,2.784176825806451e-09,7.369521626255018e-05,2.784176825806451e-09,6.437806283144999e-05,2.784176825806451e-09,0.4356537921146952
2.812895477102846e-09,7.369521626552115e-05,2.812895477102846e-09,7.369521627318036e-05,2.812895477102846e-09,7.36952162777407e-05,2.812895477102846e-09,6.437806307424625e-05,2.812895477102846e-09,0.4516085983904697
2.842817606890986e-09,7.369521627271017e-05,2.842817606890986e-09,7.369521626894101e-05,2.842817606890986e-09,7.369521626564208e-05,2.842817606890986e-09,6.437806300986836e-05,2.842817606890986e-09,0.4682320038283257
2.867139585824182e-09,7.369521626895829e-05,2.867139585824182e-09,7.369521627310799e-05,2.867139585824182e-09,7.369521627525169e-05,2.867139585824182e-09,6.437806293251864e-05,2.867139585824182e-09,0.4817442143467677
2.895104265130514e-09,7.369521627287593e-05,2.895104265130514e-09,7.369521627199352e-05,2.895104265130514e-09,7.369521626515339e-05,2.895104265130514e-09,6.437806311763749e-05,2.895104265130514e-09,0.4972801472947297
2.921090929981857e-09,7.369521626954104e-05,2.921090929981857e-09,7.369521626724816e-05,2.921090929981857e-09,7.369521627542254e-05,2.921090929981857e-09,6.437806286140964e-05,2.921090929981857e-09,0.5117171833232537
2.973064259684543e-09,7.369521627255704e-05,2.973064259684543e-09,7.369521627442012e-05,2.973064259684543e-09,7.369521626734581e-05,2.973064259684543e-09,6.437806315924107e-05,2.973064259684543e-09,0.5405912553803015
3.015890532229235e-09,7.369521626952919e-05,3.015890532229235e-09,7.369521626783817e-05,3.015890532229235e-09,7.369521627414407e-05,3.015890532229235e-09,6.437806283934001e-05,3.015890532229235e-09,0.5643836290162418
3.059187524506049e-09,7.369521626961267e-05,3.059187524506049e-09,7.369521627387066e-05,3.059187524506049e-09,7.369521626859204e-05,3.059187524506049e-09,6.437806317876879e-05,3.059187524506049e-09,0.5884375136144718
3.070300109813101e-09,7.369521627150634e-05,3.070300109813101e-09,7.369521626895026e-05,3.070300109813101e-09,7.369521627155362e-05,3.070300109813101e-09,6.437806281395079e-05,3.070300109813101e-09,0.5946111721183893
3.092525280427204e-09,7.369521627044252e-05,3.092525280427204e-09,7.369521627292023e-05,3.092525280427204e-09,7.369521627111502e-05,3.092525280427204e-09,6.437806319575568e-05,3.092525280427204e-09,0.6069584891262246
3.099684254192576e-09,7.369521627105364e-05,3.099684254192576e-09,7.369521626979587e-05,3.099684254192576e-09,7.3695216267699e-05,3.099684254192576e-09,6.437806282651184e-05,3.099684254192576e-09,0.6109356967736533
3.114002201723319e-09,7.369521626858428e-05,3.114002201723319e-09,7.369521627195386e-05,3.114002201723319e-09,7.369521627435816e-05,3.114002201723319e-09,6.43780631696362e-05,3.114002201723319e-09,0.6188901120685106
3.124927069161104e-09,7.369521627236236e-05,3.124927069161104e-09,7.369521627027837e-05,3.124927069161104e-09,7.369521626719642e-05,3.124927069161104e-09,6.437806281187648e-05,3.124927069161104e-09,0.6249594828672801
3.135313259469557e-09,7.369521627030781e-05,3.135313259469557e-09,7.369521627184144e-05,3.135313259469557e-09,7.369521627871891e-05,3.135313259469557e-09,6.437806327597769e-05,3.135313259469557e-09,0.6307295885941984
3.147649716046149e-09,7.369521627196311e-05,3.147649716046149e-09,7.369521627030894e-05,3.147649716046149e-09,7.369521626815907e-05,3.147649716046149e-09,6.437806304430098e-05,3.147649716046149e-09,0.6375831755811938
3.157684697106787e-09,7.369521627058195e-05,3.157684697106787e-09,7.369521626919531e-05,3.157684697106787e-09,7.369521629502653e-05,3.157684697106787e-09,6.437806404528344e-05,3.157684697106787e-09,0.6431581650593262
3.16040914907687e-09,7.36952162621857e-05,3.16040914907687e-09,7.369521627160481e-05,3.16040914907687e-09,7.369521609526206e-05,3.16040914907687e-09,6.437806069230281e-05,3.16040914907687e-09,0.6446717494871498
3.165858053017034e-09,7.369521623280756e-05,3.165858053017034e-09,7.369521627158806e-05,3.165858053017034e-09,7.369521494231386e-05,3.165858053017034e-09,6.437802923287527e-05,3.165858053017034e-09,0.6476989183427969
3.176755860897364e-09,7.36952162911572e-05,3.176755860897364e-09,7.369521627062231e-05,3.176755860897364e-09,7.369521567765017e-05,3.176755860897364e-09,6.437799086956332e-05,3.176755860897364e-09,0.653753256054091
3.184473711924334e-09,7.369521744207192e-05,3.184473711924334e-09,7.36952162870677e-05,3.184473711924334e-09,7.369525795234796e-05,3.184473711924334e-09,6.437918199457203e-05,3.184473711924334e-09,0.6580409510690742
3.19500577538386e-09,7.369521617595927e-05,3.19500577538386e-09,7.369521624407154e-05,3.19500577538386e-09,7.36952279580048e-05,3.19500577538386e-09,6.438012148264605e-05,3.19500577538386e-09,0.6638920974354778
3.2025613769412e-09,7.369520192497982e-05,3.2025613769412e-09,7.369521595393657e-05,3.2025613769412e-09,7.369364845008199e-05,3.2025613769412e-09,6.433665051973201e-05,3.2025613769412e-09,0.6680896538562219
3.210983694086107e-09,7.369520933070536e-05,3.210983694086107e-09,7.369521692978618e-05,3.210983694086107e-09,7.369458023145459e-05,3.210983694086107e-09,6.430522825289888e-05,3.210983694086107e-09,0.6727687189367261
3.218019528251465e-09,7.369526226707919e-05,3.218019528251465e-09,7.36952177187432e-05,3.218019528251465e-09,7.370461859578382e-05,3.218019528251465e-09,6.455070829124399e-05,3.218019528251465e-09,0.6766775156952585
3.224396208448207e-09,7.369530185733469e-05,3.224396208448207e-09,7.369521178767153e-05,3.224396208448207e-09,7.369255685323758e-05,3.224396208448207e-09,6.451421907930953e-05,3.224396208448207e-09,0.6802201158045592
3.231792189859599e-09,7.369518728351249e-05,3.231792189859599e-09,7.369521847458466e-05,3.231792189859599e-09,7.368657550031917e-05,3.231792189859599e-09,6.425995097453552e-05,3.231792189859599e-09,0.6843289943664437
3.239450059280296e-09,7.369516686957285e-05,3.239450059280296e-09,7.369521855710218e-05,3.239450059280296e-09,7.369869382484848e-05,3.239450059280296e-09,6.431852056847139e-05,3.239450059280296e-09,0.6885833662668309
3.246950616046516e-09,7.369519939401583e-05,3.246950616046516e-09,7.36952131906382e-05,3.246950616046516e-09,7.369634309895946e-05,3.246950616046516e-09,6.436774346513881e-05,3.246950616046516e-09,0.6927503422480644
3.254159825650881e-09,7.369497834223762e-05,3.254159825650881e-09,7.36952165884128e-05,3.254159825650881e-09,7.369573376063154e-05,3.254159825650881e-09,6.438084338706588e-05,3.254159825650881e-09,0.6967554586949338
3.261467823054492e-09,7.369488944369616e-05,3.261467823054492e-09,7.369521535838258e-05,3.261467823054492e-09,7.36934802402934e-05,3.261467823054492e-09,6.432074030674759e-05,3.261467823054492e-09,0.7008154572524957
3.267074250368746e-09,7.369293694195613e-05,3.267074250368746e-09,7.369520694786978e-05,3.267074250368746e-09,7.369034616845064e-05,3.267074250368746e-09,6.414806309154492e-05,3.267074250368746e-09,0.7039301390937479
3.27152892549237e-09,7.367737572486171e-05,3.27152892549237e-09,7.369512654795865e-05,3.27152892549237e-09,7.369031379483226e-05,3.27152892549237e-09,6.367916719866598e-05,3.27152892549237e-09,0.7064049586068721
3.275483845620768e-09,7.364932724903822e-05,3.275483845620768e-09,7.369505103061354e-05,3.275483845620768e-09,7.369860987490089e-05,3.275483845620768e-09,6.288154015854774e-05,3.275483845620768e-09,0.7086021364559824
3.27952148550004e-09,7.371669143070071e-05,3.27952148550004e-09,7.369567571954352e-05,3.27952148550004e-09,7.370893350359587e-05,3.27952148550004e-09,6.368478781775366e-05,3.27952148550004e-09,0.7108452697222444
3.282944075053902e-09,7.426954283642435e-05,3.282944075053902e-09,7.369903253738771e-05,3.282944075053902e-09,7.371330258662857e-05,3.282944075053902e-09,7.466395329744768e-05,3.282944075053902e-09,0.7127467083632787
3.286376489157576e-09,7.522479288295821e-05,3.286376489157576e-09,7.370140850521256e-05,3.286376489157576e-09,7.37106637482335e-05,3.286376489157576e-09,0.0001002214955333097,3.286376489157576e-09,0.7146536050875419
3.289553102786066e-09,7.496007558806721e-05,3.289553102786066e-09,7.369237252521467e-05,3.289553102786066e-09,7.370665775360571e-05,3.289553102786066e-09,0.0001082834635751263,3.289553102786066e-09,0.7164183904367031
3.291928258088514e-09,7.379941782417286e-05,3.291928258088514e-09,7.368406640038922e-05,3.291928258088514e-09,7.370295421008876e-05,3.291928258088514e-09,6.137167802460527e-05,3.291928258088514e-09,0.7177379211602856
3.294779353580163e-09,7.26555040046922e-05,3.294779353580163e-09,7.368524482075543e-05,3.294779353580163e-09,7.368065629437377e-05,3.294779353580163e-09,-0.0001621461676496091,3.294779353580163e-09,0.7193218631000905
3.298097002124361e-09,6.869786262072345e-05,3.298097002124361e-09,7.369739839007472e-05,3.298097002124361e-09,7.365641609014612e-05,3.298097002124361e-09,-0.000792697215484094,3.298097002124361e-09,0.7211650011802007
3.30212956308186e-09,5.730946377762713e-05,3.30212956308186e-09,7.371537819977729e-05,3.30212956308186e-09,7.367961012810552e-05,3.30212956308186e-09,-0.001211921278469661,3.30212956308186e-09,0.7234053128232558
3.305053046884172e-09,5.461391805408781e-05,3.305053046884172e-09,7.370558270571322e-05,3.305053046884172e-09,7.369425416591724e-05,3.305053046884172e-09,-0.0009754790887236841,3.305053046884172e-09,0.7250294704912064
3.307772064263316e-09,6.304930811759392e-05,3.307772064263316e-09,7.368624841720094e-05,3.307772064263316e-09,7.369006562236432e-05,3.307772064263316e-09,-0.0005998385071987346,3.307772064263316e-09,0.7265400357018423
3.310486936778296e-09,8.257528711600944e-05,3.310486936778296e-09,7.369036739429747e-05,3.310486936778296e-09,7.368759502196315e-05,3.310486936778296e-09,-0.0002771865831414884,3.310486936778296e-09,0.7280482982101644
3.313380916699863e-09,0.0001226736360933925,3.313380916699863e-09,7.371069842197699e-05,3.313380916699863e-09,7.368699318736709e-05,3.313380916699863e-09,-0.0002643977178359914,3.313380916699863e-09,0.7296560648332573
3.315831367859653e-09,0.0001831626466549971,3.315831367859653e-09,7.372858368711662e-05,3.315831367859653e-09,7.369083329306211e-05,3.315831367859653e-09,-0.0006746337829306577,3.315831367859653e-09,0.7310174265886962
3.318484385529684e-09,0.0003207756200100881,3.318484385529684e-09,7.372082100653083e-05,3.318484385529684e-09,7.369960702303037e-05,3.318484385529684e-09,-0.001509946530912271,3.318484385529684e-09,0.7324913252942687
3.322077769088336e-09,0.0003703803933683983,3.322077769088336e-09,7.367594286174619e-05,3.322077769088336e-09,7.371483110988338e-05,3.322077769088336e-09,-0.002698521118191019,3.322077769088336e-09,0.7344876494935197
3.324817852752431e-09,-0.002652705230978963,3.324817852752431e-09,7.36392967712597e-05,3.324817852752431e-09,7.371815883169865e-05,3.324817852752431e-09,-0.003346612148273627,3.324817852752431e-09,0.7360099181957946
3.327786240188302e-09,-0.01053237932545696,3.327786240188302e-09,7.361818995532282e-05,3.327786240188302e-09,7.371421049436818e-05,3.327786240188302e-09,-0.003581801996133607,3.327786240188302e-09,0.7376590223268346
3.330762451141323e-09,-0.01111074355883199,3.330762451141323e-09,7.363141146360958e-05,3.330762451141323e-09,7.370892107047683e-05,3.330762451141323e-09,-0.003168617356976724,3.330762451141323e-09,0.7393124728562906
3.333407553640242e-09,0.02210542347324901,3.333407553640242e-09,7.366705178070455e-05,3.333407553640242e-09,7.369869498728908e-05,3.333407553640242e-09,-0.0023625677148507,3.333407553640242e-09,0.7407819742445788
3.335932455323571e-09,0.1004257136969878,3.335932455323571e-09,7.370000717749595e-05,3.335932455323571e-09,7.368239395083752e-05,3.335932455323571e-09,-0.001654610457425006,3.335932455323571e-09,0.7421846974019837
3.338072533364544e-09,0.1939474269007763,3.338072533364544e-09,7.373469339264912e-05,3.338072533364544e-09,7.368548619673425e-05,3.338072533364544e-09,-0.0009532343086741817,3.338072533364544e-09,0.7433736296469688
3.340638044075358e-09,0.3214973886450858,3.340638044075358e-09,7.376179635085273e-05,3.340638044075358e-09,7.369466908080679e-05,3.340638044075358e-09,0.0002032225807883954,3.340638044075358e-09,0.7447989133751987
3.343453803824227e-09,0.4719671655247943,3.343453803824227e-09,7.374478403692057e-05,3.343453803824227e-09,7.368552228616516e-05,3.343453803824227e-09,0.00142714094535165,3.343453803824227e-09,0.7463632243467926
3.346189697339603e-09,0.6120190845013269,3.346189697339603e-09,7.372225610108246e-05,3.346189697339603e-09,7.368265507139294e-05,3.346189697339603e-09,0.002370081249885901,3.346189697339603e-09,0.7478831651886686
3.349080149241919e-09,0.7320919256842179,3.349080149241919e-09,7.370318183818654e-05,3.349080149241919e-09,7.368278804849689e-05,3.349080149241919e-09,0.002921030427458233,3.349080149241919e-09,0.7494889718010658
3.351618239994937e-09,0.8042392284269915,3.351618239994937e-09,7.369807386998749e-05,3.351618239994937e-09,7.368832705821255e-05,3.351618239994937e-09,0.003049353256999031,3.351618239994937e-09,0.7508990222194096
3.354233821351072e-09,0.8678644383514008,3.354233821351072e-09,7.369864993727811e-05,3.354233821351072e-09,7.369573643591185e-05,3.354233821351072e-09,0.002934561248984258,3.354233821351072e-09,0.7523521229728178
3.357088987052237e-09,1.005100168011787,3.357088987052237e-09,7.369972131006437e-05,3.357088987052237e-09,7.370044326421832e-05,3.357088987052237e-09,0.002625862568880322,3.357088987052237e-09,0.7539383261401317
3.359734589984146e-09,1.335047579660037,3.359734589984146e-09,7.369978847717404e-05,3.359734589984146e-09,7.370280733371685e-05,3.359734589984146e-09,0.002258499464510982,3.359734589984146e-09,0.7554081055467479
3.361815584234144e-09,1.841632841071001,3.361815584234144e-09,7.369939923667403e-05,3.361815584234144e-09,7.370308921213197e-05,3.361815584234144e-09,0.001976541460641251,3.361815584234144e-09,0.7565642134634135
3.363800636169148e-09,2.523145060746729,3.363800636169148e-09,7.369789197972514e-05,3.363800636169148e-09,7.370241401584497e-05,3.363800636169148e-09,0.001733509672106402,3.363800636169148e-09,0.7576670200939711
3.365051950063811e-09,3.001227822106248,3.365051950063811e-09,7.36963821462473e-05,3.365051950063811e-09,7.370094500460647e-05,3.365051950063811e-09,0.001593336221321465,3.365051950063811e-09,0.7583621944798949
3.366762987640538e-09,3.608799966647587,3.366762987640538e-09,7.36943387697794e-05,3.366762987640538e-09,7.369936741938544e-05,3.366762987640538e-09,0.00141660015521638,3.366762987640538e-09,0.7593127709114097
3.368170822620009e-09,3.99768098371325,3.368170822620009e-09,7.369273453308647e-05,3.368170822620009e-09,7.369773747952219e-05,3.368170822620009e-09,0.001281902339044695,3.368170822620009e-09,0.7600949014555607
