/net039 X,/net039 Y,/net010 X,/net010 Y,/net09 X,/net09 Y,/net08 X,/net08 Y,/net02 X,/net02 Y
0,7.369521627074764e-05,0,7.3695216271095e-05,0,7.369521627098596e-05,0,6.437806307232017e-05,0,0
1.5e-11,7.369521627071595e-05,1.5e-11,7.369521627108823e-05,1.5e-11,7.369521627102663e-05,1.5e-11,6.437806307226384e-05,1.5e-11,0
4.5e-11,7.369521627107195e-05,4.5e-11,7.369521627103257e-05,4.5e-11,7.369521627111307e-05,4.5e-11,6.437806307223582e-05,4.5e-11,0
1.05e-10,7.369521626922916e-05,1.05e-10,7.369521627241566e-05,1.05e-10,7.369521627233766e-05,1.05e-10,6.437806307250615e-05,1.05e-10,0
2.25e-10,7.369521627292733e-05,2.25e-10,7.369521626960698e-05,2.25e-10,7.369521627003166e-05,2.25e-10,6.43780630724119e-05,2.25e-10,0
4.65e-10,7.369521626623114e-05,4.65e-10,7.369521627241135e-05,4.65e-10,7.369521627206156e-05,4.65e-10,6.437806307244662e-05,4.65e-10,0
7.649999999999999e-10,7.369521627580143e-05,7.649999999999999e-10,7.369521627268617e-05,7.649999999999999e-10,7.369521626703282e-05,7.649999999999999e-10,6.43780630723389e-05,7.649999999999999e-10,0
1.065e-09,7.369521626618071e-05,1.065e-09,7.369521626619158e-05,1.065e-09,7.369521627491386e-05,1.065e-09,6.437806307233787e-05,1.065e-09,0
1.365e-09,7.369521627567715e-05,1.365e-09,7.369521627874923e-05,1.365e-09,7.369521626730709e-05,1.365e-09,6.437806307234003e-05,1.365e-09,0
1.665e-09,7.369521626646679e-05,1.665e-09,7.36952162601863e-05,1.665e-09,7.369521627483958e-05,1.665e-09,6.437806307241554e-05,1.665e-09,0
1.8325e-09,7.369521627214939e-05,1.8325e-09,7.369521627843476e-05,1.8325e-09,7.369521626767404e-05,1.8325e-09,6.437806307241612e-05,1.8325e-09,0
2e-09,7.369521626964352e-05,2e-09,7.369521626690787e-05,2e-09,7.369521627467611e-05,2e-09,6.437806307238142e-05,2e-09,0
2.120144127384571e-09,7.369521627097352e-05,2.120144127384571e-09,7.369521627104409e-05,2.120144127384571e-09,7.369521627101227e-05,2.120144127384571e-09,6.437806307274206e-05,2.120144127384571e-09,0.06674673743587282
2.261585129605973e-09,7.369521626915779e-05,2.261585129605973e-09,7.36952162724912e-05,2.261585129605973e-09,7.369521627260016e-05,2.261585129605973e-09,6.437806304709935e-05,2.261585129605973e-09,0.1453250720033182
2.400273538304042e-09,7.369521627290099e-05,2.400273538304042e-09,7.369521626951544e-05,2.400273538304042e-09,7.369521626988372e-05,2.400273538304042e-09,6.43780631890631e-05,2.400273538304042e-09,0.2223741879466899
2.455450261564968e-09,7.369521626610289e-05,2.455450261564968e-09,7.369521627238923e-05,2.455450261564968e-09,7.369521627124571e-05,2.455450261564968e-09,6.437806241322734e-05,2.455450261564968e-09,0.2530279230916486
2.48303862319543e-09,7.369521627195348e-05,2.48303862319543e-09,7.369521626994761e-05,2.48303862319543e-09,7.369521628007518e-05,2.48303862319543e-09,6.43780652249269e-05,2.48303862319543e-09,0.2683547906641279
2.538215346456356e-09,7.369521626983841e-05,2.538215346456356e-09,7.369521627510564e-05,2.538215346456356e-09,7.369521625471828e-05,2.538215346456356e-09,6.43780603799605e-05,2.538215346456356e-09,0.2990085258090865
2.560737121398752e-09,7.369521627195623e-05,2.560737121398752e-09,7.369521626777622e-05,2.560737121398752e-09,7.369521629744433e-05,2.560737121398752e-09,6.437806550754715e-05,2.560737121398752e-09,0.3115206229993064
2.57199800886995e-09,7.369521627041642e-05,2.57199800886995e-09,7.369521627315392e-05,2.57199800886995e-09,7.369521625236591e-05,2.57199800886995e-09,6.437806378336951e-05,2.57199800886995e-09,0.3177766715944164
2.594519783812345e-09,7.369521627161605e-05,2.594519783812345e-09,7.369521627146067e-05,2.594519783812345e-09,7.369521627387472e-05,2.594519783812345e-09,6.437806110648501e-05,2.594519783812345e-09,0.3302887687846362
2.61929201554437e-09,7.369521627027777e-05,2.61929201554437e-09,7.369521627094063e-05,2.61929201554437e-09,7.369521628488162e-05,2.61929201554437e-09,6.437806536630662e-05,2.61929201554437e-09,0.3440511197468721
2.640503769765456e-09,7.369521627147815e-05,2.640503769765456e-09,7.369521627111218e-05,2.640503769765456e-09,7.369521624699539e-05,2.640503769765456e-09,6.437806097302317e-05,2.640503769765456e-09,0.3558354276474755
2.660686031888202e-09,7.369521627059643e-05,2.660686031888202e-09,7.369521627090844e-05,2.660686031888202e-09,7.369521629465775e-05,2.660686031888202e-09,6.437806470589315e-05,2.660686031888202e-09,0.3670477954934455
2.682055619276801e-09,7.369521626869476e-05,2.682055619276801e-09,7.36952162708039e-05,2.682055619276801e-09,7.369521624522025e-05,2.682055619276801e-09,6.437806189778225e-05,2.682055619276801e-09,0.3789197884871119
2.701703988604433e-09,7.369521627289996e-05,2.701703988604433e-09,7.369521627131248e-05,2.701703988604433e-09,7.369521629392756e-05,2.701703988604433e-09,6.437806382711685e-05,2.701703988604433e-09,0.389835549224685
2.725079201383625e-09,7.369521626661959e-05,2.725079201383625e-09,7.369521627061218e-05,2.725079201383625e-09,7.369521625117049e-05,2.725079201383625e-09,6.437806259219063e-05,2.725079201383625e-09,0.4028217785464583
2.753399842659942e-09,7.369521627482562e-05,2.753399842659942e-09,7.369521627137622e-05,2.753399842659942e-09,7.36952162855447e-05,2.753399842659942e-09,6.437806337663606e-05,2.753399842659942e-09,0.418555468144412
2.784176825806435e-09,7.369521626751074e-05,2.784176825806435e-09,7.369521627055205e-05,2.784176825806435e-09,7.36952162612334e-05,2.784176825806435e-09,6.437806289403896e-05,2.784176825806435e-09,0.4356537921146858
2.812895477102839e-09,7.369521627430123e-05,2.812895477102839e-09,7.369521627168478e-05,2.812895477102839e-09,7.369521627926248e-05,2.812895477102839e-09,6.437806314607885e-05,2.812895477102839e-09,0.451608598390466
2.842817606890987e-09,7.369521627072578e-05,2.842817606890987e-09,7.369521627021164e-05,2.842817606890987e-09,7.369521626440118e-05,2.842817606890987e-09,6.437806307472087e-05,2.842817606890987e-09,0.4682320038283262
2.867139585824215e-09,7.369521627116895e-05,2.867139585824215e-09,7.369521626899243e-05,2.867139585824215e-09,7.369521627586543e-05,2.867139585824215e-09,6.437806300174468e-05,2.867139585824215e-09,0.4817442143467858
2.89510426513053e-09,7.369521626796941e-05,2.89510426513053e-09,7.369521627272958e-05,2.89510426513053e-09,7.369521627011085e-05,2.89510426513053e-09,6.43780631847477e-05,2.89510426513053e-09,0.4972801472947388
2.921090929981885e-09,7.369521627590972e-05,2.921090929981885e-09,7.369521626938584e-05,2.921090929981885e-09,7.369521627161591e-05,2.921090929981885e-09,6.437806292888416e-05,2.921090929981885e-09,0.5117171833232695
2.973064259684596e-09,7.36952162659838e-05,2.973064259684596e-09,7.36952162696276e-05,2.973064259684596e-09,7.369521627068065e-05,2.973064259684596e-09,6.437806322734277e-05,2.973064259684596e-09,0.540591255380331
3.015890532229363e-09,7.369521627555618e-05,3.015890532229363e-09,7.369521627212825e-05,3.015890532229363e-09,7.369521627089398e-05,3.015890532229363e-09,6.43780629058508e-05,3.015890532229363e-09,0.5643836290163128
3.059187524506124e-09,7.369521626679387e-05,3.059187524506124e-09,7.36952162695483e-05,3.059187524506124e-09,7.369521627141203e-05,3.059187524506124e-09,6.437806324766016e-05,3.059187524506124e-09,0.5884375136145135
3.070300109813183e-09,7.369521627582333e-05,3.070300109813183e-09,7.369521627180315e-05,3.070300109813183e-09,7.369521626976978e-05,3.070300109813183e-09,6.437806287979961e-05,3.070300109813183e-09,0.5946111721184349
3.0925252804273e-09,7.369521626617683e-05,3.0925252804273e-09,7.369521626732746e-05,3.0925252804273e-09,7.369521627280865e-05,3.0925252804273e-09,6.437806326519769e-05,3.0925252804273e-09,0.6069584891262775
3.099684254192655e-09,7.369521627340225e-05,3.099684254192655e-09,7.369521627277347e-05,3.099684254192655e-09,7.36952162690465e-05,3.099684254192655e-09,6.437806289228835e-05,3.099684254192655e-09,0.610935696773697
3.114002201723365e-09,7.369521626826868e-05,3.114002201723365e-09,7.369521627185691e-05,3.114002201723365e-09,7.369521627058718e-05,3.114002201723365e-09,6.437806323963937e-05,3.114002201723365e-09,0.6188901120685359
3.124927069161159e-09,7.369521627326531e-05,3.124927069161159e-09,7.369521627055191e-05,3.124927069161159e-09,7.369521626949055e-05,3.124927069161159e-09,6.437806287816905e-05,3.124927069161159e-09,0.6249594828673107
3.135313259469608e-09,7.369521626913856e-05,3.135313259469608e-09,7.369521627126924e-05,3.135313259469608e-09,7.369521627710386e-05,3.135313259469608e-09,6.437806334514986e-05,3.135313259469608e-09,0.6307295885942266
3.147649716046191e-09,7.36952162730347e-05,3.147649716046191e-09,7.369521627053493e-05,3.147649716046191e-09,7.369521626765852e-05,3.147649716046191e-09,6.437806311028703e-05,3.147649716046191e-09,0.6375831755812174
3.157684697106835e-09,7.369521626974184e-05,3.157684697106835e-09,7.36952162711809e-05,3.157684697106835e-09,7.369521629542414e-05,3.157684697106835e-09,6.437806411499558e-05,3.157684697106835e-09,0.6431581650593527
3.160409149076912e-09,7.369521626289669e-05,3.160409149076912e-09,7.369521627202196e-05,3.160409149076912e-09,7.369521609426659e-05,3.160409149076912e-09,6.437806075810169e-05,3.160409149076912e-09,0.6446717494871731
3.165858053017065e-09,7.369521623317151e-05,3.165858053017065e-09,7.369521626986496e-05,3.165858053017065e-09,7.369521494331763e-05,3.165858053017065e-09,6.437802929722984e-05,3.165858053017065e-09,0.6476989183428136
3.176755860897371e-09,7.369521629353365e-05,3.176755860897371e-09,7.369521627172532e-05,3.176755860897371e-09,7.369521567968954e-05,3.176755860897371e-09,6.437799093949636e-05,3.176755860897371e-09,0.6537532560540948
3.184473711924332e-09,7.369521744326286e-05,3.184473711924332e-09,7.369521628822774e-05,3.184473711924332e-09,7.369525795370675e-05,3.184473711924332e-09,6.437918217877948e-05,3.184473711924332e-09,0.658040951069073
3.195005775383866e-09,7.369521617788163e-05,3.195005775383866e-09,7.369521624359785e-05,3.195005775383866e-09,7.369522795998312e-05,3.195005775383866e-09,6.438012144735757e-05,3.195005775383866e-09,0.6638920974354812
3.202561376941203e-09,7.369520192609606e-05,3.202561376941203e-09,7.369521595440142e-05,3.202561376941203e-09,7.36936484468443e-05,3.202561376941203e-09,6.433664617713861e-05,3.202561376941203e-09,0.668089653856224
3.210983694085786e-09,7.369520933083543e-05,3.210983694085786e-09,7.36952169292968e-05,3.210983694085786e-09,7.369458022927449e-05,3.210983694085786e-09,6.43052317478574e-05,3.210983694085786e-09,0.6727687189365475
3.218019528251113e-09,7.369526226439059e-05,3.218019528251113e-09,7.369521771451157e-05,3.218019528251113e-09,7.370461863364247e-05,3.218019528251113e-09,6.455073648530312e-05,3.218019528251113e-09,0.676677515695063
3.224396208445166e-09,7.36953018574127e-05,3.224396208445166e-09,7.369521179133376e-05,3.224396208445166e-09,7.369255684861609e-05,3.224396208445166e-09,6.451417712391178e-05,3.224396208445166e-09,0.6802201158028702
3.231792189856513e-09,7.369518728601595e-05,3.231792189856513e-09,7.369521847752649e-05,3.231792189856513e-09,7.368657542491887e-05,3.231792189856513e-09,6.425994612185675e-05,3.231792189856513e-09,0.6843289943647294
3.239450059276007e-09,7.369516686589998e-05,3.239450059276007e-09,7.369521855776198e-05,3.239450059276007e-09,7.369869386468677e-05,3.239450059276007e-09,6.431855992337502e-05,3.239450059276007e-09,0.6885833662644482
3.246950616042948e-09,7.36951993934355e-05,3.246950616042948e-09,7.369521319148604e-05,3.246950616042948e-09,7.369634314647865e-05,3.246950616042948e-09,6.436771642988704e-05,3.246950616042948e-09,0.6927503422460825
3.254159825646261e-09,7.369497834855393e-05,3.254159825646261e-09,7.369521659148065e-05,3.254159825646261e-09,7.369573372508056e-05,3.254159825646261e-09,6.438085248116552e-05,3.254159825646261e-09,0.6967554586923672
3.261467823049523e-09,7.369488944116212e-05,3.261467823049523e-09,7.369521535796535e-05,3.261467823049523e-09,7.369348022741572e-05,3.261467823049523e-09,6.432073219231266e-05,3.261467823049523e-09,0.7008154572497347
3.267074250363669e-09,7.369293694619667e-05,3.267074250363669e-09,7.369520694904128e-05,3.267074250363669e-09,7.369034615763372e-05,3.267074250363669e-09,6.414805324402815e-05,3.267074250363669e-09,0.7039301390909273
3.271528925488051e-09,7.367737572655693e-05,3.271528925488051e-09,7.369512654742157e-05,3.271528925488051e-09,7.369031378404472e-05,3.271528925488051e-09,6.367916718992743e-05,3.271528925488051e-09,0.7064049586044729
3.275483845616535e-09,7.364932724933021e-05,3.275483845616535e-09,7.369505103114053e-05,3.275483845616535e-09,7.369860990075742e-05,3.275483845616535e-09,6.288157036569319e-05,3.275483845616535e-09,0.7086021364536305
3.279521485496905e-09,7.371669142946025e-05,3.279521485496905e-09,7.369567572058141e-05,3.279521485496905e-09,7.37089335833146e-05,3.279521485496905e-09,6.368483229226216e-05,3.279521485496905e-09,0.710845269720503
3.28294407505072e-09,7.42695428331727e-05,3.28294407505072e-09,7.369903253820371e-05,3.28294407505072e-09,7.371330267326966e-05,3.28294407505072e-09,7.466398600787775e-05,3.28294407505072e-09,0.712746708361511
3.286376489154739e-09,7.522479288260221e-05,3.286376489154739e-09,7.37014085067616e-05,3.286376489154739e-09,7.371066378343518e-05,3.286376489154739e-09,0.0001002214993126199,3.286376489154739e-09,0.7146536050859662
3.289553102785208e-09,7.496007558794522e-05,3.289553102785208e-09,7.369237252602917e-05,3.289553102785208e-09,7.370665772153648e-05,3.289553102785208e-09,0.0001082833972315375,3.289553102785208e-09,0.7164183904362263
3.291928258087623e-09,7.37994178253519e-05,3.291928258087623e-09,7.368406640248636e-05,3.291928258087623e-09,7.370295415625194e-05,3.291928258087623e-09,6.137159854416212e-05,3.291928258087623e-09,0.7177379211597906
3.294779353579279e-09,7.26555040076735e-05,3.294779353579279e-09,7.368524482028073e-05,3.294779353579279e-09,7.368065618926258e-05,3.294779353579279e-09,-0.0001621462482289389,3.294779353579279e-09,0.7193218630995997
3.298097002123571e-09,6.869786262184701e-05,3.298097002123571e-09,7.369739839055619e-05,3.298097002123571e-09,7.365641589547773e-05,3.298097002123571e-09,-0.0007926973397303092,3.298097002123571e-09,0.7211650011797617
3.302129563080481e-09,5.730946378462408e-05,3.302129563080481e-09,7.371537820367222e-05,3.302129563080481e-09,7.367960997909321e-05,3.302129563080481e-09,-0.001211921169854158,3.302129563080481e-09,0.7234053128224892
3.30505304688308e-09,5.461391805081378e-05,3.30505304688308e-09,7.370558270569222e-05,3.30505304688308e-09,7.369425419591322e-05,3.30505304688308e-09,-0.000975478738792348,3.30505304688308e-09,0.7250294704905997
3.307772064261881e-09,6.304930809792047e-05,3.307772064261881e-09,7.368624840400735e-05,3.307772064261881e-09,7.36900657509483e-05,3.307772064261881e-09,-0.0005998383834388014,3.307772064261881e-09,0.7265400357010451
3.310486936776323e-09,8.257528709462272e-05,3.310486936776323e-09,7.369036739064554e-05,3.310486936776323e-09,7.368759516515575e-05,3.310486936776323e-09,-0.0002771868808895875,3.310486936776323e-09,0.7280482982090684
3.313380916698379e-09,0.0001226736360715044,3.313380916698379e-09,7.371069843643183e-05,3.313380916698379e-09,7.36869933535154e-05,3.313380916698379e-09,-0.0002643980539067339,3.313380916698379e-09,0.7296560648324328
3.315831367857937e-09,0.0001831626465844464,3.315831367857937e-09,7.372858371318271e-05,3.315831367857937e-09,7.369083354013901e-05,3.315831367857937e-09,-0.000674633283658021,3.315831367857937e-09,0.7310174265877427
3.318484385527684e-09,0.0003207756198205759,3.318484385527684e-09,7.372082097291327e-05,3.318484385527684e-09,7.369960694836902e-05,3.318484385527684e-09,-0.001509946333818028,3.318484385527684e-09,0.7324913252931576
3.322077769086513e-09,0.0003703803938763021,3.322077769086513e-09,7.367594284693188e-05,3.322077769086513e-09,7.371483099020515e-05,3.322077769086513e-09,-0.002698522046182643,3.322077769086513e-09,0.7344876494925069
3.324817852751205e-09,-0.00265270522836349,3.324817852751205e-09,7.363929684147563e-05,3.324817852751205e-09,7.371815913753015e-05,3.324817852751205e-09,-0.003346611587417689,3.324817852751205e-09,0.7360099181951141
3.327786240188777e-09,-0.01053237932550529,3.327786240188777e-09,7.361818990757191e-05,3.327786240188777e-09,7.371421036131144e-05,3.327786240188777e-09,-0.003581801525933438,3.327786240188777e-09,0.7376590223270985
3.330762451138354e-09,-0.01111074357461027,3.330762451138354e-09,7.363141144475518e-05,3.330762451138354e-09,7.370892091960782e-05,3.330762451138354e-09,-0.003168617514496821,3.330762451138354e-09,0.7393124728546409
3.333407553637241e-09,0.02210542340829355,3.333407553637241e-09,7.366705180627264e-05,3.333407553637241e-09,7.36986949302198e-05,3.333407553637241e-09,-0.002362567827590496,3.333407553637241e-09,0.7407819742429116
3.335932455320707e-09,0.1004257135833305,3.335932455320707e-09,7.370000716926692e-05,3.335932455320707e-09,7.368239389833375e-05,3.335932455320707e-09,-0.001654610804927188,3.335932455320707e-09,0.7421846974003928
3.338072533361791e-09,0.1939474267715337,3.338072533361791e-09,7.373469341220314e-05,3.338072533361791e-09,7.368548621546574e-05,3.338072533361791e-09,-0.0009532343827710567,3.338072533361791e-09,0.7433736296454395
3.340638044072012e-09,0.3214973884706919,3.340638044072012e-09,7.37617963437374e-05,3.340638044072012e-09,7.369466906552236e-05,3.340638044072012e-09,0.0002032226210152235,3.340638044072012e-09,0.74479891337334
3.343453803820903e-09,0.4719671653472005,3.343453803820903e-09,7.374478402962221e-05,3.343453803820903e-09,7.368552228052598e-05,3.343453803820903e-09,0.001427140980984901,3.343453803820903e-09,0.7463632243449462
3.346189697339353e-09,0.612019084486592,3.346189697339353e-09,7.372225609769891e-05,3.346189697339353e-09,7.368265505402169e-05,3.346189697339353e-09,0.002370081212414162,3.346189697339353e-09,0.7478831651885295
3.349080149242124e-09,0.7320919256921816,3.349080149242124e-09,7.370318184391686e-05,3.349080149242124e-09,7.368278807637005e-05,3.349080149242124e-09,0.00292103051788472,3.349080149242124e-09,0.74948897180118
3.351618239995506e-09,0.8042392284401672,3.351618239995506e-09,7.369807386538661e-05,3.351618239995506e-09,7.368832704930419e-05,3.351618239995506e-09,0.003049353309904947,3.351618239995506e-09,0.7508990222197253
3.354233821351416e-09,0.8678644383610395,3.354233821351416e-09,7.369864993717668e-05,3.354233821351416e-09,7.369573645393162e-05,3.354233821351416e-09,0.002934561355118547,3.354233821351416e-09,0.7523521229730088
3.357088987052621e-09,1.005100168039627,3.357088987052621e-09,7.369972130887397e-05,3.357088987052621e-09,7.370044325444042e-05,3.357088987052621e-09,0.002625862609125494,3.357088987052621e-09,0.7539383261403448
3.359734589984495e-09,1.335047579721218,3.359734589984495e-09,7.369978847791634e-05,3.359734589984495e-09,7.370280734769311e-05,3.359734589984495e-09,0.002258499489064323,3.359734589984495e-09,0.7554081055469418
3.361815584234421e-09,1.841632841150131,3.361815584234421e-09,7.36993992393996e-05,3.361815584234421e-09,7.370308921037641e-05,3.361815584234421e-09,0.001976541451195465,3.361815584234421e-09,0.7565642134635672
3.363800636169474e-09,2.523145060861823,3.363800636169474e-09,7.369789197896134e-05,3.363800636169474e-09,7.370241402884618e-05,3.363800636169474e-09,0.001733509652061997,3.363800636169474e-09,0.7576670200941521
3.365051950064087e-09,3.001227822204245,3.365051950064087e-09,7.369638214861581e-05,3.365051950064087e-09,7.370094500514695e-05,3.365051950064087e-09,0.001593336193839254,3.365051950064087e-09,0.7583621944800483
3.366762987640752e-09,3.608799966710959,3.366762987640752e-09,7.369433877026906e-05,3.366762987640752e-09,7.369936742576217e-05,3.366762987640752e-09,0.001416600112123935,3.366762987640752e-09,0.7593127709115287
3.36817082262021e-09,3.997680983756181,3.36817082262021e-09,7.369273453606589e-05,3.36817082262021e-09,7.3697737481361e-05,3.36817082262021e-09,0.001281902303121146,3.36817082262021e-09,0.760094901455672
