/net039 X,/net039 Y,/net010 X,/net010 Y,/net09 X,/net09 Y,/net08 X,/net08 Y,/net02 X,/net02 Y
0,7.369521627107943e-05,0,7.369521627093401e-05,0,7.369521627101549e-05,0,6.437806297020556e-05,0,0
1.5e-11,7.369521627104767e-05,1.5e-11,7.369521627092763e-05,1.5e-11,7.369521627104147e-05,1.5e-11,6.437806297021591e-05,1.5e-11,0
4.5e-11,7.36952162709644e-05,4.5e-11,7.369521627109399e-05,4.5e-11,7.369521627110894e-05,4.5e-11,6.437806297032183e-05,4.5e-11,0
1.05e-10,7.369521627268507e-05,1.05e-10,7.3695216269501e-05,1.05e-10,7.369521627272734e-05,1.05e-10,6.437806297033744e-05,1.05e-10,0
2.25e-10,7.369521626936882e-05,2.25e-10,7.369521627231571e-05,2.25e-10,7.369521626960101e-05,2.25e-10,6.437806297053981e-05,2.25e-10,0
4.65e-10,7.369521626957853e-05,4.65e-10,7.369521626969958e-05,4.65e-10,7.369521627262509e-05,4.65e-10,6.437806297019424e-05,4.65e-10,0
7.649999999999999e-10,7.36952162724714e-05,7.649999999999999e-10,7.369521627253976e-05,7.649999999999999e-10,7.369521626975105e-05,7.649999999999999e-10,6.437806297058542e-05,7.649999999999999e-10,0
1.065e-09,7.369521627266074e-05,1.065e-09,7.369521626952401e-05,1.065e-09,7.369521627249802e-05,1.065e-09,6.437806297016257e-05,1.065e-09,0
1.365e-09,7.369521626898611e-05,1.365e-09,7.369521627245046e-05,1.365e-09,7.369521627272548e-05,1.365e-09,6.437806297057451e-05,1.365e-09,0
1.665e-09,7.369521627302254e-05,1.665e-09,7.369521626637055e-05,1.665e-09,7.369521626975615e-05,1.665e-09,6.437806297019202e-05,1.665e-09,0
1.8325e-09,7.369521626885587e-05,1.8325e-09,7.369521627515674e-05,1.8325e-09,7.369521627222363e-05,1.8325e-09,6.437806297045405e-05,1.8325e-09,0
2e-09,7.369521627325434e-05,2e-09,7.36952162638911e-05,2e-09,7.3695216273176e-05,2e-09,6.437806297032576e-05,2e-09,0
2.120144127384571e-09,7.36952162709784e-05,2.120144127384571e-09,7.369521627088432e-05,2.120144127384571e-09,7.369521627085147e-05,2.120144127384571e-09,6.437806297103714e-05,2.120144127384571e-09,0.06674673743587282
2.261585129605973e-09,7.369521626937645e-05,2.261585129605973e-09,7.369521627254981e-05,2.261585129605973e-09,7.369521626979442e-05,2.261585129605973e-09,6.437806294460904e-05,2.261585129605973e-09,0.1453250720033182
2.400273538304042e-09,7.369521627284277e-05,2.400273538304042e-09,7.369521626956045e-05,2.400273538304042e-09,7.369521626929095e-05,2.400273538304042e-09,6.437806308698414e-05,2.400273538304042e-09,0.2223741879466899
2.455450261564963e-09,7.369521626932418e-05,2.455450261564963e-09,7.369521627201395e-05,2.455450261564963e-09,7.369521627229294e-05,2.455450261564963e-09,6.437806231604506e-05,2.455450261564963e-09,0.2530279230916461
2.483038623195424e-09,7.369521627234647e-05,2.483038623195424e-09,7.36952162674204e-05,2.483038623195424e-09,7.369521627610067e-05,2.483038623195424e-09,6.437806509833696e-05,2.483038623195424e-09,0.2683547906641242
2.538215346456345e-09,7.369521626942363e-05,2.538215346456345e-09,7.369521627131808e-05,2.538215346456345e-09,7.369521626151749e-05,2.538215346456345e-09,6.43780603136439e-05,2.538215346456345e-09,0.2990085258090806
2.560737121398763e-09,7.369521626943737e-05,2.560737121398763e-09,7.369521627080794e-05,2.560737121398763e-09,7.369521629205685e-05,2.560737121398763e-09,6.437806536247124e-05,2.560737121398763e-09,0.3115206229993128
2.571998008869972e-09,7.369521627212658e-05,2.571998008869972e-09,7.369521627110806e-05,2.571998008869972e-09,7.369521625557681e-05,2.571998008869972e-09,6.437806368742369e-05,2.571998008869972e-09,0.317776671594429
2.59451978381239e-09,7.369521627261962e-05,2.59451978381239e-09,7.36952162712694e-05,2.59451978381239e-09,7.369521627342677e-05,2.59451978381239e-09,6.437806102278327e-05,2.59451978381239e-09,0.3302887687846612
2.619292015544443e-09,7.369521626972902e-05,2.619292015544443e-09,7.369521627343211e-05,2.619292015544443e-09,7.369521628248803e-05,2.619292015544443e-09,6.437806523325009e-05,2.619292015544443e-09,0.3440511197469126
2.64050376976553e-09,7.369521627207359e-05,2.64050376976553e-09,7.369521626901635e-05,2.64050376976553e-09,7.369521624895455e-05,2.64050376976553e-09,6.43780609068021e-05,2.64050376976553e-09,0.3558354276475169
2.660686031888224e-09,7.36952162701783e-05,2.660686031888224e-09,7.369521627291427e-05,2.660686031888224e-09,7.369521629321671e-05,2.660686031888224e-09,6.437806456858576e-05,2.660686031888224e-09,0.3670477954934579
2.682055619276809e-09,7.36952162714853e-05,2.682055619276809e-09,7.369521626914692e-05,2.682055619276809e-09,7.369521624887168e-05,2.682055619276809e-09,6.437806182677497e-05,2.682055619276809e-09,0.3789197884871162
2.701703988604443e-09,7.369521627062035e-05,2.701703988604443e-09,7.369521627249815e-05,2.701703988604443e-09,7.369521628574273e-05,2.701703988604443e-09,6.437806369972755e-05,2.701703988604443e-09,0.3898355492246903
2.72507920138364e-09,7.369521627116506e-05,2.72507920138364e-09,7.369521627241716e-05,2.72507920138364e-09,7.369521625805502e-05,2.72507920138364e-09,6.43780625096255e-05,2.72507920138364e-09,0.4028217785464668
2.753399842659943e-09,7.369521627049616e-05,2.753399842659943e-09,7.369521626995006e-05,2.753399842659943e-09,7.369521628260122e-05,2.753399842659943e-09,6.437806325911641e-05,2.753399842659943e-09,0.4185554681444127
2.78417682580643e-09,7.369521627107655e-05,2.78417682580643e-09,7.369521627182988e-05,2.78417682580643e-09,7.36952162612545e-05,2.78417682580643e-09,6.437806280428277e-05,2.78417682580643e-09,0.4356537921146835
2.812895477102822e-09,7.369521627088105e-05,2.812895477102822e-09,7.369521627006946e-05,2.812895477102822e-09,7.369521627903941e-05,2.812895477102822e-09,6.437806303536039e-05,2.812895477102822e-09,0.4516085983904568
2.84281760689097e-09,7.369521627127899e-05,2.84281760689097e-09,7.369521627214434e-05,2.84281760689097e-09,7.369521626458516e-05,2.84281760689097e-09,6.437806297864759e-05,2.84281760689097e-09,0.4682320038283168
2.867139585824193e-09,7.369521627063724e-05,2.867139585824193e-09,7.369521627006915e-05,2.867139585824193e-09,7.369521627601449e-05,2.867139585824193e-09,6.437806289656031e-05,2.867139585824193e-09,0.4817442143467736
2.895104265130534e-09,7.369521627405883e-05,2.895104265130534e-09,7.369521626920383e-05,2.895104265130534e-09,7.369521626748914e-05,2.895104265130534e-09,6.437806308344048e-05,2.895104265130534e-09,0.4972801472947411
2.921090929981875e-09,7.369521626816255e-05,2.921090929981875e-09,7.369521627538979e-05,2.921090929981875e-09,7.369521627394799e-05,2.921090929981875e-09,6.4378062827844e-05,2.921090929981875e-09,0.5117171833232638
2.973064259684557e-09,7.369521627345279e-05,2.973064259684557e-09,7.369521626664597e-05,2.973064259684557e-09,7.369521626851767e-05,2.973064259684557e-09,6.437806312324086e-05,2.973064259684557e-09,0.5405912553803093
3.015890532229329e-09,7.369521626859174e-05,3.015890532229329e-09,7.369521627513003e-05,3.015890532229329e-09,7.369521627280439e-05,3.015890532229329e-09,6.437806280702483e-05,3.015890532229329e-09,0.564383629016294
3.059187524506077e-09,7.369521627342211e-05,3.059187524506077e-09,7.369521626706733e-05,3.059187524506077e-09,7.369521626972345e-05,3.059187524506077e-09,6.437806314153715e-05,3.059187524506077e-09,0.5884375136144872
3.070300109813141e-09,7.369521626962369e-05,3.070300109813141e-09,7.36952162706715e-05,3.070300109813141e-09,7.369521627061843e-05,3.070300109813141e-09,6.437806278326622e-05,3.070300109813141e-09,0.594611172118412
3.092525280427271e-09,7.369521627261649e-05,3.092525280427271e-09,7.369521627089124e-05,3.092525280427271e-09,7.369521627190971e-05,3.092525280427271e-09,6.437806315705046e-05,3.092525280427271e-09,0.6069584891262614
3.099684254192633e-09,7.369521627239324e-05,3.099684254192633e-09,7.369521627066216e-05,3.099684254192633e-09,7.369521626939869e-05,3.099684254192633e-09,6.437806279668717e-05,3.099684254192633e-09,0.6109356967736853
3.114002201723359e-09,7.369521626996966e-05,3.114002201723359e-09,7.369521627113959e-05,3.114002201723359e-09,7.369521626992403e-05,3.114002201723359e-09,6.437806313107682e-05,3.114002201723359e-09,0.6188901120685329
3.124927069161158e-09,7.369521627418791e-05,3.124927069161158e-09,7.369521627085193e-05,3.124927069161158e-09,7.369521627011311e-05,3.124927069161158e-09,6.43780627815903e-05,3.124927069161158e-09,0.6249594828673102
3.135313259469612e-09,7.369521626898566e-05,3.135313259469612e-09,7.369521627127168e-05,3.135313259469612e-09,7.36952162764047e-05,3.135313259469612e-09,6.437806323813497e-05,3.135313259469612e-09,0.630729588594229
3.1476497160462e-09,7.369521627537031e-05,3.1476497160462e-09,7.369521627036805e-05,3.1476497160462e-09,7.369521626751684e-05,3.1476497160462e-09,6.437806301365117e-05,3.1476497160462e-09,0.6375831755812221
3.157684697106844e-09,7.369521627061057e-05,3.157684697106844e-09,7.369521627185537e-05,3.157684697106844e-09,7.369521629522906e-05,3.157684697106844e-09,6.437806400791812e-05,3.157684697106844e-09,0.6431581650593581
3.160409149076921e-09,7.369521626262179e-05,3.160409149076921e-09,7.369521627143653e-05,3.160409149076921e-09,7.36952160958146e-05,3.160409149076921e-09,6.437806066210002e-05,3.160409149076921e-09,0.644671749487178
3.165858053017073e-09,7.369521623223808e-05,3.165858053017073e-09,7.369521627072144e-05,3.165858053017073e-09,7.369521494479066e-05,3.165858053017073e-09,6.437802921486265e-05,3.165858053017073e-09,0.6476989183428182
3.176755860897377e-09,7.369521629390824e-05,3.176755860897377e-09,7.369521627123446e-05,3.176755860897377e-09,7.369521567889626e-05,3.176755860897377e-09,6.437799083243378e-05,3.176755860897377e-09,0.6537532560540985
3.184473711924339e-09,7.369521744043228e-05,3.184473711924339e-09,7.369521628884804e-05,3.184473711924339e-09,7.369525795266779e-05,3.184473711924339e-09,6.437918142368055e-05,3.184473711924339e-09,0.6580409510690772
3.195005775383874e-09,7.369521617972564e-05,3.195005775383874e-09,7.369521624265889e-05,3.195005775383874e-09,7.369522796024167e-05,3.195005775383874e-09,6.438012161412309e-05,3.195005775383874e-09,0.6638920974354857
3.202561376941209e-09,7.369520192739621e-05,3.202561376941209e-09,7.369521595497088e-05,3.202561376941209e-09,7.369364850024882e-05,3.202561376941209e-09,6.4336670717656e-05,3.202561376941209e-09,0.6680896538562272
3.210983694089768e-09,7.369520933210706e-05,3.210983694089768e-09,7.369521692885296e-05,3.210983694089768e-09,7.369458022325893e-05,3.210983694089768e-09,6.430522497283408e-05,3.210983694089768e-09,0.67276871893876
3.218019528255391e-09,7.369526226560212e-05,3.218019528255391e-09,7.369521771918909e-05,3.218019528255391e-09,7.370461820517677e-05,3.218019528255391e-09,6.455057899983016e-05,3.218019528255391e-09,0.6766775156974393
3.22439620848124e-09,7.369530186125748e-05,3.22439620848124e-09,7.369521179454733e-05,3.22439620848124e-09,7.369255708621578e-05,3.22439620848124e-09,6.451432233127071e-05,3.22439620848124e-09,0.680220115822911
3.231792189865372e-09,7.369518727639232e-05,3.231792189865372e-09,7.369521846879937e-05,3.231792189865372e-09,7.368657612422389e-05,3.231792189865372e-09,6.426005082664686e-05,3.231792189865372e-09,0.6843289943696512
3.23945005929573e-09,7.369516687455236e-05,3.23945005929573e-09,7.369521856348805e-05,3.23945005929573e-09,7.369869328443885e-05,3.23945005929573e-09,6.431839812251694e-05,3.23945005929573e-09,0.6885833662754053
3.246950616055842e-09,7.36951993945157e-05,3.246950616055842e-09,7.369521319042189e-05,3.246950616055842e-09,7.369634281874253e-05,3.246950616055842e-09,6.436777438268368e-05,3.246950616055842e-09,0.6927503422532458
3.254159825665715e-09,7.369497833935994e-05,3.254159825665715e-09,7.369521658509393e-05,3.254159825665715e-09,7.369573403870823e-05,3.254159825665715e-09,6.438082711060394e-05,3.254159825665715e-09,0.6967554587031748
3.26146782306993e-09,7.369488944932783e-05,3.26146782306993e-09,7.369521536414441e-05,3.26146782306993e-09,7.369348034109775e-05,3.26146782306993e-09,6.432077329915077e-05,3.26146782306993e-09,0.7008154572610722
3.26707425038464e-09,7.369293694320402e-05,3.26707425038464e-09,7.369520694276206e-05,3.26707425038464e-09,7.369034631261503e-05,3.26707425038464e-09,6.414812224840809e-05,3.26707425038464e-09,0.7039301391025776
3.271528925505793e-09,7.367737572258336e-05,3.271528925505793e-09,7.369512654963755e-05,3.271528925505793e-09,7.369031387118492e-05,3.271528925505793e-09,6.367920055500033e-05,3.271528925505793e-09,0.7064049586143297
3.275483845633918e-09,7.364932724752168e-05,3.275483845633918e-09,7.369505103184922e-05,3.275483845633918e-09,7.369860953418719e-05,3.275483845633918e-09,6.288144858706117e-05,3.275483845633918e-09,0.7086021364632876
3.279521485509548e-09,7.371669143260079e-05,3.279521485509548e-09,7.3695675724001e-05,3.279521485509548e-09,7.370893271651301e-05,3.279521485509548e-09,6.368457573960779e-05,3.279521485509548e-09,0.7108452697275268
3.282944075063213e-09,7.426954284210082e-05,3.282944075063213e-09,7.369903253903176e-05,3.282944075063213e-09,7.371330187815988e-05,3.282944075063213e-09,7.466373361592451e-05,3.282944075063213e-09,0.7127467083684517
3.286376489166203e-09,7.522479288514637e-05,3.286376489166203e-09,7.370140850660596e-05,3.286376489166203e-09,7.37106635958606e-05,3.286376489166203e-09,0.0001002213708995682,3.286376489166203e-09,0.7146536050923347
3.289553102791579e-09,7.496007558525294e-05,3.289553102791579e-09,7.369237252457965e-05,3.289553102791579e-09,7.370665814087282e-05,3.289553102791579e-09,0.0001082835741653197,3.289553102791579e-09,0.7164183904397663
3.291928258094013e-09,7.379941781182615e-05,3.291928258094013e-09,7.368406639456558e-05,3.291928258094013e-09,7.370295476820415e-05,3.291928258094013e-09,6.137186368535362e-05,3.291928258094013e-09,0.7177379211633407
3.294779353585703e-09,7.265550399849658e-05,3.294779353585703e-09,7.368524481901735e-05,3.294779353585703e-09,7.368065756906134e-05,3.294779353585703e-09,-0.0001621458749914094,3.294779353585703e-09,0.7193218631031685
3.298097002129532e-09,6.869786259955477e-05,3.298097002129532e-09,7.369739839176494e-05,3.298097002129532e-09,7.365641797596321e-05,3.298097002129532e-09,-0.0007926967700653288,3.298097002129532e-09,0.7211650011830731
3.302129563078208e-09,5.730946376174209e-05,3.302129563078208e-09,7.371537818455467e-05,3.302129563078208e-09,7.36796110790352e-05,3.302129563078208e-09,-0.001211921426265571,3.302129563078208e-09,0.7234053128212267
3.305053046880792e-09,5.4613918077332e-05,3.305053046880792e-09,7.370558272320587e-05,3.305053046880792e-09,7.369425366142371e-05,3.305053046880792e-09,-0.0009754793262051312,3.305053046880792e-09,0.7250294704893286
3.307772064262265e-09,6.304930813643308e-05,3.307772064262265e-09,7.368624842156655e-05,3.307772064262265e-09,7.369006401883649e-05,3.307772064262265e-09,-0.0005998388363716392,3.307772064262265e-09,0.7265400357012585
3.310486936780789e-09,8.25752871870958e-05,3.310486936780789e-09,7.369036741439294e-05,3.310486936780789e-09,7.368759361893619e-05,3.310486936780789e-09,-0.0002771861255213771,3.310486936780789e-09,0.7280482982115496
3.31338091670566e-09,0.0001226736362510045,3.31338091670566e-09,7.371069840832082e-05,3.31338091670566e-09,7.368699204345486e-05,3.31338091670566e-09,-0.0002643968684503047,3.31338091670566e-09,0.7296560648364778
3.315831367866269e-09,0.0001831626469808459,3.315831367866269e-09,7.372858363733311e-05,3.315831367866269e-09,7.369083232398637e-05,3.315831367866269e-09,-0.0006746339848541519,3.315831367866269e-09,0.7310174265923718
3.318484385537368e-09,0.0003207756207149725,3.318484385537368e-09,7.372082103642094e-05,3.318484385537368e-09,7.369960658548087e-05,3.318484385537368e-09,-0.001509946849842365,3.318484385537368e-09,0.7324913252985379
3.322077769098574e-09,0.0003703803900592957,3.322077769098574e-09,7.367594285859582e-05,3.322077769098574e-09,7.37148310648544e-05,3.322077769098574e-09,-0.002698521936472378,3.322077769098574e-09,0.7344876494992078
3.324817852761816e-09,-0.002652705251448803,3.324817852761816e-09,7.363929678229299e-05,3.324817852761816e-09,7.371815918725641e-05,3.324817852761816e-09,-0.003346612835846423,3.324817852761816e-09,0.7360099182010089
3.327786240198345e-09,-0.01053237935243996,3.327786240198345e-09,7.361818996561531e-05,3.327786240198345e-09,7.371421108293191e-05,3.327786240198345e-09,-0.003581802114290709,3.327786240198345e-09,0.7376590223324139
3.330762451151334e-09,-0.01111074351089694,3.330762451151334e-09,7.363141144699392e-05,3.330762451151334e-09,7.37089216471445e-05,3.330762451151334e-09,-0.003168617025752304,3.330762451151334e-09,0.7393124728618523
3.333407553651362e-09,0.02210542372038963,3.333407553651362e-09,7.366705177733788e-05,3.333407553651362e-09,7.369869543156819e-05,3.333407553651362e-09,-0.002362567038437862,3.333407553651362e-09,0.7407819742507565
3.335932455330749e-09,0.1004257139932587,3.335932455330749e-09,7.370000716118261e-05,3.335932455330749e-09,7.368239423115001e-05,3.335932455330749e-09,-0.001654609736663624,3.335932455330749e-09,0.7421846974059717
3.338072533371958e-09,0.1939474272534511,3.338072533371958e-09,7.373469338234181e-05,3.338072533371958e-09,7.368548634633066e-05,3.338072533371958e-09,-0.0009532339013266434,3.338072533371958e-09,0.7433736296510876
3.340638044083363e-09,0.3214973890632794,3.340638044083363e-09,7.376179634285513e-05,3.340638044083363e-09,7.369466911501485e-05,3.340638044083363e-09,0.0002032223426232092,3.340638044083363e-09,0.7447989133796462
3.34345380383348e-09,0.4719671660149222,3.34345380383348e-09,7.374478406956136e-05,3.34345380383348e-09,7.368552235971041e-05,3.34345380383348e-09,0.001427140946334393,3.34345380383348e-09,0.7463632243519334
3.346189697340956e-09,0.6120190845664892,3.346189697340956e-09,7.372225609816066e-05,3.346189697340956e-09,7.368265505522576e-05,3.346189697340956e-09,0.002370081257151271,3.346189697340956e-09,0.7478831651894199
3.349080149241857e-09,0.7320919256742087,3.349080149241857e-09,7.370318183058753e-05,3.349080149241857e-09,7.368278798466536e-05,3.349080149241857e-09,0.002921030255530629,3.349080149241857e-09,0.7494889718010316
3.351618239994076e-09,0.8042392284031229,3.351618239994076e-09,7.36980738714129e-05,3.351618239994076e-09,7.368832699818311e-05,3.351618239994076e-09,0.003049353052753344,3.351618239994076e-09,0.7508990222189312
3.354233821350626e-09,0.8678644383336599,3.354233821350626e-09,7.369864993552909e-05,3.354233821350626e-09,7.369573637289555e-05,3.354233821350626e-09,0.002934560996505364,3.354233821350626e-09,0.7523521229725701
3.357088987051707e-09,1.005100167959689,3.357088987051707e-09,7.369972131167489e-05,3.357088987051707e-09,7.370044321674235e-05,3.357088987051707e-09,0.002625862415817408,3.357088987051707e-09,0.7539383261398374
3.359734589983613e-09,1.335047579531316,3.359734589983613e-09,7.3699788475625e-05,3.359734589983613e-09,7.370280729252983e-05,3.359734589983613e-09,0.002258499405927476,3.359734589983613e-09,0.755408105546452
3.361815584233771e-09,1.841632840907341,3.361815584233771e-09,7.369939923438572e-05,3.361815584233771e-09,7.370308917050168e-05,3.361815584233771e-09,0.001976541462422753,3.361815584233771e-09,0.7565642134632063
3.363800636168649e-09,2.523145060500063,3.363800636168649e-09,7.369789197862162e-05,3.363800636168649e-09,7.370241397969324e-05,3.363800636168649e-09,0.001733509720932278,3.363800636168649e-09,0.7576670200936941
3.36505195006345e-09,3.001227821907705,3.36505195006345e-09,7.369638214486092e-05,3.36505195006345e-09,7.37009449705381e-05,3.36505195006345e-09,0.001593336291243783,3.36505195006345e-09,0.7583621944796942
3.366762987640309e-09,3.608799966521931,3.366762987640309e-09,7.36943387710694e-05,3.366762987640309e-09,7.369936739175576e-05,3.366762987640309e-09,0.001416600258397293,3.366762987640309e-09,0.7593127709112829
3.368170822619806e-09,3.997680983627583,3.368170822619806e-09,7.369273453316106e-05,3.368170822619806e-09,7.369773745306953e-05,3.368170822619806e-09,0.001281902442500031,3.368170822619806e-09,0.7600949014554478
