/net039 X,/net039 Y,/net010 X,/net010 Y,/net09 X,/net09 Y,/net08 X,/net08 Y,/net02 X,/net02 Y
0,7.369521627067677e-05,0,7.369521627091405e-05,0,7.369521627107374e-05,0,6.437806314130659e-05,0,0
1.5e-11,7.369521627104749e-05,1.5e-11,7.369521627088344e-05,1.5e-11,7.36952162711144e-05,1.5e-11,6.437806314147061e-05,1.5e-11,0
4.5e-11,7.369521627070117e-05,4.5e-11,7.369521627103798e-05,4.5e-11,7.369521627098755e-05,4.5e-11,6.437806314120918e-05,4.5e-11,0
1.05e-10,7.369521627229858e-05,1.05e-10,7.369521626940159e-05,1.05e-10,7.369521627269769e-05,1.05e-10,6.43780631413236e-05,1.05e-10,0
2.25e-10,7.369521627266131e-05,2.25e-10,7.369521626967019e-05,2.25e-10,7.36952162695163e-05,2.25e-10,6.437806314172279e-05,2.25e-10,0
4.65e-10,7.369521626614871e-05,4.65e-10,7.369521627231442e-05,4.65e-10,7.369521627276377e-05,4.65e-10,6.437806314108185e-05,4.65e-10,0
7.649999999999999e-10,7.369521627883846e-05,7.649999999999999e-10,7.369521627286129e-05,7.649999999999999e-10,7.369521626962542e-05,7.649999999999999e-10,6.43780631417971e-05,7.649999999999999e-10,0
1.065e-09,7.369521626331824e-05,1.065e-09,7.36952162657212e-05,1.065e-09,7.369521627571384e-05,1.065e-09,6.437806314110436e-05,1.065e-09,0
1.365e-09,7.369521628157882e-05,1.365e-09,7.369521627302669e-05,1.365e-09,7.36952162696702e-05,1.365e-09,6.437806314151837e-05,1.365e-09,0
1.665e-09,7.369521626029056e-05,1.665e-09,7.369521626878824e-05,1.665e-09,7.369521627267233e-05,1.665e-09,6.437806314133446e-05,1.665e-09,0
1.8325e-09,7.369521628132522e-05,1.8325e-09,7.369521627287791e-05,1.8325e-09,7.369521626964479e-05,1.8325e-09,6.43780631415123e-05,1.8325e-09,0
2e-09,7.369521626392766e-05,2e-09,7.369521626884294e-05,2e-09,7.369521627560144e-05,2e-09,6.43780631412733e-05,2e-09,0
2.120144127384571e-09,7.369521627103696e-05,2.120144127384571e-09,7.36952162706953e-05,2.120144127384571e-09,7.369521627117308e-05,2.120144127384571e-09,6.437806314169073e-05,2.120144127384571e-09,0.06674673743587282
2.261585129605973e-09,7.369521627252284e-05,2.261585129605973e-09,7.369521626931561e-05,2.261585129605973e-09,7.369521627242435e-05,2.261585129605973e-09,6.437806311594132e-05,2.261585129605973e-09,0.1453250720033182
2.400273538304042e-09,7.369521626950495e-05,2.400273538304042e-09,7.36952162719984e-05,2.400273538304042e-09,7.369521627289475e-05,2.400273538304042e-09,6.43780632585299e-05,2.400273538304042e-09,0.2223741879466899
2.455450261564964e-09,7.369521627233108e-05,2.455450261564964e-09,7.36952162700853e-05,2.455450261564964e-09,7.369521626816182e-05,2.455450261564964e-09,6.437806248132954e-05,2.455450261564964e-09,0.2530279230916465
2.483038623195425e-09,7.369521626985751e-05,2.483038623195425e-09,7.369521626908525e-05,2.483038623195425e-09,7.369521627990717e-05,2.483038623195425e-09,6.437806529670096e-05,2.483038623195425e-09,0.2683547906641247
2.538215346456346e-09,7.369521627193477e-05,2.538215346456346e-09,7.369521627278833e-05,2.538215346456346e-09,7.369521625450082e-05,2.538215346456346e-09,6.437806044568298e-05,2.538215346456346e-09,0.299008525809081
2.560737121398762e-09,7.369521627021326e-05,2.560737121398762e-09,7.369521627247305e-05,2.560737121398762e-09,7.369521630027828e-05,2.560737121398762e-09,6.437806558267767e-05,2.560737121398762e-09,0.3115206229993122
2.57199800886997e-09,7.369521627139288e-05,2.57199800886997e-09,7.369521627019844e-05,2.57199800886997e-09,7.369521624799609e-05,2.57199800886997e-09,6.437806384704645e-05,2.57199800886997e-09,0.3177766715944279
2.594519783812387e-09,7.369521627050761e-05,2.594519783812387e-09,7.369521627188054e-05,2.594519783812387e-09,7.369521627486602e-05,2.594519783812387e-09,6.437806117729314e-05,2.594519783812387e-09,0.3302887687846592
2.619292015544424e-09,7.369521627150005e-05,2.619292015544424e-09,7.369521627017006e-05,2.619292015544424e-09,7.369521628117322e-05,2.619292015544424e-09,6.437806543684916e-05,2.619292015544424e-09,0.3440511197469023
2.640503769765511e-09,7.369521627053957e-05,2.640503769765511e-09,7.369521627188907e-05,2.640503769765511e-09,7.369521625002085e-05,2.640503769765511e-09,6.437806103755945e-05,2.640503769765511e-09,0.3558354276475059
2.660686031888209e-09,7.369521627150711e-05,2.660686031888209e-09,7.369521627042562e-05,2.660686031888209e-09,7.369521629791132e-05,2.660686031888209e-09,6.437806478111939e-05,2.660686031888209e-09,0.3670477954934494
2.682055619276795e-09,7.369521627056449e-05,2.682055619276795e-09,7.369521627394759e-05,2.682055619276795e-09,7.369521624560617e-05,2.682055619276795e-09,6.437806195996564e-05,2.682055619276795e-09,0.3789197884871082
2.701703988604426e-09,7.369521627149295e-05,2.701703988604426e-09,7.36952162688228e-05,2.701703988604426e-09,7.369521629357752e-05,2.701703988604426e-09,6.437806390247913e-05,2.701703988604426e-09,0.3898355492246813
2.72507920138363e-09,7.369521626800024e-05,2.72507920138363e-09,7.369521627310734e-05,2.72507920138363e-09,7.369521625416147e-05,2.72507920138363e-09,6.437806265586244e-05,2.72507920138363e-09,0.4028217785464608
2.753399842659941e-09,7.369521627373936e-05,2.753399842659941e-09,7.369521627188888e-05,2.753399842659941e-09,7.369521628321529e-05,2.753399842659941e-09,6.437806345061553e-05,2.753399842659941e-09,0.4185554681444117
2.784176825806443e-09,7.369521626867298e-05,2.784176825806443e-09,7.369521626985693e-05,2.784176825806443e-09,7.369521626337093e-05,2.784176825806443e-09,6.43780629593236e-05,2.784176825806443e-09,0.4356537921146906
2.812895477102828e-09,7.369521627322838e-05,2.812895477102828e-09,7.369521627194253e-05,2.812895477102828e-09,7.369521627751229e-05,2.812895477102828e-09,6.437806321849233e-05,2.812895477102828e-09,0.4516085983904601
2.842817606890985e-09,7.369521626891843e-05,2.842817606890985e-09,7.369521627020306e-05,2.842817606890985e-09,7.369521626881959e-05,2.842817606890985e-09,6.437806314110862e-05,2.842817606890985e-09,0.4682320038283249
2.867139585824212e-09,7.369521626989853e-05,2.867139585824212e-09,7.369521627169655e-05,2.867139585824212e-09,7.369521627210457e-05,2.867139585824212e-09,6.437806307245602e-05,2.867139585824212e-09,0.4817442143467845
2.895104265130533e-09,7.369521627209537e-05,2.895104265130533e-09,7.369521627316229e-05,2.895104265130533e-09,7.369521627098738e-05,2.895104265130533e-09,6.43780632527967e-05,2.895104265130533e-09,0.4972801472947404
2.921090929981886e-09,7.369521627001423e-05,2.921090929981886e-09,7.369521626882001e-05,2.921090929981886e-09,7.369521626791551e-05,2.921090929981886e-09,6.437806299789238e-05,2.921090929981886e-09,0.51171718332327
2.973064259684593e-09,7.369521627187087e-05,2.973064259684593e-09,7.369521627280177e-05,2.973064259684593e-09,7.369521627450889e-05,2.973064259684593e-09,6.43780632964665e-05,2.973064259684593e-09,0.5405912553803293
3.015890532229321e-09,7.369521627016793e-05,3.015890532229321e-09,7.369521626641601e-05,3.015890532229321e-09,7.369521626762212e-05,3.015890532229321e-09,6.437806297484004e-05,3.015890532229321e-09,0.5643836290162894
3.059187524506087e-09,7.369521627163281e-05,3.059187524506087e-09,7.369521627517142e-05,3.059187524506087e-09,7.369521627154973e-05,3.059187524506087e-09,6.437806331700706e-05,3.059187524506087e-09,0.5884375136144927
3.07030010981315e-09,7.369521627068966e-05,3.07030010981315e-09,7.369521626851898e-05,3.07030010981315e-09,7.369521626943673e-05,3.07030010981315e-09,6.437806294775183e-05,3.07030010981315e-09,0.5946111721184165
3.092525280427276e-09,7.369521627144108e-05,3.092525280427276e-09,7.369521627376137e-05,3.092525280427276e-09,7.369521627616864e-05,3.092525280427276e-09,6.437806333483802e-05,3.092525280427276e-09,0.606958489126264
3.099684254192637e-09,7.369521627052722e-05,3.099684254192637e-09,7.369521626982894e-05,3.099684254192637e-09,7.369521626759582e-05,3.099684254192637e-09,6.437806296027363e-05,3.099684254192637e-09,0.6109356967736873
3.114002201723361e-09,7.369521627153175e-05,3.114002201723361e-09,7.36952162727424e-05,3.114002201723361e-09,7.369521627011138e-05,3.114002201723361e-09,6.437806330910927e-05,3.114002201723361e-09,0.6188901120685336
3.124927069161159e-09,7.369521627070511e-05,3.124927069161159e-09,7.369521626972217e-05,3.124927069161159e-09,7.369521626992264e-05,3.124927069161159e-09,6.437806294611757e-05,3.124927069161159e-09,0.6249594828673107
3.135313259469613e-09,7.369521627131113e-05,3.135313259469613e-09,7.369521627207347e-05,3.135313259469613e-09,7.369521627695886e-05,3.135313259469613e-09,6.437806341462761e-05,3.135313259469613e-09,0.6307295885942292
3.147649716046199e-09,7.369521627096543e-05,3.147649716046199e-09,7.369521626974791e-05,3.147649716046199e-09,7.369521626992144e-05,3.147649716046199e-09,6.437806317891071e-05,3.147649716046199e-09,0.6375831755812215
3.157684697106845e-09,7.369521627124904e-05,3.157684697106845e-09,7.369521627208801e-05,3.157684697106845e-09,7.369521629434229e-05,3.157684697106845e-09,6.43780641842232e-05,3.157684697106845e-09,0.6431581650593584
3.160409149076921e-09,7.369521626215412e-05,3.160409149076921e-09,7.369521627199706e-05,3.160409149076921e-09,7.369521609436426e-05,3.160409149076921e-09,6.437806082666013e-05,3.160409149076921e-09,0.6446717494871785
3.165858053017074e-09,7.369521623273122e-05,3.165858053017074e-09,7.369521627072315e-05,3.165858053017074e-09,7.369521494578878e-05,3.165858053017074e-09,6.437802936375063e-05,3.165858053017074e-09,0.6476989183428188
3.176755860897378e-09,7.369521629075047e-05,3.176755860897378e-09,7.369521627311611e-05,3.176755860897378e-09,7.369521567957289e-05,3.176755860897378e-09,6.437799101167836e-05,3.176755860897378e-09,0.6537532560540991
3.184473711924338e-09,7.369521744463049e-05,3.184473711924338e-09,7.369521628558332e-05,3.184473711924338e-09,7.369525795179348e-05,3.184473711924338e-09,6.437918231853656e-05,3.184473711924338e-09,0.6580409510690767
3.195005775383873e-09,7.369521617621994e-05,3.195005775383873e-09,7.369521624791246e-05,3.195005775383873e-09,7.369522796145236e-05,3.195005775383873e-09,6.438012143093293e-05,3.195005775383873e-09,0.6638920974354848
3.202561376941209e-09,7.369520192731905e-05,3.202561376941209e-09,7.369521595163887e-05,3.202561376941209e-09,7.369364844585912e-05,3.202561376941209e-09,6.433664357185094e-05,3.202561376941209e-09,0.6680896538562274
3.210983694085764e-09,7.369520933177382e-05,3.210983694085764e-09,7.36952169313335e-05,3.210983694085764e-09,7.369458022985458e-05,3.210983694085764e-09,6.430523485886619e-05,3.210983694085764e-09,0.6727687189365356
3.218019528251088e-09,7.369526226456084e-05,3.218019528251088e-09,7.36952177177782e-05,3.218019528251088e-09,7.370461863622466e-05,3.218019528251088e-09,6.455075355627127e-05,3.218019528251088e-09,0.6766775156950486
3.224396208444845e-09,7.369530185461219e-05,3.224396208444845e-09,7.369521178735898e-05,3.224396208444845e-09,7.369255686672527e-05,3.224396208444845e-09,6.45141447451019e-05,3.224396208444845e-09,0.6802201158026915
3.231792189853433e-09,7.369518728629461e-05,3.231792189853433e-09,7.369521847897358e-05,3.231792189853433e-09,7.368657539244797e-05,3.231792189853433e-09,6.425994947498955e-05,3.231792189853433e-09,0.6843289943630182
3.239450059272459e-09,7.369516686651348e-05,3.239450059272459e-09,7.369521855591027e-05,3.239450059272459e-09,7.36986938656288e-05,3.239450059272459e-09,6.431858805783441e-05,3.239450059272459e-09,0.688583366262477
3.246950616039648e-09,7.369519939720016e-05,3.246950616039648e-09,7.369521319243906e-05,3.246950616039648e-09,7.369634317602161e-05,3.246950616039648e-09,6.436769266987692e-05,3.246950616039648e-09,0.692750342244249
3.254159825642263e-09,7.369497834342953e-05,3.254159825642263e-09,7.369521658955379e-05,3.254159825642263e-09,7.369573371637598e-05,3.254159825642263e-09,6.438086025807004e-05,3.254159825642263e-09,0.6967554586901458
3.261467823045173e-09,7.369488944638842e-05,3.261467823045173e-09,7.369521535613702e-05,3.261467823045173e-09,7.369348021939886e-05,3.261467823045173e-09,6.432072681317566e-05,3.261467823045173e-09,0.7008154572473185
3.267074250359238e-09,7.369293694355918e-05,3.267074250359238e-09,7.369520694785942e-05,3.267074250359238e-09,7.369034615709745e-05,3.267074250359238e-09,6.414804840500697e-05,3.267074250359238e-09,0.7039301390884658
3.271528925484276e-09,7.367737572513963e-05,3.271528925484276e-09,7.36951265464394e-05,3.271528925484276e-09,7.369031377650546e-05,3.271528925484276e-09,6.367916974074298e-05,3.271528925484276e-09,0.7064049586023758
3.275483845612834e-09,7.364932724869038e-05,3.275483845612834e-09,7.369505103120749e-05,3.275483845612834e-09,7.369860989158893e-05,3.275483845612834e-09,6.288159227213624e-05,3.275483845612834e-09,0.7086021364515742
3.27952148549414e-09,7.371669142827763e-05,3.27952148549414e-09,7.369567572063631e-05,3.27952148549414e-09,7.370893359602909e-05,3.27952148549414e-09,6.368485851912829e-05,3.27952148549414e-09,0.7108452697189667
3.282944075047882e-09,7.426954283356834e-05,3.282944075047882e-09,7.369903253876084e-05,3.282944075047882e-09,7.371330270423889e-05,3.282944075047882e-09,7.46640005783165e-05,3.282944075047882e-09,0.7127467083599345
3.286376489152239e-09,7.522479288240563e-05,3.286376489152239e-09,7.370140850620557e-05,3.286376489152239e-09,7.371066380900236e-05,3.286376489152239e-09,0.0001002214935140011,3.286376489152239e-09,0.7146536050845774
3.289553102784742e-09,7.496007558768195e-05,3.289553102784742e-09,7.369237252363069e-05,3.289553102784742e-09,7.370665771815238e-05,3.289553102784742e-09,0.0001082833412117326,3.289553102784742e-09,0.7164183904359677
3.291928258087119e-09,7.379941782783536e-05,3.291928258087119e-09,7.368406640230354e-05,3.291928258087119e-09,7.37029541459035e-05,3.291928258087119e-09,6.13715357944317e-05,3.291928258087119e-09,0.7177379211595104
3.294779353578791e-09,7.265550400804259e-05,3.294779353578791e-09,7.368524482372929e-05,3.294779353578791e-09,7.368065618938627e-05,3.294779353578791e-09,-0.0001621463023359674,3.294779353578791e-09,0.7193218630993286
3.29809700212316e-09,6.869786262453793e-05,3.29809700212316e-09,7.369739838924211e-05,3.29809700212316e-09,7.365641585279118e-05,3.29809700212316e-09,-0.0007926974140189277,3.29809700212316e-09,0.7211650011795334
3.302129563078544e-09,5.730946379161181e-05,3.302129563078544e-09,7.371537820525808e-05,3.302129563078544e-09,7.367960989523559e-05,3.302129563078544e-09,-0.00121192108176957,3.302129563078544e-09,0.7234053128214133
3.305053046881504e-09,5.461391804860469e-05,3.305053046881504e-09,7.370558270588886e-05,3.305053046881504e-09,7.369425417682246e-05,3.305053046881504e-09,-0.0009754784239835608,3.305053046881504e-09,0.7250294704897247
3.307772064260141e-09,6.304930807628921e-05,3.307772064260141e-09,7.368624839023735e-05,3.307772064260141e-09,7.369006574835429e-05,3.307772064260141e-09,-0.0005998382918199011,3.307772064260141e-09,0.7265400357000782
3.3104869367743e-09,8.25752870766103e-05,3.3104869367743e-09,7.369036738681141e-05,3.3104869367743e-09,7.368759519849104e-05,3.3104869367743e-09,-0.0002771871417792348,3.3104869367743e-09,0.7280482982079446
3.313380916697228e-09,0.0001226736360618442,3.313380916697228e-09,7.371069844974377e-05,3.313380916697228e-09,7.368699342685763e-05,3.313380916697228e-09,-0.0002643983134731027,3.313380916697228e-09,0.7296560648317935
3.315831367856598e-09,0.0001831626465258189,3.315831367856598e-09,7.37285837211075e-05,3.315831367856598e-09,7.369083360230793e-05,3.315831367856598e-09,-0.0006746333884212527,3.315831367856598e-09,0.731017426586999
3.318484385526147e-09,0.000320775619702281,3.318484385526147e-09,7.372082098013657e-05,3.318484385526147e-09,7.369960703167688e-05,3.318484385526147e-09,-0.00150994594781985,3.318484385526147e-09,0.732491325292304
3.322077769084491e-09,0.0003703803944462494,3.322077769084491e-09,7.367594282053191e-05,3.322077769084491e-09,7.371483086993713e-05,3.322077769084491e-09,-0.002698522173078523,3.322077769084491e-09,0.7344876494913838
3.324817852748717e-09,-0.002652705223172009,3.324817852748717e-09,7.363929685893384e-05,3.324817852748717e-09,7.371815922753498e-05,3.324817852748717e-09,-0.00334661144495287,3.324817852748717e-09,0.7360099181937318
3.327786240187143e-09,-0.01053237932084786,3.327786240187143e-09,7.361818990724601e-05,3.327786240187143e-09,7.37142103465951e-05,3.327786240187143e-09,-0.003581801318438017,3.327786240187143e-09,0.7376590223261903
3.330762451135716e-09,-0.01111074358755844,3.330762451135716e-09,7.363141142813985e-05,3.330762451135716e-09,7.370892085908685e-05,3.330762451135716e-09,-0.003168617732822802,3.330762451135716e-09,0.7393124728531756
3.333407553634529e-09,0.02210542334887601,3.333407553634529e-09,7.366705182956687e-05,3.333407553634529e-09,7.369869494235454e-05,3.333407553634529e-09,-0.00236256791175307,3.333407553634529e-09,0.7407819742414052
3.335932455318615e-09,0.1004257134984455,3.335932455318615e-09,7.37000071601112e-05,3.335932455318615e-09,7.368239386299238e-05,3.335932455318615e-09,-0.001654611078941009,3.335932455318615e-09,0.7421846973992308
3.338072533359803e-09,0.1939474266769219,3.338072533359803e-09,7.373469342594496e-05,3.338072533359803e-09,7.368548624418195e-05,3.338072533359803e-09,-0.0009532344167777453,3.338072533359803e-09,0.7433736296443353
3.340638044069684e-09,0.3214973883479302,3.340638044069684e-09,7.376179633936778e-05,3.340638044069684e-09,7.369466904721755e-05,3.340638044069684e-09,0.0002032226615348289,3.340638044069684e-09,0.7447989133720468
3.343453803818433e-09,0.4719671652141151,3.343453803818433e-09,7.374478402460768e-05,3.343453803818433e-09,7.368552227895946e-05,3.343453803818433e-09,0.001427141020092493,3.343453803818433e-09,0.7463632243435737
3.346189697339212e-09,0.6120190844771861,3.346189697339212e-09,7.372225609742155e-05,3.346189697339212e-09,7.368265503277337e-05,3.346189697339212e-09,0.002370081190549028,3.346189697339212e-09,0.7478831651884511
3.349080149242348e-09,0.7320919256999294,3.349080149242348e-09,7.370318184469937e-05,3.349080149242348e-09,7.36827880970631e-05,3.349080149242348e-09,0.002921030592951651,3.349080149242348e-09,0.7494889718013046
3.351618239995976e-09,0.8042392284506353,3.351618239995976e-09,7.36980738651663e-05,3.351618239995976e-09,7.368832703530544e-05,3.351618239995976e-09,0.003049353355299935,3.351618239995976e-09,0.7508990222199866
3.354233821351744e-09,0.8678644383698013,3.354233821351744e-09,7.369864993598688e-05,3.354233821351744e-09,7.369573647065385e-05,3.354233821351744e-09,0.002934561436790314,3.354233821351744e-09,0.7523521229731911
3.357088987053018e-09,1.005100168067283,3.357088987053018e-09,7.369972130699327e-05,3.357088987053018e-09,7.370044324326386e-05,3.357088987053018e-09,0.002625862642733402,3.357088987053018e-09,0.7539383261405654
3.359734589984853e-09,1.335047579780604,3.359734589984853e-09,7.369978847609953e-05,3.359734589984853e-09,7.370280736070088e-05,3.359734589984853e-09,0.002258499505177599,3.359734589984853e-09,0.7554081055471406
3.361815584234717e-09,1.841632841229656,3.361815584234717e-09,7.369939924278212e-05,3.361815584234717e-09,7.370308920261579e-05,3.361815584234717e-09,0.001976541446861704,3.361815584234717e-09,0.7565642134637317
3.363800636169812e-09,2.523145060974938,3.363800636169812e-09,7.36978919774548e-05,3.363800636169812e-09,7.3702414037228e-05,3.363800636169812e-09,0.001733509633408562,3.363800636169812e-09,0.7576670200943397
3.365051950064382e-09,3.001227822302903,3.365051950064382e-09,7.369638215138188e-05,3.365051950064382e-09,7.370094500439131e-05,3.365051950064382e-09,0.001593336175987292,3.365051950064382e-09,0.7583621944802124
3.366762987640989e-09,3.608799966775947,3.366762987640989e-09,7.369433876767268e-05,3.366762987640989e-09,7.369936743087272e-05,3.366762987640989e-09,0.001416600075943664,3.366762987640989e-09,0.7593127709116605
3.368170822620431e-09,3.997680983799734,3.368170822620431e-09,7.369273453792747e-05,3.368170822620431e-09,7.369773748169557e-05,3.368170822620431e-09,0.001281902278783198,3.368170822620431e-09,0.7600949014557948
