/net039 X,/net039 Y,/net010 X,/net010 Y,/net09 X,/net09 Y,/net08 X,/net08 Y,/net02 X,/net02 Y
0,7.369521627080176e-05,0,7.36952162709998e-05,0,7.369521627115113e-05,0,6.437806318943041e-05,0,0
1.5e-11,7.369521627076993e-05,1.5e-11,7.36952162709691e-05,1.5e-11,7.369521627098824e-05,1.5e-11,6.437806318944101e-05,1.5e-11,0
4.5e-11,7.369521627092523e-05,4.5e-11,7.369521627111258e-05,4.5e-11,7.369521627110471e-05,4.5e-11,6.437806318965777e-05,4.5e-11,0
1.05e-10,7.369521626935257e-05,1.05e-10,7.369521626939737e-05,1.05e-10,7.369521626941869e-05,1.05e-10,6.437806318938465e-05,1.05e-10,0
2.25e-10,7.369521626933571e-05,2.25e-10,7.369521626927917e-05,2.25e-10,7.369521626981176e-05,2.25e-10,6.43780631895404e-05,2.25e-10,0
4.65e-10,7.36952162726728e-05,4.65e-10,7.369521626951912e-05,4.65e-10,7.369521627236387e-05,4.65e-10,6.437806318948094e-05,4.65e-10,0
7.649999999999999e-10,7.36952162693679e-05,7.649999999999999e-10,7.369521627545705e-05,7.649999999999999e-10,7.369521627002501e-05,7.649999999999999e-10,6.437806318949309e-05,7.649999999999999e-10,0
1.065e-09,7.369521626940412e-05,1.065e-09,7.369521626652824e-05,1.065e-09,7.369521627200983e-05,1.065e-09,6.437806318959718e-05,1.065e-09,0
1.365e-09,7.369521627259665e-05,1.365e-09,7.369521627512493e-05,1.365e-09,7.369521626702793e-05,1.365e-09,6.437806318937971e-05,1.365e-09,0
1.665e-09,7.369521626930732e-05,1.665e-09,7.369521626997944e-05,1.665e-09,7.369521627490682e-05,1.665e-09,6.437806318955363e-05,1.665e-09,0
1.8325e-09,7.369521627236078e-05,1.8325e-09,7.369521627186402e-05,1.8325e-09,7.36952162702593e-05,1.8325e-09,6.437806318949511e-05,1.8325e-09,0
2e-09,7.36952162727801e-05,2e-09,7.369521627021255e-05,2e-09,7.369521626887326e-05,2e-09,6.437806318957834e-05,2e-09,0
2.120144127384571e-09,7.369521627101889e-05,2.120144127384571e-09,7.369521627100011e-05,2.120144127384571e-09,7.369521627111062e-05,2.120144127384571e-09,6.437806318994641e-05,2.120144127384571e-09,0.06674673743587282
2.261585129605973e-09,7.369521626912589e-05,2.261585129605973e-09,7.369521626945416e-05,2.261585129605973e-09,7.369521626958226e-05,2.261585129605973e-09,6.437806316376676e-05,2.261585129605973e-09,0.1453250720033182
2.400273538304042e-09,7.369521627283027e-05,2.400273538304042e-09,7.369521627540163e-05,2.400273538304042e-09,7.369521627251463e-05,2.400273538304042e-09,6.437806330643467e-05,2.400273538304042e-09,0.2223741879466899
2.455450261564976e-09,7.369521626908217e-05,2.455450261564976e-09,7.369521626695932e-05,2.455450261564976e-09,7.369521626622795e-05,2.455450261564976e-09,6.437806252962708e-05,2.455450261564976e-09,0.2530279230916532
2.483038623195443e-09,7.369521627251966e-05,2.483038623195443e-09,7.369521627421757e-05,2.483038623195443e-09,7.369521628176025e-05,2.483038623195443e-09,6.437806534515221e-05,2.483038623195443e-09,0.2683547906641348
2.538215346456377e-09,7.369521626954863e-05,2.538215346456377e-09,7.369521627089164e-05,2.538215346456377e-09,7.369521625283051e-05,2.538215346456377e-09,6.437806049208828e-05,2.538215346456377e-09,0.299008525809098
2.560737121398772e-09,7.369521627202163e-05,2.560737121398772e-09,7.369521627113428e-05,2.560737121398772e-09,7.369521629914235e-05,2.560737121398772e-09,6.437806563430479e-05,2.560737121398772e-09,0.3115206229993177
2.571998008869969e-09,7.369521627031311e-05,2.571998008869969e-09,7.369521627065729e-05,2.571998008869969e-09,7.369521625107401e-05,2.571998008869969e-09,6.437806389073332e-05,2.571998008869969e-09,0.3177766715944274
2.594519783812364e-09,7.369521626897196e-05,2.594519783812364e-09,7.369521627145014e-05,2.594519783812364e-09,7.369521627508156e-05,2.594519783812364e-09,6.437806122726028e-05,2.594519783812364e-09,0.3302887687846468
2.619292015544415e-09,7.369521627291069e-05,2.619292015544415e-09,7.369521627047458e-05,2.619292015544415e-09,7.369521628128267e-05,2.619292015544415e-09,6.437806548530018e-05,2.619292015544415e-09,0.3440511197468974
2.640503769765493e-09,7.369521626679998e-05,2.640503769765493e-09,7.369521627134401e-05,2.640503769765493e-09,7.369521625004625e-05,2.640503769765493e-09,6.437806108236073e-05,2.640503769765493e-09,0.355835427647496
2.660686031888202e-09,7.369521627722076e-05,2.660686031888202e-09,7.369521627081474e-05,2.660686031888202e-09,7.369521629475093e-05,2.660686031888202e-09,6.437806483393747e-05,2.660686031888202e-09,0.3670477954934455
2.682055619276787e-09,7.369521626560013e-05,2.682055619276787e-09,7.369521627108751e-05,2.682055619276787e-09,7.369521624787779e-05,2.682055619276787e-09,6.437806200288141e-05,2.682055619276787e-09,0.3789197884871038
2.701703988604426e-09,7.369521627272705e-05,2.701703988604426e-09,7.369521627068058e-05,2.701703988604426e-09,7.369521628882332e-05,2.701703988604426e-09,6.437806395566657e-05,2.701703988604426e-09,0.3898355492246813
2.7250792013836e-09,7.369521626916172e-05,2.7250792013836e-09,7.369521627161291e-05,2.7250792013836e-09,7.369521625806463e-05,2.7250792013836e-09,6.437806269912984e-05,2.7250792013836e-09,0.4028217785464443
2.75339984265997e-09,7.369521626982292e-05,2.75339984265997e-09,7.369521627065499e-05,2.75339984265997e-09,7.369521628212659e-05,2.75339984265997e-09,6.437806350322202e-05,2.75339984265997e-09,0.4185554681444278
2.784176825806508e-09,7.369521627186113e-05,2.784176825806508e-09,7.369521627120891e-05,2.784176825806508e-09,7.369521626175689e-05,2.784176825806508e-09,6.437806300379149e-05,2.784176825806508e-09,0.4356537921147264
2.812895477102888e-09,7.369521627010037e-05,2.812895477102888e-09,7.369521627076894e-05,2.812895477102888e-09,7.369521627574816e-05,2.812895477102888e-09,6.437806326904952e-05,2.812895477102888e-09,0.4516085983904934
2.842817606891053e-09,7.36952162686528e-05,2.842817606891053e-09,7.369521627129711e-05,2.842817606891053e-09,7.369521626770812e-05,2.842817606891053e-09,6.437806318744878e-05,2.842817606891053e-09,0.4682320038283627
2.867139585824225e-09,7.369521627307075e-05,2.867139585824225e-09,7.369521627371372e-05,2.867139585824225e-09,7.369521627560529e-05,2.867139585824225e-09,6.437806312127557e-05,2.867139585824225e-09,0.4817442143467915
2.895104265130534e-09,7.369521626910788e-05,2.895104265130534e-09,7.369521626589983e-05,2.895104265130534e-09,7.36952162676266e-05,2.895104265130534e-09,6.437806330020693e-05,2.895104265130534e-09,0.4972801472947411
2.921090929981891e-09,7.369521627244985e-05,2.921090929981891e-09,7.369521627501869e-05,2.921090929981891e-09,7.369521627067671e-05,2.921090929981891e-09,6.437806304666611e-05,2.921090929981891e-09,0.511717183323273
2.973064259684606e-09,7.369521627242627e-05,2.973064259684606e-09,7.369521626700106e-05,2.973064259684606e-09,7.369521627165513e-05,2.973064259684606e-09,6.437806334413568e-05,2.973064259684606e-09,0.5405912553803368
3.015890532229388e-09,7.369521626971351e-05,3.015890532229388e-09,7.369521627758122e-05,3.015890532229388e-09,7.369521627032503e-05,3.015890532229388e-09,6.437806302292977e-05,3.015890532229388e-09,0.5643836290163268
3.059187524506142e-09,7.36952162718559e-05,3.059187524506142e-09,7.369521626472568e-05,3.059187524506142e-09,7.369521627489521e-05,3.059187524506142e-09,6.43780633652863e-05,3.059187524506142e-09,0.5884375136145232
3.070300109813202e-09,7.369521627048669e-05,3.070300109813202e-09,7.369521627486361e-05,3.070300109813202e-09,7.369521626764487e-05,3.070300109813202e-09,6.437806299597462e-05,3.070300109813202e-09,0.5946111721184454
3.092525280427322e-09,7.369521627140258e-05,3.092525280427322e-09,7.369521626981634e-05,3.092525280427322e-09,7.369521627522071e-05,3.092525280427322e-09,6.437806338383963e-05,3.092525280427322e-09,0.6069584891262898
3.099684254192673e-09,7.36952162687747e-05,3.099684254192673e-09,7.369521627166595e-05,3.099684254192673e-09,7.369521627011574e-05,3.099684254192673e-09,6.437806300748004e-05,3.099684254192673e-09,0.6109356967737071
3.114002201723375e-09,7.36952162732012e-05,3.114002201723375e-09,7.369521626999446e-05,3.114002201723375e-09,7.369521627308307e-05,3.114002201723375e-09,6.437806335806684e-05,3.114002201723375e-09,0.6188901120685414
3.124927069161168e-09,7.369521627193388e-05,3.124927069161168e-09,7.369521627176304e-05,3.124927069161168e-09,7.369521626811498e-05,3.124927069161168e-09,6.437806299339318e-05,3.124927069161168e-09,0.6249594828673157
3.135313259469614e-09,7.369521626830898e-05,3.135313259469614e-09,7.369521627037698e-05,3.135313259469614e-09,7.369521627841708e-05,3.135313259469614e-09,6.43780634636203e-05,3.135313259469614e-09,0.6307295885942299
3.147649716046196e-09,7.369521627303111e-05,3.147649716046196e-09,7.369521627396365e-05,3.147649716046196e-09,7.369521627095247e-05,3.147649716046196e-09,6.437806322569164e-05,3.147649716046196e-09,0.63758317558122
3.157684697106842e-09,7.369521626975054e-05,3.157684697106842e-09,7.36952162715564e-05,3.157684697106842e-09,7.369521629348633e-05,3.157684697106842e-09,6.437806423395835e-05,3.157684697106842e-09,0.6431581650593565
3.160409149076918e-09,7.369521626137397e-05,3.160409149076918e-09,7.369521627219645e-05,3.160409149076918e-09,7.369521609521462e-05,3.160409149076918e-09,6.437806087357881e-05,3.160409149076918e-09,0.6446717494871768
3.16585805301707e-09,7.369521623057855e-05,3.16585805301707e-09,7.369521626957743e-05,3.16585805301707e-09,7.369521494224368e-05,3.16585805301707e-09,6.437802941128447e-05,3.16585805301707e-09,0.6476989183428169
3.176755860897375e-09,7.369521629252605e-05,3.176755860897375e-09,7.369521627227525e-05,3.176755860897375e-09,7.369521567998522e-05,3.176755860897375e-09,6.437799106087614e-05,3.176755860897375e-09,0.6537532560540973
3.184473711924338e-09,7.369521744348338e-05,3.184473711924338e-09,7.36952162858555e-05,3.184473711924338e-09,7.369525794917171e-05,3.184473711924338e-09,6.43791824167402e-05,3.184473711924338e-09,0.6580409510690767
3.195005775383873e-09,7.369521617516534e-05,3.195005775383873e-09,7.369521624270215e-05,3.195005775383873e-09,7.369522796323622e-05,3.195005775383873e-09,6.438012140781475e-05,3.195005775383873e-09,0.6638920974354849
3.202561376941211e-09,7.369520192541533e-05,3.202561376941211e-09,7.369521595422376e-05,3.202561376941211e-09,7.369364844337117e-05,3.202561376941211e-09,6.433664173237087e-05,3.202561376941211e-09,0.6680896538562281
3.210983694085826e-09,7.369520933354276e-05,3.210983694085826e-09,7.369521692959198e-05,3.210983694085826e-09,7.369458022511014e-05,3.210983694085826e-09,6.430523743208669e-05,3.210983694085826e-09,0.6727687189365702
3.218019528251153e-09,7.369526226492597e-05,3.218019528251153e-09,7.369521771876082e-05,3.218019528251153e-09,7.370461863242443e-05,3.218019528251153e-09,6.455076558070176e-05,3.218019528251153e-09,0.6766775156950849
3.224396208445252e-09,7.369530185422261e-05,3.224396208445252e-09,7.369521178582358e-05,3.224396208445252e-09,7.369255688833407e-05,3.224396208445252e-09,6.451411913747213e-05,3.224396208445252e-09,0.680220115802918
3.23179218985035e-09,7.369518728725243e-05,3.23179218985035e-09,7.369521848020962e-05,3.23179218985035e-09,7.368657537680992e-05,3.23179218985035e-09,6.425995443094328e-05,3.23179218985035e-09,0.6843289943613055
3.239450059269107e-09,7.369516686545863e-05,3.239450059269107e-09,7.369521855662399e-05,3.239450059269107e-09,7.369869385061107e-05,3.239450059269107e-09,6.431860941257883e-05,3.239450059269107e-09,0.6885833662606149
3.24695061603642e-09,7.369519939513161e-05,3.24695061603642e-09,7.369521319185517e-05,3.24695061603642e-09,7.369634319829432e-05,3.24695061603642e-09,6.436767295492803e-05,3.24695061603642e-09,0.6927503422424555
3.254159825638428e-09,7.369497834940736e-05,3.254159825638428e-09,7.369521658898965e-05,3.254159825638428e-09,7.369573371030846e-05,3.254159825638428e-09,6.438086681994689e-05,3.254159825638428e-09,0.6967554586880154
3.261467823040994e-09,7.369488943740683e-05,3.261467823040994e-09,7.369521535534813e-05,3.261467823040994e-09,7.36934802180554e-05,3.261467823040994e-09,6.432072272218649e-05,3.261467823040994e-09,0.7008154572449964
3.267074250354984e-09,7.369293694849093e-05,3.267074250354984e-09,7.369520694864713e-05,3.267074250354984e-09,7.369034615410466e-05,3.267074250354984e-09,6.414804544500867e-05,3.267074250354984e-09,0.703930139086102
3.271528925480651e-09,7.367737572200627e-05,3.271528925480651e-09,7.36951265477239e-05,3.271528925480651e-09,7.369031377291478e-05,3.271528925480651e-09,6.367917251573183e-05,3.271528925480651e-09,0.7064049586003613
3.275483845609279e-09,7.364932724972929e-05,3.275483845609279e-09,7.369505103145558e-05,3.275483845609279e-09,7.369860987859055e-05,3.275483845609279e-09,6.288160912045221e-05,3.275483845609279e-09,0.7086021364495994
3.279521485491479e-09,7.37166914262821e-05,3.279521485491479e-09,7.369567572084201e-05,3.279521485491479e-09,7.370893359624357e-05,3.279521485491479e-09,6.368487670616038e-05,3.279521485491479e-09,0.7108452697174883
3.282944075045141e-09,7.426954283249167e-05,3.282944075045141e-09,7.369903253698615e-05,3.282944075045141e-09,7.371330271748143e-05,3.282944075045141e-09,7.466400893989886e-05,3.282944075045141e-09,0.7127467083584115
3.28637648914984e-09,7.522479288055812e-05,3.28637648914984e-09,7.370140850514333e-05,3.28637648914984e-09,7.371066383139713e-05,3.28637648914984e-09,0.0001002214863938949,3.28637648914984e-09,0.7146536050832446
3.289553102784376e-09,7.496007558675191e-05,3.289553102784376e-09,7.369237252342931e-05,3.289553102784376e-09,7.370665772609138e-05,3.289553102784376e-09,0.0001082832948817086,3.289553102784376e-09,0.7164183904357645
3.291928258086708e-09,7.379941782956414e-05,3.291928258086708e-09,7.368406640442302e-05,3.291928258086708e-09,7.370295414791574e-05,3.291928258086708e-09,6.137148526580999e-05,3.291928258086708e-09,0.7177379211592819
3.294779353578393e-09,7.265550400738943e-05,3.294779353578393e-09,7.368524482350286e-05,3.294779353578393e-09,7.368065621570497e-05,3.294779353578393e-09,-0.0001621463421616638,3.294779353578393e-09,0.7193218630991071
3.298097002122836e-09,6.869786262342131e-05,3.298097002122836e-09,7.369739838723398e-05,3.298097002122836e-09,7.365641585173993e-05,3.298097002122836e-09,-0.0007926974661961859,3.298097002122836e-09,0.7211650011793531
3.302129563076445e-09,5.730946379798518e-05,3.302129563076445e-09,7.371537820848118e-05,3.302129563076445e-09,7.367960982951051e-05,3.302129563076445e-09,-0.001211921001555611,3.302129563076445e-09,0.7234053128202471
3.30505304687979e-09,5.461391804730942e-05,3.30505304687979e-09,7.370558270800195e-05,3.30505304687979e-09,7.369425414037983e-05,3.30505304687979e-09,-0.0009754781723152034,3.30505304687979e-09,0.7250294704887719
3.307772064258308e-09,6.304930805952641e-05,3.307772064258308e-09,7.368624838170614e-05,3.307772064258308e-09,7.369006572028842e-05,3.307772064258308e-09,-0.0005998382257111893,3.307772064258308e-09,0.72654003569906
3.310486936772255e-09,8.257528705980132e-05,3.310486936772255e-09,7.369036738573381e-05,3.310486936772255e-09,7.368759520862787e-05,3.310486936772255e-09,-0.0002771873557291425,3.310486936772255e-09,0.7280482982068081
3.313380916696174e-09,0.0001226736360513089,3.313380916696174e-09,7.371069846097242e-05,3.313380916696174e-09,7.368699347112829e-05,3.313380916696174e-09,-0.0002643985232798335,3.313380916696174e-09,0.729656064831208
3.315831367855366e-09,0.000183162646473899,3.315831367855366e-09,7.372858372472259e-05,3.315831367855366e-09,7.369083364014131e-05,3.315831367855366e-09,-0.0006746334863399505,3.315831367855366e-09,0.7310174265863142
3.318484385524728e-09,0.0003207756195894919,3.318484385524728e-09,7.372082098158673e-05,3.318484385524728e-09,7.369960705365822e-05,3.318484385524728e-09,-0.001509945887189993,3.318484385524728e-09,0.7324913252915154
3.322077769082727e-09,0.0003703803949532751,3.322077769082727e-09,7.367594281793813e-05,3.322077769082727e-09,7.371483088829132e-05,3.322077769082727e-09,-0.002698521904563294,3.322077769082727e-09,0.7344876494904038
3.324817852746952e-09,-0.002652705219481047,3.324817852746952e-09,7.363929685112508e-05,3.324817852746952e-09,7.371815921380482e-05,3.324817852746952e-09,-0.00334661126628999,3.324817852746952e-09,0.736009918192751
3.327786240185183e-09,-0.01053237931570795,3.327786240185183e-09,7.361818990626511e-05,3.327786240185183e-09,7.3714210328097e-05,3.327786240185183e-09,-0.003581801358416392,3.327786240185183e-09,0.7376590223251013
3.330762451133882e-09,-0.01111074359604211,3.330762451133882e-09,7.363141143492118e-05,3.330762451133882e-09,7.370892086140203e-05,3.330762451133882e-09,-0.003168617850000878,3.330762451133882e-09,0.7393124728521563
3.333407553632513e-09,0.02210542330440061,3.333407553632513e-09,7.366705182905251e-05,3.333407553632513e-09,7.369869494110719e-05,3.333407553632513e-09,-0.002362568069567297,3.333407553632513e-09,0.7407819742402851
3.335932455317407e-09,0.1004257134482866,3.335932455317407e-09,7.370000716186224e-05,3.335932455317407e-09,7.368239386713887e-05,3.335932455317407e-09,-0.001654611237798944,3.335932455317407e-09,0.7421846973985592
3.338072533358557e-09,0.1939474266168573,3.338072533358557e-09,7.373469342734877e-05,3.338072533358557e-09,7.368548624762228e-05,3.338072533358557e-09,-0.0009532344848628674,3.338072533358557e-09,0.7433736296436426
3.34063804406834e-09,0.3214973882757766,3.34063804406834e-09,7.376179634050756e-05,3.34063804406834e-09,7.369466905031427e-05,3.34063804406834e-09,0.0002032227336309017,3.34063804406834e-09,0.7447989133712999
3.343453803816861e-09,0.471967165127666,3.343453803816861e-09,7.374478401707742e-05,3.343453803816861e-09,7.368552225881239e-05,3.343453803816861e-09,0.001427141027537051,3.343453803816861e-09,0.7463632243427006
3.346189697339101e-09,0.6120190844678899,3.346189697339101e-09,7.372225609908104e-05,3.346189697339101e-09,7.36826550291574e-05,3.346189697339101e-09,0.002370081195782433,3.346189697339101e-09,0.7478831651883894
3.349080149242495e-09,0.7320919257038467,3.349080149242495e-09,7.370318184728516e-05,3.349080149242495e-09,7.368278809914793e-05,3.349080149242495e-09,0.00292103064029182,3.349080149242495e-09,0.749488971801386
3.351618239996265e-09,0.8042392284560702,3.351618239996265e-09,7.369807386320651e-05,3.351618239996265e-09,7.368832703388083e-05,3.351618239996265e-09,0.003049353402872235,3.351618239996265e-09,0.7508990222201471
3.354233821351956e-09,0.867864438374391,3.354233821351956e-09,7.369864993774585e-05,3.354233821351956e-09,7.369573647107593e-05,3.354233821351956e-09,0.002934561496637509,3.354233821351956e-09,0.7523521229733086
3.357088987053283e-09,1.005100168082864,3.357088987053283e-09,7.369972130644894e-05,3.357088987053283e-09,7.370044324137923e-05,3.357088987053283e-09,0.00262586267304809,3.357088987053283e-09,0.7539383261407125
3.359734589985111e-09,1.335047579817271,3.359734589985111e-09,7.369978847726371e-05,3.359734589985111e-09,7.370280736052562e-05,3.359734589985111e-09,0.002258499516857643,3.359734589985111e-09,0.7554081055472841
3.361815584234938e-09,1.841632841278336,3.361815584234938e-09,7.369939924101317e-05,3.361815584234938e-09,7.370308920632463e-05,3.361815584234938e-09,0.00197654144210547,3.361815584234938e-09,0.7565642134638543
3.363800636170062e-09,2.523145061045815,3.363800636170062e-09,7.369789197894753e-05,3.363800636170062e-09,7.370241403800669e-05,3.363800636170062e-09,0.001733509621258719,3.363800636170062e-09,0.7576670200944789
3.365051950064608e-09,3.001227822365161,3.365051950064608e-09,7.369638215246794e-05,3.365051950064608e-09,7.370094500530433e-05,3.365051950064608e-09,0.001593336157278515,3.365051950064608e-09,0.7583621944803376
3.366762987641175e-09,3.608799966816331,3.366762987641175e-09,7.369433876760616e-05,3.366762987641175e-09,7.3699367433418e-05,3.366762987641175e-09,0.001416600051974121,3.366762987641175e-09,0.7593127709117641
3.368170822620609e-09,3.997680983827238,3.368170822620609e-09,7.369273453870328e-05,3.368170822620609e-09,7.369773748484134e-05,3.368170822620609e-09,0.001281902254262863,3.368170822620609e-09,0.7600949014558941
