/net039 X,/net039 Y,/net010 X,/net010 Y,/net09 X,/net09 Y,/net08 X,/net08 Y,/net02 X,/net02 Y
0,7.369521627104023e-05,0,7.369521627106916e-05,0,7.369521627101061e-05,0,6.437806321878021e-05,0,0
1.5e-11,7.369521627103325e-05,1.5e-11,7.369521627106318e-05,1.5e-11,7.369521627102662e-05,1.5e-11,6.437806321875475e-05,1.5e-11,0
4.5e-11,7.369521627096757e-05,4.5e-11,7.369521627101052e-05,4.5e-11,7.369521627110638e-05,4.5e-11,6.437806321863427e-05,4.5e-11,0
1.05e-10,7.369521626916641e-05,1.05e-10,7.369521626935014e-05,1.05e-10,7.369521627238071e-05,1.05e-10,6.437806321842633e-05,1.05e-10,0
2.25e-10,7.369521626978452e-05,2.25e-10,7.369521626928337e-05,2.25e-10,7.369521627006194e-05,2.25e-10,6.437806321898449e-05,2.25e-10,0
4.65e-10,7.369521626912773e-05,4.65e-10,7.369521627253199e-05,4.65e-10,7.369521626925082e-05,4.65e-10,6.437806321795902e-05,4.65e-10,0
7.649999999999999e-10,7.369521627588162e-05,7.649999999999999e-10,7.369521626937936e-05,7.649999999999999e-10,7.369521626952581e-05,7.649999999999999e-10,6.437806321937963e-05,7.649999999999999e-10,0
1.065e-09,7.369521626584829e-05,1.065e-09,7.369521626956454e-05,1.065e-09,7.369521627270414e-05,1.065e-09,6.437806321770543e-05,1.065e-09,0
1.365e-09,7.369521627282105e-05,1.365e-09,7.369521627232929e-05,1.365e-09,7.369521626638496e-05,1.365e-09,6.437806321951817e-05,1.365e-09,0
1.665e-09,7.369521626934751e-05,1.665e-09,7.369521626949754e-05,1.665e-09,7.369521627553271e-05,1.665e-09,6.437806321789469e-05,1.665e-09,0
1.8325e-09,7.369521627268526e-05,1.8325e-09,7.369521627229141e-05,1.8325e-09,7.369521626691583e-05,1.8325e-09,6.437806321958705e-05,1.8325e-09,0
2e-09,7.369521626606546e-05,2e-09,7.369521627263478e-05,2e-09,7.369521627528347e-05,2e-09,6.43780632178264e-05,2e-09,0
2.120144127384571e-09,7.369521627101076e-05,2.120144127384571e-09,7.369521627092132e-05,2.120144127384571e-09,7.369521627118276e-05,2.120144127384571e-09,6.437806321900096e-05,2.120144127384571e-09,0.06674673743587282
2.261585129605973e-09,7.369521627248051e-05,2.261585129605973e-09,7.36952162722131e-05,2.261585129605973e-09,7.369521626934086e-05,2.261585129605973e-09,6.437806319300547e-05,2.261585129605973e-09,0.1453250720033182
2.400273538304042e-09,7.369521626964051e-05,2.400273538304042e-09,7.369521626966097e-05,2.400273538304042e-09,7.369521627285846e-05,2.400273538304042e-09,6.437806333564685e-05,2.400273538304042e-09,0.2223741879466899
2.455450261564967e-09,7.369521627233269e-05,2.455450261564967e-09,7.369521627218047e-05,2.455450261564967e-09,7.36952162690162e-05,2.455450261564967e-09,6.437806255862619e-05,2.455450261564967e-09,0.2530279230916481
2.483038623195429e-09,7.369521626994032e-05,2.483038623195429e-09,7.369521627000687e-05,2.483038623195429e-09,7.369521627888053e-05,2.483038623195429e-09,6.437806537456764e-05,2.483038623195429e-09,0.2683547906641272
2.538215346456354e-09,7.369521627233087e-05,2.538215346456354e-09,7.369521626904299e-05,2.538215346456354e-09,7.369521625543309e-05,2.538215346456354e-09,6.437806051979038e-05,2.538215346456354e-09,0.2990085258090854
2.560737121398763e-09,7.369521627237989e-05,2.560737121398763e-09,7.369521627255846e-05,2.560737121398763e-09,7.369521629691421e-05,2.560737121398763e-09,6.437806566696645e-05,2.560737121398763e-09,0.3115206229993126
2.571998008869967e-09,7.369521627017488e-05,2.571998008869967e-09,7.369521627002623e-05,2.571998008869967e-09,7.369521625224633e-05,2.571998008869967e-09,6.437806391570658e-05,2.571998008869967e-09,0.3177766715944262
2.594519783812376e-09,7.369521626897096e-05,2.594519783812376e-09,7.369521627190864e-05,2.594519783812376e-09,7.369521627645381e-05,2.594519783812376e-09,6.437806125928492e-05,2.594519783812376e-09,0.3302887687846535
2.619292015544423e-09,7.369521627271726e-05,2.619292015544423e-09,7.36952162700008e-05,2.619292015544423e-09,7.369521628010108e-05,2.619292015544423e-09,6.437806551383859e-05,2.619292015544423e-09,0.3440511197469013
2.640503769765513e-09,7.369521626943819e-05,2.640503769765513e-09,7.369521627448419e-05,2.640503769765513e-09,7.36952162510023e-05,2.640503769765513e-09,6.437806110967484e-05,2.640503769765513e-09,0.355835427647507
2.660686031888223e-09,7.369521627235193e-05,2.660686031888223e-09,7.369521626533141e-05,2.660686031888223e-09,7.369521629702623e-05,2.660686031888223e-09,6.437806486648882e-05,2.660686031888223e-09,0.3670477954934572
2.682055619276801e-09,7.369521626989238e-05,2.682055619276801e-09,7.369521627532833e-05,2.682055619276801e-09,7.369521624621158e-05,2.682055619276801e-09,6.437806202805266e-05,2.682055619276801e-09,0.3789197884871114
2.70170398860444e-09,7.36952162717985e-05,2.70170398860444e-09,7.369521626727898e-05,2.70170398860444e-09,7.369521628791415e-05,2.70170398860444e-09,6.437806398873258e-05,2.70170398860444e-09,0.3898355492246887
2.725079201383624e-09,7.369521627040583e-05,2.725079201383624e-09,7.369521627164793e-05,2.725079201383624e-09,7.369521625577656e-05,2.725079201383624e-09,6.437806272529435e-05,2.725079201383624e-09,0.4028217785464578
2.75339984265997e-09,7.369521627176172e-05,2.75339984265997e-09,7.369521627000888e-05,2.75339984265997e-09,7.369521628410694e-05,2.75339984265997e-09,6.437806353391919e-05,2.75339984265997e-09,0.4185554681444276
2.784176825806491e-09,7.369521627036965e-05,2.784176825806491e-09,7.369521627456429e-05,2.784176825806491e-09,7.369521625973453e-05,2.784176825806491e-09,6.437806303139381e-05,2.784176825806491e-09,0.4356537921147171
2.812895477102878e-09,7.369521627413942e-05,2.812895477102878e-09,7.369521626788013e-05,2.812895477102878e-09,7.369521628069425e-05,2.812895477102878e-09,6.437806329930968e-05,2.812895477102878e-09,0.4516085983904879
2.842817606891036e-09,7.369521626854235e-05,2.842817606891036e-09,7.369521627393945e-05,2.842817606891036e-09,7.369521626011271e-05,2.842817606891036e-09,6.437806321538429e-05,2.842817606891036e-09,0.4682320038283532
2.867139585824215e-09,7.369521627316591e-05,2.867139585824215e-09,7.369521627115943e-05,2.867139585824215e-09,7.369521627954261e-05,2.867139585824215e-09,6.437806315174365e-05,2.867139585824215e-09,0.4817442143467863
2.89510426513053e-09,7.369521626902811e-05,2.89510426513053e-09,7.3695216270853e-05,2.89510426513053e-09,7.36952162642794e-05,2.89510426513053e-09,6.437806332852356e-05,2.89510426513053e-09,0.497280147294739
2.921090929981882e-09,7.369521627273321e-05,2.921090929981882e-09,7.369521627377549e-05,2.921090929981882e-09,7.36952162763438e-05,2.921090929981882e-09,6.437806307604528e-05,2.921090929981882e-09,0.511717183323268
2.973064259684587e-09,7.369521626912569e-05,2.973064259684587e-09,7.369521626863426e-05,2.973064259684587e-09,7.369521626606116e-05,2.973064259684587e-09,6.437806337318715e-05,2.973064259684587e-09,0.5405912553803258
3.015890532229333e-09,7.369521627270713e-05,3.015890532229333e-09,7.369521627312307e-05,3.015890532229333e-09,7.369521627535764e-05,3.015890532229333e-09,6.437806305217835e-05,3.015890532229333e-09,0.5643836290162962
3.0591875245061e-09,7.369521626920393e-05,3.0591875245061e-09,7.369521626920248e-05,3.0591875245061e-09,7.369521626745035e-05,3.0591875245061e-09,6.437806339441064e-05,3.0591875245061e-09,0.5884375136145
3.070300109813163e-09,7.369521627210783e-05,3.070300109813163e-09,7.36952162722926e-05,3.070300109813163e-09,7.369521627260596e-05,3.070300109813163e-09,6.437806302418506e-05,3.070300109813163e-09,0.5946111721184241
3.09252528042729e-09,7.36952162724193e-05,3.09252528042729e-09,7.369521626697936e-05,3.09252528042729e-09,7.369521626968499e-05,3.09252528042729e-09,6.437806341353907e-05,3.09252528042729e-09,0.6069584891262721
3.099684254192649e-09,7.369521626823516e-05,3.099684254192649e-09,7.369521627263044e-05,3.099684254192649e-09,7.369521627119386e-05,3.099684254192649e-09,6.437806303510444e-05,3.099684254192649e-09,0.610935696773694
3.114002201723368e-09,7.369521627339263e-05,3.114002201723368e-09,7.369521626937711e-05,3.114002201723368e-09,7.369521627070781e-05,3.114002201723368e-09,6.437806338844528e-05,3.114002201723368e-09,0.6188901120685376
3.124927069161166e-09,7.369521627203522e-05,3.124927069161166e-09,7.369521627207491e-05,3.124927069161166e-09,7.369521627012895e-05,3.124927069161166e-09,6.437806302138649e-05,3.124927069161166e-09,0.6249594828673144
3.135313259469617e-09,7.369521627059103e-05,3.135313259469617e-09,7.369521627025787e-05,3.135313259469617e-09,7.369521627405612e-05,3.135313259469617e-09,6.437806349402804e-05,3.135313259469617e-09,0.6307295885942318
3.147649716046204e-09,7.36952162715445e-05,3.147649716046204e-09,7.369521627177384e-05,3.147649716046204e-09,7.369521627483543e-05,3.147649716046204e-09,6.437806325398203e-05,3.147649716046204e-09,0.6375831755812247
3.157684697106852e-09,7.369521626860504e-05,3.157684697106852e-09,7.369521627054231e-05,3.157684697106852e-09,7.369521629272964e-05,3.157684697106852e-09,6.43780642635161e-05,3.157684697106852e-09,0.6431581650593621
3.160409149076927e-09,7.36952162644903e-05,3.160409149076927e-09,7.36952162718958e-05,3.160409149076927e-09,7.369521609639001e-05,3.160409149076927e-09,6.437806090073237e-05,3.160409149076927e-09,0.6446717494871818
3.165858053017078e-09,7.369521623245645e-05,3.165858053017078e-09,7.369521626996851e-05,3.165858053017078e-09,7.369521494442472e-05,3.165858053017078e-09,6.437802943864293e-05,3.165858053017078e-09,0.647698918342821
3.176755860897379e-09,7.369521629161963e-05,3.176755860897379e-09,7.369521626931232e-05,3.176755860897379e-09,7.369521568187705e-05,3.176755860897379e-09,6.437799109127097e-05,3.176755860897379e-09,0.6537532560540994
3.184473711924337e-09,7.369521743957186e-05,3.184473711924337e-09,7.369521628570036e-05,3.184473711924337e-09,7.369525794983794e-05,3.184473711924337e-09,6.437918248448201e-05,3.184473711924337e-09,0.6580409510690763
3.195005775383876e-09,7.369521617782913e-05,3.195005775383876e-09,7.369521624501443e-05,3.195005775383876e-09,7.369522796119135e-05,3.195005775383876e-09,6.438012137920126e-05,3.195005775383876e-09,0.6638920974354868
3.202561376941213e-09,7.369520192572804e-05,3.202561376941213e-09,7.36952159531402e-05,3.202561376941213e-09,7.369364844501416e-05,3.202561376941213e-09,6.433664029584352e-05,3.202561376941213e-09,0.6680896538562292
3.210983694085908e-09,7.369520933115506e-05,3.210983694085908e-09,7.369521693016429e-05,3.210983694085908e-09,7.369458022474086e-05,3.210983694085908e-09,6.430523955706601e-05,3.210983694085908e-09,0.6727687189366155
3.218019528251246e-09,7.369526226417631e-05,3.218019528251246e-09,7.36952177163453e-05,3.218019528251246e-09,7.370461862438053e-05,3.218019528251246e-09,6.455077487844842e-05,3.218019528251246e-09,0.6766775156951367
3.224396208445816e-09,7.369530185665669e-05,3.224396208445816e-09,7.369521178877001e-05,3.224396208445816e-09,7.369255691512637e-05,3.224396208445816e-09,6.451409827670761e-05,3.224396208445816e-09,0.6802201158032312
3.231792189847406e-09,7.369518728883893e-05,3.231792189847406e-09,7.369521847909474e-05,3.231792189847406e-09,7.368657536278961e-05,3.231792189847406e-09,6.425995928712351e-05,3.231792189847406e-09,0.6843289943596701
3.239450059265947e-09,7.369516686239194e-05,3.239450059265947e-09,7.369521855520011e-05,3.239450059265947e-09,7.369869383643457e-05,3.239450059265947e-09,6.431862636717048e-05,3.239450059265947e-09,0.6885833662588594
3.246950616033347e-09,7.369519939640422e-05,3.246950616033347e-09,7.369521319210136e-05,3.246950616033347e-09,7.369634322011453e-05,3.246950616033347e-09,6.43676565984487e-05,3.246950616033347e-09,0.6927503422407485
3.254159825634797e-09,7.369497834688559e-05,3.254159825634797e-09,7.369521659136422e-05,3.254159825634797e-09,7.369573370547018e-05,3.254159825634797e-09,6.438087240695987e-05,3.254159825634797e-09,0.6967554586859984
3.261467823037028e-09,7.36948894407998e-05,3.261467823037028e-09,7.36952153538041e-05,3.261467823037028e-09,7.369348021696091e-05,3.261467823037028e-09,6.432071936501623e-05,3.261467823037028e-09,0.7008154572427936
3.267074250350949e-09,7.369293694722941e-05,3.267074250350949e-09,7.369520695126638e-05,3.267074250350949e-09,7.369034615762754e-05,3.267074250350949e-09,6.41480433263026e-05,3.267074250350949e-09,0.7039301390838607
3.271528925477209e-09,7.367737572463126e-05,3.271528925477209e-09,7.369512654698043e-05,3.271528925477209e-09,7.369031376922289e-05,3.271528925477209e-09,6.367917499138545e-05,3.271528925477209e-09,0.7064049585984497
3.275483845605905e-09,7.364932724847487e-05,3.275483845605905e-09,7.369505103173113e-05,3.275483845605905e-09,7.369860986803525e-05,3.275483845605905e-09,6.288162266801499e-05,3.275483845605905e-09,0.708602136447725
3.279521485488933e-09,7.371669142734401e-05,3.279521485488933e-09,7.369567571955807e-05,3.279521485488933e-09,7.370893359276811e-05,3.279521485488933e-09,6.3684890653242e-05,3.279521485488933e-09,0.7108452697160739
3.282944075042517e-09,7.426954283275509e-05,3.282944075042517e-09,7.369903253396714e-05,3.282944075042517e-09,7.371330273265041e-05,3.282944075042517e-09,7.466401480977111e-05,3.282944075042517e-09,0.7127467083569535
3.286376489147535e-09,7.522479288062514e-05,3.286376489147535e-09,7.370140850642752e-05,3.286376489147535e-09,7.371066384978483e-05,3.286376489147535e-09,0.0001002214798589499,3.286376489147535e-09,0.7146536050819637
3.289553102784043e-09,7.496007558806275e-05,3.289553102784043e-09,7.369237252375121e-05,3.289553102784043e-09,7.370665773745536e-05,3.289553102784043e-09,0.0001082832562134366,3.289553102784043e-09,0.7164183904355793
3.291928258086332e-09,7.379941783080471e-05,3.291928258086332e-09,7.368406640609859e-05,3.291928258086332e-09,7.370295415058704e-05,3.291928258086332e-09,6.137144362016008e-05,3.291928258086332e-09,0.7177379211590731
3.294779353578035e-09,7.265550400961306e-05,3.294779353578035e-09,7.3685244822408e-05,3.294779353578035e-09,7.368065625048359e-05,3.294779353578035e-09,-0.0001621463733479158,3.294779353578035e-09,0.7193218630989086
3.298097002122554e-09,6.869786262288516e-05,3.298097002122554e-09,7.369739838691581e-05,3.298097002122554e-09,7.365641586109922e-05,3.298097002122554e-09,-0.000792697506628242,3.298097002122554e-09,0.7211650011791967
3.302129563074431e-09,5.730946380200073e-05,3.302129563074431e-09,7.371537820804777e-05,3.302129563074431e-09,7.367960976845605e-05,3.302129563074431e-09,-0.001211920928179727,3.302129563074431e-09,0.7234053128191281
3.305053046878141e-09,5.46139180450736e-05,3.305053046878141e-09,7.370558270751093e-05,3.305053046878141e-09,7.369425410012383e-05,3.305053046878141e-09,-0.0009754779682436868,3.305053046878141e-09,0.7250294704878562
3.307772064256557e-09,6.304930804484796e-05,3.307772064256557e-09,7.368624837176558e-05,3.307772064256557e-09,7.369006568970856e-05,3.307772064256557e-09,-0.0005998381787483446,3.307772064256557e-09,0.7265400356980874
3.310486936770322e-09,8.257528704347794e-05,3.310486936770322e-09,7.369036738401165e-05,3.310486936770322e-09,7.368759521028233e-05,3.310486936770322e-09,-0.0002771875348519669,3.310486936770322e-09,0.7280482982057346
3.313380916695191e-09,0.0001226736360418634,3.313380916695191e-09,7.371069846963351e-05,3.313380916695191e-09,7.368699350804824e-05,3.313380916695191e-09,-0.0002643986973752489,3.313380916695191e-09,0.7296560648306618
3.315831367854218e-09,0.0001831626464277283,3.315831367854218e-09,7.372858372918262e-05,3.315831367854218e-09,7.369083366519286e-05,3.315831367854218e-09,-0.0006746335650282591,3.315831367854218e-09,0.7310174265856769
3.318484385523405e-09,0.0003207756194907512,3.318484385523405e-09,7.372082098238214e-05,3.318484385523405e-09,7.369960709021691e-05,3.318484385523405e-09,-0.001509945716427236,3.318484385523405e-09,0.7324913252907805
3.322077769081059e-09,0.0003703803954176501,3.322077769081059e-09,7.367594280656772e-05,3.322077769081059e-09,7.371483086462201e-05,3.322077769081059e-09,-0.002698521761214194,3.322077769081059e-09,0.7344876494894772
3.32481785274511e-09,-0.002652705215674985,3.32481785274511e-09,7.363929684718039e-05,3.32481785274511e-09,7.371815921483699e-05,3.32481785274511e-09,-0.003346611207725107,3.32481785274511e-09,0.7360099181917275
3.327786240183434e-09,-0.01053237931107162,3.327786240183434e-09,7.361818990912545e-05,3.327786240183434e-09,7.371421033346234e-05,3.327786240183434e-09,-0.00358180137117623,3.327786240183434e-09,0.7376590223241298
3.330762451132086e-09,-0.01111074360441053,3.330762451132086e-09,7.363141143445256e-05,3.330762451132086e-09,7.370892085861189e-05,3.330762451132086e-09,-0.00316861796789651,3.330762451132086e-09,0.7393124728511588
3.333407553630593e-09,0.02210542326229331,3.333407553630593e-09,7.366705183545356e-05,3.333407553630593e-09,7.369869494608826e-05,3.333407553630593e-09,-0.002362568171388354,3.333407553630593e-09,0.7407819742392181
3.335932455316177e-09,0.1004257133978834,3.335932455316177e-09,7.370000715972111e-05,3.335932455316177e-09,7.368239385916028e-05,3.335932455316177e-09,-0.001654611376981979,3.335932455316177e-09,0.7421846973978757
3.338072533357326e-09,0.1939474265581578,3.338072533357326e-09,7.373469343160247e-05,3.338072533357326e-09,7.368548625471385e-05,3.338072533357326e-09,-0.0009532345217406668,3.338072533357326e-09,0.7433736296429592
3.34063804406699e-09,0.3214973882041696,3.34063804406699e-09,7.376179633894876e-05,3.34063804406699e-09,7.36946690475578e-05,3.34063804406699e-09,0.0002032227902063671,3.34063804406699e-09,0.7447989133705499
3.343453803815307e-09,0.4719671650433365,3.343453803815307e-09,7.374478401241896e-05,3.343453803815307e-09,7.36855222452159e-05,3.343453803815307e-09,0.001427141042712423,3.343453803815307e-09,0.7463632243418374
3.34618969733898e-09,0.6120190844594667,3.34618969733898e-09,7.372225609942461e-05,3.34618969733898e-09,7.368265502503561e-05,3.34618969733898e-09,0.002370081197692333,3.34618969733898e-09,0.7478831651883221
3.349080149242625e-09,0.7320919257074181,3.349080149242625e-09,7.370318185090748e-05,3.349080149242625e-09,7.368278810658384e-05,3.349080149242625e-09,0.002921030684396328,3.349080149242625e-09,0.749488971801458
3.351618239996533e-09,0.8042392284615129,3.351618239996533e-09,7.369807386170503e-05,3.351618239996533e-09,7.368832703104045e-05,3.351618239996533e-09,0.003049353440901625,3.351618239996533e-09,0.7508990222202958
3.354233821352156e-09,0.867864438379165,3.354233821352156e-09,7.369864993756186e-05,3.354233821352156e-09,7.369573647314228e-05,3.354233821352156e-09,0.002934561547884009,3.354233821352156e-09,0.7523521229734198
3.357088987053494e-09,1.005100168095816,3.357088987053494e-09,7.36997213060041e-05,3.357088987053494e-09,7.370044323977766e-05,3.357088987053494e-09,0.002625862697495457,3.357088987053494e-09,0.75393832614083
3.359734589985308e-09,1.335047579846085,3.359734589985308e-09,7.369978847790897e-05,3.359734589985308e-09,7.370280736398392e-05,3.359734589985308e-09,0.002258499526517296,3.359734589985308e-09,0.7554081055473932
3.361815584235099e-09,1.841632841315533,3.361815584235099e-09,7.36993992423716e-05,3.361815584235099e-09,7.370308920711763e-05,3.361815584235099e-09,0.001976541438690517,3.361815584235099e-09,0.7565642134639441
3.363800636170247e-09,2.523145061099855,3.363800636170247e-09,7.369789197869392e-05,3.363800636170247e-09,7.37024140406452e-05,3.363800636170247e-09,0.001733509610300103,3.363800636170247e-09,0.7576670200945814
3.365051950064766e-09,3.001227822410049,3.365051950064766e-09,7.369638215161857e-05,3.365051950064766e-09,7.370094500733117e-05,3.365051950064766e-09,0.00159333614321266,3.365051950064766e-09,0.7583621944804253
3.366762987641305e-09,3.608799966845255,3.366762987641305e-09,7.369433876804586e-05,3.366762987641305e-09,7.369936743431685e-05,3.366762987641305e-09,0.001416600030770676,3.366762987641305e-09,0.759312770911836
3.368170822620731e-09,3.997680983846588,3.368170822620731e-09,7.369273453832472e-05,3.368170822620731e-09,7.369773748632637e-05,3.368170822620731e-09,0.001281902235685028,3.368170822620731e-09,0.7600949014559618
