/net039 X,/net039 Y,/net010 X,/net010 Y,/net09 X,/net09 Y,/net08 X,/net08 Y,/net02 X,/net02 Y
0,7.369521627109834e-05,0,7.369521627105531e-05,0,7.369521627101827e-05,0,6.437806323586943e-05,0,0
1.5e-11,7.369521627109129e-05,1.5e-11,7.369521627102391e-05,1.5e-11,7.369521627103395e-05,1.5e-11,6.437806323593045e-05,1.5e-11,0
4.5e-11,7.369521627103598e-05,4.5e-11,7.369521627095106e-05,4.5e-11,7.369521627111342e-05,4.5e-11,6.437806323588196e-05,4.5e-11,0
1.05e-10,7.369521627239963e-05,1.05e-10,7.369521626934745e-05,1.05e-10,7.369521626939785e-05,1.05e-10,6.437806323622841e-05,1.05e-10,0
2.25e-10,7.369521626951371e-05,2.25e-10,7.369521627234901e-05,2.25e-10,7.369521626959521e-05,2.25e-10,6.437806323533045e-05,2.25e-10,0
4.65e-10,7.369521627237274e-05,4.65e-10,7.369521626954152e-05,4.65e-10,7.369521627267069e-05,4.65e-10,6.437806323610777e-05,4.65e-10,0
7.649999999999999e-10,7.369521626956246e-05,7.649999999999999e-10,7.369521626929208e-05,7.649999999999999e-10,7.369521626945608e-05,7.649999999999999e-10,6.43780632355886e-05,7.649999999999999e-10,0
1.065e-09,7.369521627230884e-05,1.065e-09,7.369521627275272e-05,1.065e-09,7.369521627253618e-05,1.065e-09,6.437806323626244e-05,1.065e-09,0
1.365e-09,7.369521627270467e-05,1.365e-09,7.369521626921535e-05,1.365e-09,7.369521626985091e-05,1.365e-09,6.437806323521577e-05,1.365e-09,0
1.665e-09,7.369521626939e-05,1.665e-09,7.36952162727196e-05,1.665e-09,7.369521626934766e-05,1.665e-09,6.437806323605239e-05,1.665e-09,0
1.8325e-09,7.369521627265731e-05,1.8325e-09,7.369521626937627e-05,1.8325e-09,7.369521627266172e-05,1.8325e-09,6.437806323581432e-05,1.8325e-09,0
2e-09,7.369521626634423e-05,2e-09,7.36952162693695e-05,2e-09,7.369521626965566e-05,2e-09,6.437806323563039e-05,2e-09,0
2.120144127384571e-09,7.369521627101164e-05,2.120144127384571e-09,7.369521627066408e-05,2.120144127384571e-09,7.369521627091137e-05,2.120144127384571e-09,6.437806323631863e-05,2.120144127384571e-09,0.06674673743587282
2.261585129605973e-09,7.369521626929936e-05,2.261585129605973e-09,7.369521627298675e-05,2.261585129605973e-09,7.369521627300057e-05,2.261585129605973e-09,6.437806320993994e-05,2.261585129605973e-09,0.1453250720033182
2.400273538304042e-09,7.369521626953627e-05,2.400273538304042e-09,7.369521626894513e-05,2.400273538304042e-09,7.369521627260442e-05,2.400273538304042e-09,6.437806335314028e-05,2.400273538304042e-09,0.2223741879466899
2.455450261564971e-09,7.369521627205478e-05,2.455450261564971e-09,7.369521627301124e-05,2.455450261564971e-09,7.369521626902625e-05,2.455450261564971e-09,6.437806257543347e-05,2.455450261564971e-09,0.2530279230916507
2.483038623195436e-09,7.369521627031273e-05,2.483038623195436e-09,7.369521627223472e-05,2.483038623195436e-09,7.369521627917574e-05,2.483038623195436e-09,6.437806539297127e-05,2.483038623195436e-09,0.2683547906641311
2.538215346456366e-09,7.36952162717137e-05,2.538215346456366e-09,7.369521626984492e-05,2.538215346456366e-09,7.369521625831207e-05,2.538215346456366e-09,6.437806053606635e-05,2.538215346456366e-09,0.2990085258090921
2.560737121398768e-09,7.369521627018953e-05,2.560737121398768e-09,7.369521627209767e-05,2.560737121398768e-09,7.369521629461543e-05,2.560737121398768e-09,6.437806568631743e-05,2.560737121398768e-09,0.3115206229993154
2.571998008869969e-09,7.369521627163483e-05,2.571998008869969e-09,7.369521627248553e-05,2.571998008869969e-09,7.369521625373289e-05,2.571998008869969e-09,6.437806393075812e-05,2.571998008869969e-09,0.3177766715944269
2.59451978381237e-09,7.369521627027723e-05,2.59451978381237e-09,7.369521626984958e-05,2.59451978381237e-09,7.369521627496027e-05,2.59451978381237e-09,6.437806127775277e-05,2.59451978381237e-09,0.33028876878465
2.619292015544413e-09,7.369521627188509e-05,2.619292015544413e-09,7.369521627189708e-05,2.619292015544413e-09,7.369521628121409e-05,2.619292015544413e-09,6.437806553090679e-05,2.619292015544413e-09,0.3440511197468961
2.640503769765501e-09,7.369521627023217e-05,2.640503769765501e-09,7.369521627016302e-05,2.640503769765501e-09,7.369521624996388e-05,2.640503769765501e-09,6.437806112525935e-05,2.640503769765501e-09,0.3558354276475003
2.660686031888212e-09,7.369521627182181e-05,2.660686031888212e-09,7.369521627169854e-05,2.660686031888212e-09,7.369521629503691e-05,2.660686031888212e-09,6.437806488723071e-05,2.660686031888212e-09,0.3670477954934512
2.682055619276797e-09,7.36952162699509e-05,2.682055619276797e-09,7.369521627048732e-05,2.682055619276797e-09,7.369521624773412e-05,2.682055619276797e-09,6.437806204134473e-05,2.682055619276797e-09,0.3789197884871093
2.701703988604438e-09,7.36952162717104e-05,2.701703988604438e-09,7.369521627449766e-05,2.701703988604438e-09,7.369521629174374e-05,2.701703988604438e-09,6.437806400966633e-05,2.701703988604438e-09,0.389835549224688
2.725079201383614e-09,7.369521627027849e-05,2.725079201383614e-09,7.369521626781719e-05,2.725079201383614e-09,7.369521625579941e-05,2.725079201383614e-09,6.437806273922466e-05,2.725079201383614e-09,0.4028217785464523
2.753399842659962e-09,7.369521627188634e-05,2.753399842659962e-09,7.369521627397536e-05,2.753399842659962e-09,7.369521628164947e-05,2.753399842659962e-09,6.437806355437534e-05,2.753399842659962e-09,0.418555468144423
2.784176825806476e-09,7.369521626734177e-05,2.784176825806476e-09,7.369521627117334e-05,2.784176825806476e-09,7.369521626194621e-05,2.784176825806476e-09,6.437806304611844e-05,2.784176825806476e-09,0.4356537921147089
2.812895477102867e-09,7.369521627399581e-05,2.812895477102867e-09,7.369521627084598e-05,2.812895477102867e-09,7.36952162785609e-05,2.812895477102867e-09,6.437806331845439e-05,2.812895477102867e-09,0.4516085983904815
2.842817606891027e-09,7.369521627098211e-05,2.842817606891027e-09,7.369521627109263e-05,2.842817606891027e-09,7.369521626483189e-05,2.842817606891027e-09,6.437806323139644e-05,2.842817606891027e-09,0.4682320038283486
2.867139585824231e-09,7.369521626832551e-05,2.867139585824231e-09,7.369521626827533e-05,2.867139585824231e-09,7.369521627309234e-05,2.867139585824231e-09,6.437806316963807e-05,2.867139585824231e-09,0.4817442143467948
2.89510426513055e-09,7.369521627312277e-05,2.89510426513055e-09,7.369521627338229e-05,2.89510426513055e-09,7.369521627252682e-05,2.89510426513055e-09,6.437806334548695e-05,2.89510426513055e-09,0.49728014729475
2.921090929981898e-09,7.369521626941841e-05,2.921090929981898e-09,7.369521626893712e-05,2.921090929981898e-09,7.369521626908748e-05,2.921090929981898e-09,6.437806309338848e-05,2.921090929981898e-09,0.5117171833232766
2.973064259684594e-09,7.369521627250501e-05,2.973064259684594e-09,7.369521627300163e-05,2.973064259684594e-09,7.369521627030618e-05,2.973064259684594e-09,6.437806339011844e-05,2.973064259684594e-09,0.5405912553803299
3.015890532229293e-09,7.369521626943824e-05,3.015890532229293e-09,7.369521627189038e-05,3.015890532229293e-09,7.369521626827994e-05,3.015890532229293e-09,6.437806306955695e-05,3.015890532229293e-09,0.5643836290162739
3.059187524506097e-09,7.369521627497078e-05,3.059187524506097e-09,7.369521626730294e-05,3.059187524506097e-09,7.369521627381909e-05,3.059187524506097e-09,6.437806341136508e-05,3.059187524506097e-09,0.5884375136144985
3.070300109813153e-09,7.36952162712353e-05,3.070300109813153e-09,7.369521627338123e-05,3.070300109813153e-09,7.369521626588835e-05,3.070300109813153e-09,6.437806304165419e-05,3.070300109813153e-09,0.5946111721184181
3.092525280427264e-09,7.369521627409354e-05,3.092525280427264e-09,7.369521626844351e-05,3.092525280427264e-09,7.369521627631575e-05,3.092525280427264e-09,6.437806343067349e-05,3.092525280427264e-09,0.6069584891262575
3.099684254192626e-09,7.369521626995341e-05,3.099684254192626e-09,7.369521626994464e-05,3.099684254192626e-09,7.369521626680921e-05,3.099684254192626e-09,6.43780630519912e-05,3.099684254192626e-09,0.6109356967736813
3.114002201723352e-09,7.369521626972021e-05,3.114002201723352e-09,7.369521627131037e-05,3.114002201723352e-09,7.36952162756396e-05,3.114002201723352e-09,6.437806340670727e-05,3.114002201723352e-09,0.6188901120685291
3.124927069161139e-09,7.369521627181977e-05,3.124927069161139e-09,7.369521627103814e-05,3.124927069161139e-09,7.36952162638622e-05,3.124927069161139e-09,6.437806303752695e-05,3.124927069161139e-09,0.6249594828672996
3.135313259469586e-09,7.369521627050037e-05,3.135313259469586e-09,7.369521627099501e-05,3.135313259469586e-09,7.369521627888513e-05,3.135313259469586e-09,6.437806351168926e-05,3.135313259469586e-09,0.6307295885942142
3.147649716046172e-09,7.369521627170126e-05,3.147649716046172e-09,7.369521627077962e-05,3.147649716046172e-09,7.369521627021215e-05,3.147649716046172e-09,6.437806327057198e-05,3.147649716046172e-09,0.6375831755812067
3.157684697106817e-09,7.369521627107203e-05,3.157684697106817e-09,7.369521626841186e-05,3.157684697106817e-09,7.36952162940504e-05,3.157684697106817e-09,6.437806428145365e-05,3.157684697106817e-09,0.6431581650593428
3.160409149076896e-09,7.3695216263377e-05,3.160409149076896e-09,7.369521627204432e-05,3.160409149076896e-09,7.369521609510461e-05,3.160409149076896e-09,6.437806091886387e-05,3.160409149076896e-09,0.6446717494871645
3.165858053017054e-09,7.369521623232105e-05,3.165858053017054e-09,7.369521627092535e-05,3.165858053017054e-09,7.369521494327834e-05,3.165858053017054e-09,6.437802945551481e-05,3.165858053017054e-09,0.6476989183428079
3.17675586089737e-09,7.369521629337295e-05,3.17675586089737e-09,7.369521626884637e-05,3.17675586089737e-09,7.369521567951828e-05,3.17675586089737e-09,6.437799110974059e-05,3.17675586089737e-09,0.6537532560540946
3.184473711924337e-09,7.369521744062771e-05,3.184473711924337e-09,7.369521629009245e-05,3.184473711924337e-09,7.369525794943145e-05,3.184473711924337e-09,6.437918253304128e-05,3.184473711924337e-09,0.658040951069076
3.195005775383868e-09,7.369521617683502e-05,3.195005775383868e-09,7.369521624191181e-05,3.195005775383868e-09,7.369522796262143e-05,3.195005775383868e-09,6.438012134717047e-05,3.195005775383868e-09,0.6638920974354821
3.202561376941206e-09,7.369520192633914e-05,3.202561376941206e-09,7.369521595735541e-05,3.202561376941206e-09,7.369364844793493e-05,3.202561376941206e-09,6.433663910076019e-05,3.202561376941206e-09,0.6680896538562255
3.210983694085973e-09,7.36952093327675e-05,3.210983694085973e-09,7.369521692963291e-05,3.210983694085973e-09,7.369458022084979e-05,3.210983694085973e-09,6.43052413624646e-05,3.210983694085973e-09,0.6727687189366516
3.218019528251314e-09,7.369526226590025e-05,3.218019528251314e-09,7.369521771710473e-05,3.218019528251314e-09,7.370461862259098e-05,3.218019528251314e-09,6.455078256133325e-05,3.218019528251314e-09,0.6766775156951741
3.224396208446321e-09,7.369530185373753e-05,3.224396208446321e-09,7.369521178814779e-05,3.224396208446321e-09,7.369255693207577e-05,3.224396208446321e-09,6.451408061741309e-05,3.224396208446321e-09,0.6802201158035117
3.231792189844809e-09,7.369518729084541e-05,3.231792189844809e-09,7.369521848034534e-05,3.231792189844809e-09,7.368657535296853e-05,3.231792189844809e-09,6.425996374424406e-05,3.231792189844809e-09,0.684328994358227
3.239450059263168e-09,7.3695166864905e-05,3.239450059263168e-09,7.369521855612148e-05,3.239450059263168e-09,7.369869381985969e-05,3.239450059263168e-09,6.431864043467986e-05,3.239450059263168e-09,0.6885833662573155
3.246950616030644e-09,7.369519939309331e-05,3.246950616030644e-09,7.369521319219467e-05,3.246950616030644e-09,7.369634324084007e-05,3.246950616030644e-09,6.436764271175266e-05,3.246950616030644e-09,0.6927503422392467
3.254159825631606e-09,7.369497834941811e-05,3.254159825631606e-09,7.369521659214322e-05,3.254159825631606e-09,7.369573370092504e-05,3.254159825631606e-09,6.438087724750977e-05,3.254159825631606e-09,0.6967554586842255
3.261467823033549e-09,7.369488943821317e-05,3.261467823033549e-09,7.369521535500063e-05,3.261467823033549e-09,7.369348021517444e-05,3.261467823033549e-09,6.432071647526022e-05,3.261467823033549e-09,0.7008154572408605
3.267074250347408e-09,7.369293694683748e-05,3.267074250347408e-09,7.369520695169044e-05,3.267074250347408e-09,7.369034615964005e-05,3.267074250347408e-09,6.414804165555511e-05,3.267074250347408e-09,0.7039301390818934
3.271528925474193e-09,7.367737572317042e-05,3.271528925474193e-09,7.369512654689097e-05,3.271528925474193e-09,7.369031376366336e-05,3.271528925474193e-09,6.367917714227745e-05,3.271528925474193e-09,0.7064049585967737
3.275483845602947e-09,7.364932725078555e-05,3.275483845602947e-09,7.369505103387754e-05,3.275483845602947e-09,7.369860985555975e-05,3.275483845602947e-09,6.28816340719639e-05,3.275483845602947e-09,0.7086021364460818
3.279521485486733e-09,7.371669142884156e-05,3.279521485486733e-09,7.369567571879936e-05,3.279521485486733e-09,7.370893358712555e-05,3.279521485486733e-09,6.36849020953477e-05,3.279521485486733e-09,0.7108452697148516
3.282944075040247e-09,7.426954283129781e-05,3.282944075040247e-09,7.369903253816361e-05,3.282944075040247e-09,7.371330273799872e-05,3.282944075040247e-09,7.466401942848405e-05,3.282944075040247e-09,0.7127467083556929
3.286376489145552e-09,7.522479288017807e-05,3.286376489145552e-09,7.370140850463563e-05,3.286376489145552e-09,7.371066386985274e-05,3.286376489145552e-09,0.0001002214740520039,3.286376489145552e-09,0.7146536050808624
3.289553102783774e-09,7.496007558893768e-05,3.289553102783774e-09,7.369237252297399e-05,3.289553102783774e-09,7.370665774432252e-05,3.289553102783774e-09,0.0001082832233042664,3.289553102783774e-09,0.7164183904354298
3.291928258086028e-09,7.379941783131472e-05,3.291928258086028e-09,7.368406640616906e-05,3.291928258086028e-09,7.37029541571359e-05,3.291928258086028e-09,6.137140847504089e-05,3.291928258086028e-09,0.7177379211589042
3.294779353577744e-09,7.265550400867918e-05,3.294779353577744e-09,7.368524482349048e-05,3.294779353577744e-09,7.368065628064283e-05,3.294779353577744e-09,-0.000162146399196691,3.294779353577744e-09,0.7193218630987468
3.298097002122327e-09,6.869786262327813e-05,3.298097002122327e-09,7.369739838599343e-05,3.298097002122327e-09,7.36564158697397e-05,3.298097002122327e-09,-0.0007926975400378842,3.298097002122327e-09,0.7211650011790708
3.302129563072682e-09,5.730946380913212e-05,3.302129563072682e-09,7.371537821359127e-05,3.302129563072682e-09,7.367960973081109e-05,3.302129563072682e-09,-0.001211920725881396,3.302129563072682e-09,0.7234053128181569
3.305053046876711e-09,5.461391803594186e-05,3.305053046876711e-09,7.370558269913391e-05,3.305053046876711e-09,7.369425401555824e-05,3.305053046876711e-09,-0.0009754778999499226,3.305053046876711e-09,0.7250294704870615
3.307772064255012e-09,6.304930803966013e-05,3.307772064255012e-09,7.368624837153879e-05,3.307772064255012e-09,7.36900656782009e-05,3.307772064255012e-09,-0.0005998382659443514,3.307772064255012e-09,0.726540035697229
3.310486936768685e-09,8.257528703420374e-05,3.310486936768685e-09,7.369036738942633e-05,3.310486936768685e-09,7.368759523674507e-05,3.310486936768685e-09,-0.0002771876783792605,3.310486936768685e-09,0.7280482982048252
3.313380916694388e-09,0.0001226736360244688,3.313380916694388e-09,7.371069847034008e-05,3.313380916694388e-09,7.368699353078591e-05,3.313380916694388e-09,-0.0002643988674628545,3.313380916694388e-09,0.7296560648302154
3.315831367853277e-09,0.0001831626463933183,3.315831367853277e-09,7.372858373409556e-05,3.315831367853277e-09,7.369083369844849e-05,3.315831367853277e-09,-0.0006746335980403296,3.315831367853277e-09,0.7310174265851537
3.318484385522275e-09,0.0003207756194037301,3.318484385522275e-09,7.372082097998887e-05,3.318484385522275e-09,7.369960709819783e-05,3.318484385522275e-09,-0.001509945647426874,3.318484385522275e-09,0.7324913252901528
3.322077769079745e-09,0.000370380395785212,3.322077769079745e-09,7.367594280684224e-05,3.322077769079745e-09,7.371483087443918e-05,3.322077769079745e-09,-0.002698521569851655,3.322077769079745e-09,0.7344876494887472
3.324817852743772e-09,-0.00265270521292339,3.324817852743772e-09,7.363929684259096e-05,3.324817852743772e-09,7.371815920141559e-05,3.324817852743772e-09,-0.003346611111219961,3.324817852743772e-09,0.7360099181909846
3.327786240182028e-09,-0.01053237930737604,3.327786240182028e-09,7.361818990783059e-05,3.327786240182028e-09,7.371421033140276e-05,3.327786240182028e-09,-0.003581801383568419,3.327786240182028e-09,0.7376590223233489
3.330762451130787e-09,-0.01111074361035247,3.330762451130787e-09,7.363141143400232e-05,3.330762451130787e-09,7.370892085667433e-05,3.330762451130787e-09,-0.003168618058942771,3.330762451130787e-09,0.7393124728504374
3.333407553629176e-09,0.02210542323115159,3.333407553629176e-09,7.366705183671447e-05,3.333407553629176e-09,7.369869495321521e-05,3.333407553629176e-09,-0.002362568267827918,3.333407553629176e-09,0.7407819742384313
3.335932455315328e-09,0.1004257133627393,3.335932455315328e-09,7.370000715846299e-05,3.335932455315328e-09,7.368239385487524e-05,3.335932455315328e-09,-0.0016546114905466,3.335932455315328e-09,0.7421846973974042
3.338072533356459e-09,0.1939474265163514,3.338072533356459e-09,7.37346934332249e-05,3.338072533356459e-09,7.368548626170867e-05,3.338072533356459e-09,-0.0009532345598000521,3.338072533356459e-09,0.7433736296424771
3.340638044066049e-09,0.3214973881536105,3.340638044066049e-09,7.376179633922109e-05,3.340638044066049e-09,7.369466904397047e-05,3.340638044066049e-09,0.0002032228413847511,3.340638044066049e-09,0.7447989133700275
3.343453803814208e-09,0.4719671649828178,3.343453803814208e-09,7.374478400741561e-05,3.343453803814208e-09,7.368552223490792e-05,3.343453803814208e-09,0.00142714104994307,3.343453803814208e-09,0.7463632243412269
3.346189697338914e-09,0.6120190844536637,3.346189697338914e-09,7.372225610040896e-05,3.346189697338914e-09,7.368265501798051e-05,3.346189697338914e-09,0.002370081201719566,3.346189697338914e-09,0.7478831651882857
3.349080149242742e-09,0.7320919257107057,3.349080149242742e-09,7.370318185084501e-05,3.349080149242742e-09,7.36827881104367e-05,3.349080149242742e-09,0.002921030718185055,3.349080149242742e-09,0.7494889718015235
3.35161823999675e-09,0.8042392284656549,3.35161823999675e-09,7.369807386116078e-05,3.35161823999675e-09,7.368832702695839e-05,3.35161823999675e-09,0.003049353474942047,3.35161823999675e-09,0.7508990222204165
3.354233821352321e-09,0.8678644383827917,3.354233821352321e-09,7.369864993871936e-05,3.354233821352321e-09,7.36957364747879e-05,3.354233821352321e-09,0.002934561588701855,3.354233821352321e-09,0.7523521229735115
3.357088987053673e-09,1.00510016810586,3.357088987053673e-09,7.369972130626514e-05,3.357088987053673e-09,7.370044323661397e-05,3.357088987053673e-09,0.002625862719398857,3.357088987053673e-09,0.7539383261409295
3.359734589985482e-09,1.335047579869556,3.359734589985482e-09,7.369978847626303e-05,3.359734589985482e-09,7.370280736419097e-05,3.359734589985482e-09,0.002258499532818596,3.359734589985482e-09,0.7554081055474899
3.361815584235247e-09,1.841632841345894,3.361815584235247e-09,7.369939924452573e-05,3.361815584235247e-09,7.370308920667225e-05,3.361815584235247e-09,0.001976541436757307,3.361815584235247e-09,0.7565642134640258
3.363800636170414e-09,2.523145061144497,3.363800636170414e-09,7.36978919784069e-05,3.363800636170414e-09,7.370241404332647e-05,3.363800636170414e-09,0.00173350959986965,3.363800636170414e-09,0.7576670200946745
3.365051950064915e-09,3.001227822448381,3.365051950064915e-09,7.369638215332763e-05,3.365051950064915e-09,7.370094500706411e-05,3.365051950064915e-09,0.001593336131937233,3.365051950064915e-09,0.7583621944805082
3.36676298764143e-09,3.608799966870059,3.36676298764143e-09,7.369433876692233e-05,3.36676298764143e-09,7.369936743498158e-05,3.36676298764143e-09,0.001416600012193534,3.36676298764143e-09,0.7593127709119055
3.368170822620852e-09,3.99768098386344,3.368170822620852e-09,7.369273453988196e-05,3.368170822620852e-09,7.369773748617419e-05,3.368170822620852e-09,0.001281902220453259,3.368170822620852e-09,0.7600949014560286
