/net039 X,/net039 Y,/net010 X,/net010 Y,/net09 X,/net09 Y,/net08 X,/net08 Y,/net02 X,/net02 Y
0,7.369521627081779e-05,0,7.369521627104856e-05,0,7.369521627116262e-05,0,6.437806325992146e-05,0,0
1.5e-11,7.36952162707862e-05,1.5e-11,7.369521627104178e-05,1.5e-11,7.369521627096581e-05,1.5e-11,6.43780632599433e-05,1.5e-11,0
4.5e-11,7.369521627093137e-05,4.5e-11,7.369521627098612e-05,4.5e-11,7.369521627105084e-05,4.5e-11,6.437806326022402e-05,4.5e-11,0
1.05e-10,7.369521626917944e-05,1.05e-10,7.369521626938983e-05,1.05e-10,7.369521626976957e-05,1.05e-10,6.437806326015983e-05,1.05e-10,0
2.25e-10,7.369521627287017e-05,2.25e-10,7.369521626935275e-05,2.25e-10,7.369521627242224e-05,2.25e-10,6.4378063260201e-05,2.25e-10,0
4.65e-10,7.369521626569386e-05,4.65e-10,7.369521627260919e-05,4.65e-10,7.369521626979299e-05,4.65e-10,6.437806326029281e-05,4.65e-10,0
7.649999999999999e-10,7.369521627609086e-05,7.649999999999999e-10,7.369521626957269e-05,7.649999999999999e-10,7.369521627563614e-05,7.649999999999999e-10,6.437806325986012e-05,7.649999999999999e-10,0
1.065e-09,7.369521626889703e-05,1.065e-09,7.369521627255103e-05,1.065e-09,7.369521626653481e-05,1.065e-09,6.437806326005572e-05,1.065e-09,0
1.365e-09,7.369521627276992e-05,1.365e-09,7.369521626928792e-05,1.365e-09,7.369521627867793e-05,1.365e-09,6.437806326015575e-05,1.365e-09,0
1.665e-09,7.369521626913485e-05,1.665e-09,7.369521627267579e-05,1.665e-09,7.36952162634792e-05,1.665e-09,6.437806326016402e-05,1.665e-09,0
1.8325e-09,7.369521627270015e-05,1.8325e-09,7.369521626930156e-05,1.8325e-09,7.369521627546397e-05,1.8325e-09,6.437806325992596e-05,1.8325e-09,0
2e-09,7.369521626924458e-05,2e-09,7.36952162725641e-05,2e-09,7.369521626689334e-05,2e-09,6.437806326014255e-05,2e-09,0
2.120144127384571e-09,7.369521627106973e-05,2.120144127384571e-09,7.369521627105284e-05,2.120144127384571e-09,7.369521627113431e-05,2.120144127384571e-09,6.437806326057294e-05,2.120144127384571e-09,0.06674673743587282
2.261585129605973e-09,7.36952162693691e-05,2.261585129605973e-09,7.369521626943239e-05,2.261585129605973e-09,7.369521626956876e-05,2.261585129605973e-09,6.437806323478834e-05,2.261585129605973e-09,0.1453250720033182
2.400273538304042e-09,7.369521626923117e-05,2.400273538304042e-09,7.36952162721191e-05,2.400273538304042e-09,7.369521627278543e-05,2.400273538304042e-09,6.437806337699752e-05,2.400273538304042e-09,0.2223741879466899
2.455450261564965e-09,7.369521627533785e-05,2.455450261564965e-09,7.369521627007005e-05,2.455450261564965e-09,7.369521626600005e-05,2.455450261564965e-09,6.437806260009561e-05,2.455450261564965e-09,0.253027923091647
2.483038623195426e-09,7.369521626996917e-05,2.483038623195426e-09,7.369521627171309e-05,2.483038623195426e-09,7.369521628139411e-05,2.483038623195426e-09,6.437806541914588e-05,2.483038623195426e-09,0.2683547906641256
2.538215346456349e-09,7.369521627225848e-05,2.538215346456349e-09,7.369521627014112e-05,2.538215346456349e-09,7.369521625631157e-05,2.538215346456349e-09,6.437806055626814e-05,2.538215346456349e-09,0.2990085258090829
2.560737121398761e-09,7.369521627000308e-05,2.560737121398761e-09,7.369521627199646e-05,2.560737121398761e-09,7.36952162964749e-05,2.560737121398761e-09,6.437806572044299e-05,2.560737121398761e-09,0.3115206229993115
2.571998008869966e-09,7.369521627144429e-05,2.571998008869966e-09,7.369521627044752e-05,2.571998008869966e-09,7.369521625052774e-05,2.571998008869966e-09,6.437806394417135e-05,2.571998008869966e-09,0.3177766715944257
2.594519783812378e-09,7.369521627063337e-05,2.594519783812378e-09,7.369521627446587e-05,2.594519783812378e-09,7.369521627507176e-05,2.594519783812378e-09,6.437806130772149e-05,2.594519783812378e-09,0.3302887687846544
2.619292015544413e-09,7.369521626825879e-05,2.619292015544413e-09,7.36952162707376e-05,2.619292015544413e-09,7.369521628099835e-05,2.619292015544413e-09,6.437806555660959e-05,2.619292015544413e-09,0.3440511197468958
2.640503769765509e-09,7.369521627309992e-05,2.640503769765509e-09,7.369521627137936e-05,2.640503769765509e-09,7.369521625054912e-05,2.640503769765509e-09,6.437806114271818e-05,2.640503769765509e-09,0.3558354276475049
2.660686031888229e-09,7.369521626902955e-05,2.660686031888229e-09,7.369521627045415e-05,2.660686031888229e-09,7.369521629737425e-05,2.660686031888229e-09,6.437806492195772e-05,2.660686031888229e-09,0.3670477954934607
2.682055619276811e-09,7.369521627255788e-05,2.682055619276811e-09,7.369521627420759e-05,2.682055619276811e-09,7.369521624604213e-05,2.682055619276811e-09,6.437806205335377e-05,2.682055619276811e-09,0.3789197884871172
2.701703988604448e-09,7.369521626968289e-05,2.701703988604448e-09,7.369521626824378e-05,2.701703988604448e-09,7.369521629033474e-05,2.701703988604448e-09,6.437806404620584e-05,2.701703988604448e-09,0.3898355492246933
2.725079201383633e-09,7.369521627242799e-05,2.725079201383633e-09,7.369521627066616e-05,2.725079201383633e-09,7.369521625430021e-05,2.725079201383633e-09,6.437806275277449e-05,2.725079201383633e-09,0.4028217785464629
2.75339984265998e-09,7.369521627270099e-05,2.75339984265998e-09,7.369521627120855e-05,2.75339984265998e-09,7.369521628302485e-05,2.75339984265998e-09,6.437806358797486e-05,2.75339984265998e-09,0.4185554681444333
2.784176825806505e-09,7.369521626964388e-05,2.784176825806505e-09,7.369521627086864e-05,2.784176825806505e-09,7.369521626068894e-05,2.784176825806505e-09,6.437806306246271e-05,2.784176825806505e-09,0.4356537921147249
2.812895477102883e-09,7.369521627208529e-05,2.812895477102883e-09,7.369521627082416e-05,2.812895477102883e-09,7.36952162796252e-05,2.812895477102883e-09,6.437806334930958e-05,2.812895477102883e-09,0.4516085983904907
2.84281760689105e-09,7.369521626713448e-05,2.84281760689105e-09,7.369521626808968e-05,2.84281760689105e-09,7.369521626435032e-05,2.84281760689105e-09,6.437806325060878e-05,2.84281760689105e-09,0.4682320038283612
2.867139585824226e-09,7.369521627414539e-05,2.867139585824226e-09,7.369521627323992e-05,2.867139585824226e-09,7.369521627616858e-05,2.867139585824226e-09,6.437806319759521e-05,2.867139585824226e-09,0.481744214346792
2.895104265130532e-09,7.369521627104466e-05,2.895104265130532e-09,7.369521627195007e-05,2.895104265130532e-09,7.369521626694976e-05,2.895104265130532e-09,6.437806336680091e-05,2.895104265130532e-09,0.4972801472947401
2.921090929981883e-09,7.369521627125529e-05,2.921090929981883e-09,7.36952162700636e-05,2.921090929981883e-09,7.36952162738992e-05,2.921090929981883e-09,6.437806311945792e-05,2.921090929981883e-09,0.5117171833232684
2.973064259684585e-09,7.369521627382054e-05,2.973064259684585e-09,7.36952162720275e-05,2.973064259684585e-09,7.369521627165394e-05,2.973064259684585e-09,6.437806341351318e-05,2.973064259684585e-09,0.5405912553803249
3.015890532229299e-09,7.369521626872288e-05,3.015890532229299e-09,7.369521627008613e-05,3.015890532229299e-09,7.369521627003753e-05,3.015890532229299e-09,6.437806309392158e-05,3.015890532229299e-09,0.5643836290162769
3.059187524506085e-09,7.369521627321505e-05,3.059187524506085e-09,7.369521626899865e-05,3.059187524506085e-09,7.369521627254408e-05,3.059187524506085e-09,6.43780634361068e-05,3.059187524506085e-09,0.5884375136144917
3.070300109813148e-09,7.369521626980297e-05,3.070300109813148e-09,7.369521627190156e-05,3.070300109813148e-09,7.369521626922057e-05,3.070300109813148e-09,6.437806306375113e-05,3.070300109813148e-09,0.5946111721184156
3.092525280427274e-09,7.369521627186444e-05,3.092525280427274e-09,7.369521627026255e-05,3.092525280427274e-09,7.369521627320076e-05,3.092525280427274e-09,6.437806345740758e-05,3.092525280427274e-09,0.6069584891262632
3.099684254192636e-09,7.369521627055808e-05,3.099684254192636e-09,7.369521627122814e-05,3.099684254192636e-09,7.369521626849097e-05,3.099684254192636e-09,6.437806307407706e-05,3.099684254192636e-09,0.6109356967736864
3.114002201723359e-09,7.36952162688326e-05,3.114002201723359e-09,7.369521627081353e-05,3.114002201723359e-09,7.369521627391553e-05,3.114002201723359e-09,6.43780634327913e-05,3.114002201723359e-09,0.6188901120685327
3.124927069161156e-09,7.369521627471364e-05,3.124927069161156e-09,7.369521627065979e-05,3.124927069161156e-09,7.369521626968672e-05,3.124927069161156e-09,6.437806306025568e-05,3.124927069161156e-09,0.6249594828673088
3.135313259469609e-09,7.36952162658891e-05,3.135313259469609e-09,7.369521627164192e-05,3.135313259469609e-09,7.369521627743654e-05,3.135313259469609e-09,6.437806353799789e-05,3.135313259469609e-09,0.6307295885942269
3.147649716046196e-09,7.369521627529131e-05,3.147649716046196e-09,7.369521627030675e-05,3.147649716046196e-09,7.369521626976209e-05,3.147649716046196e-09,6.437806329220436e-05,3.147649716046196e-09,0.6375831755812199
3.157684697106842e-09,7.369521626846615e-05,3.157684697106842e-09,7.369521626918307e-05,3.157684697106842e-09,7.369521629222005e-05,3.157684697106842e-09,6.437806430737828e-05,3.157684697106842e-09,0.6431581650593564
3.160409149076919e-09,7.369521626278962e-05,3.160409149076919e-09,7.369521627157432e-05,3.160409149076919e-09,7.369521609365284e-05,3.160409149076919e-09,6.437806093956416e-05,3.160409149076919e-09,0.6446717494871771
3.165858053017074e-09,7.369521623273754e-05,3.165858053017074e-09,7.369521627161174e-05,3.165858053017074e-09,7.369521494453672e-05,3.165858053017074e-09,6.437802947708483e-05,3.165858053017074e-09,0.6476989183428188
3.176755860897383e-09,7.36952162892215e-05,3.176755860897383e-09,7.369521627070736e-05,3.176755860897383e-09,7.369521568071127e-05,3.176755860897383e-09,6.437799113856186e-05,3.176755860897383e-09,0.6537532560541018
3.184473711924348e-09,7.369521744279769e-05,3.184473711924348e-09,7.36952162870921e-05,3.184473711924348e-09,7.369525795097623e-05,3.184473711924348e-09,6.437918267379241e-05,3.184473711924348e-09,0.6580409510690822
3.195005775383884e-09,7.36952161779167e-05,3.195005775383884e-09,7.369521624428689e-05,3.195005775383884e-09,7.36952279619713e-05,3.195005775383884e-09,6.438012119343883e-05,3.195005775383884e-09,0.6638920974354909
3.202561376941222e-09,7.3695201923825e-05,3.202561376941222e-09,7.369521595383862e-05,3.202561376941222e-09,7.369364844787801e-05,3.202561376941222e-09,6.433663471193962e-05,3.202561376941222e-09,0.6680896538562345
3.21098369408595e-09,7.369520933218579e-05,3.21098369408595e-09,7.369521692992443e-05,3.21098369408595e-09,7.369458022220328e-05,3.21098369408595e-09,6.430524783532444e-05,3.21098369408595e-09,0.6727687189366387
3.218019528251282e-09,7.369526226567702e-05,3.218019528251282e-09,7.369521771662593e-05,3.218019528251282e-09,7.370461862260811e-05,3.218019528251282e-09,6.455081047984971e-05,3.218019528251282e-09,0.676677515695157
3.224396208446144e-09,7.369530185261433e-05,3.224396208446144e-09,7.369521178759273e-05,3.224396208446144e-09,7.369255692041835e-05,3.224396208446144e-09,6.451401700719795e-05,3.224396208446144e-09,0.6802201158034131
3.231792189846161e-09,7.369518729131953e-05,3.231792189846161e-09,7.36952184819598e-05,3.231792189846161e-09,7.368657536856292e-05,3.231792189846161e-09,6.425997962465785e-05,3.231792189846161e-09,0.6843289943589781
3.239450059264637e-09,7.369516685876561e-05,3.239450059264637e-09,7.369521855199774e-05,3.239450059264637e-09,7.369869381625293e-05,3.239450059264637e-09,6.431868912790557e-05,3.239450059264637e-09,0.6885833662581317
3.246950616032061e-09,7.369519939570595e-05,3.246950616032061e-09,7.369521319368632e-05,3.246950616032061e-09,7.369634323499832e-05,3.246950616032061e-09,6.436759630237708e-05,3.246950616032061e-09,0.6927503422400337
3.254159825633286e-09,7.3694978347538e-05,3.254159825633286e-09,7.369521659508316e-05,3.254159825633286e-09,7.369573370797653e-05,3.254159825633286e-09,6.438089265024564e-05,3.254159825633286e-09,0.6967554586851591
3.261467823035375e-09,7.369488943837309e-05,3.261467823035375e-09,7.369521534984483e-05,3.261467823035375e-09,7.369348021063042e-05,3.261467823035375e-09,6.432070597723438e-05,3.261467823035375e-09,0.7008154572418752
3.267074250349267e-09,7.36929369473503e-05,3.267074250349267e-09,7.369520695436562e-05,3.267074250349267e-09,7.369034616239487e-05,3.267074250349267e-09,6.414803596747642e-05,3.267074250349267e-09,0.7039301390829262
3.271528925475772e-09,7.367737572309392e-05,3.271528925475772e-09,7.369512654714031e-05,3.271528925475772e-09,7.36903137666916e-05,3.271528925475772e-09,6.36791842952933e-05,3.271528925475772e-09,0.7064049585976512
3.275483845604496e-09,7.364932724913222e-05,3.275483845604496e-09,7.369505103078981e-05,3.275483845604496e-09,7.369860985865572e-05,3.275483845604496e-09,6.288167588644449e-05,3.275483845604496e-09,0.708602136446942
3.279521485487895e-09,7.371669142751798e-05,3.279521485487895e-09,7.369567571709406e-05,3.279521485487895e-09,7.370893358655255e-05,3.279521485487895e-09,6.36849423972312e-05,3.279521485487895e-09,0.7108452697154974
3.282944075041445e-09,7.426954283060392e-05,3.282944075041445e-09,7.369903253684872e-05,3.282944075041445e-09,7.371330273575205e-05,3.282944075041445e-09,7.466403376026559e-05,3.282944075041445e-09,0.712746708356358
3.286376489146606e-09,7.522479288107882e-05,3.286376489146606e-09,7.370140850820006e-05,3.286376489146606e-09,7.371066386322097e-05,3.286376489146606e-09,0.0001002214503946135,3.286376489146606e-09,0.7146536050814477
3.289553102783954e-09,7.496007558629692e-05,3.289553102783954e-09,7.36923725219238e-05,3.289553102783954e-09,7.370665773977591e-05,3.289553102783954e-09,0.0001082831217558381,3.289553102783954e-09,0.7164183904355297
3.291928258086228e-09,7.379941783435991e-05,3.291928258086228e-09,7.368406640712074e-05,3.291928258086228e-09,7.370295416063347e-05,3.291928258086228e-09,6.13713028713483e-05,3.291928258086228e-09,0.7177379211590157
3.294779353577939e-09,7.265550400985816e-05,3.294779353577939e-09,7.368524482529922e-05,3.294779353577939e-09,7.368065627325055e-05,3.294779353577939e-09,-0.0001621464972675272,3.294779353577939e-09,0.719321863098855
3.29809700212242e-09,6.8697862619401e-05,3.29809700212242e-09,7.36973983868005e-05,3.29809700212242e-09,7.365641586650261e-05,3.29809700212242e-09,-0.0007926976569954673,3.29809700212242e-09,0.7211650011791223
3.302129563073395e-09,5.730946381170237e-05,3.302129563073395e-09,7.37153782189105e-05,3.302129563073395e-09,7.367960976631015e-05,3.302129563073395e-09,-0.001211920483929458,3.302129563073395e-09,0.7234053128185528
3.305053046877286e-09,5.461391803076504e-05,3.305053046877286e-09,7.370558269554682e-05,3.305053046877286e-09,7.3694254024011e-05,3.305053046877286e-09,-0.0009754774106519499,3.305053046877286e-09,0.7250294704873811
3.307772064255626e-09,6.304930802560621e-05,3.307772064255626e-09,7.368624835328652e-05,3.307772064255626e-09,7.369006562432568e-05,3.307772064255626e-09,-0.000599838185819297,3.307772064255626e-09,0.7265400356975702
3.310486936769381e-09,8.257528704835803e-05,3.310486936769381e-09,7.369036739060591e-05,3.310486936769381e-09,7.368759521052976e-05,3.310486936769381e-09,-0.0002771881132405057,3.310486936769381e-09,0.7280482982052114
3.31338091669476e-09,0.0001226736360440287,3.31338091669476e-09,7.371069848902724e-05,3.31338091669476e-09,7.368699357278679e-05,3.31338091669476e-09,-0.0002643992877395518,3.31338091669476e-09,0.7296560648304223
3.315831367853708e-09,0.0001831626463916532,3.315831367853708e-09,7.3728583742894e-05,3.315831367853708e-09,7.369083373809654e-05,3.315831367853708e-09,-0.0006746337681183052,3.315831367853708e-09,0.7310174265853933
3.318484385522813e-09,0.0003207756194228207,3.318484385522813e-09,7.372082098150872e-05,3.318484385522813e-09,7.369960711551899e-05,3.318484385522813e-09,-0.001509945431353827,3.318484385522813e-09,0.7324913252904515
3.322077769080353e-09,0.0003703803956439097,3.322077769080353e-09,7.367594279434407e-05,3.322077769080353e-09,7.371483084940268e-05,3.322077769080353e-09,-0.002698521087308841,3.322077769080353e-09,0.7344876494890852
3.324817852744383e-09,-0.002652705214305432,3.324817852744383e-09,7.363929683108642e-05,3.324817852744383e-09,7.371815915547087e-05,3.324817852744383e-09,-0.00334661083815111,3.324817852744383e-09,0.736009918191324
3.327786240182617e-09,-0.01053237930926063,3.327786240182617e-09,7.361818990811777e-05,3.327786240182617e-09,7.371421031257492e-05,3.327786240182617e-09,-0.003581801463643044,3.327786240182617e-09,0.7376590223236761
3.330762451131683e-09,-0.01111074360568971,3.330762451131683e-09,7.363141144420611e-05,3.330762451131683e-09,7.370892087387879e-05,3.330762451131683e-09,-0.003168618314943497,3.330762451131683e-09,0.7393124728509348
3.333407553630192e-09,0.02210542325525166,3.333407553630192e-09,7.366705184549392e-05,3.333407553630192e-09,7.369869497768711e-05,3.333407553630192e-09,-0.002362568559413051,3.333407553630192e-09,0.7407819742389954
3.335932455316152e-09,0.1004257133991281,3.335932455316152e-09,7.370000716116268e-05,3.335932455316152e-09,7.368239386805947e-05,3.335932455316152e-09,-0.001654611809788769,3.335932455316152e-09,0.742184697397862
3.338072533357321e-09,0.1939474265605768,3.338072533357321e-09,7.373469344063985e-05,3.338072533357321e-09,7.368548628871119e-05,3.338072533357321e-09,-0.0009532346666115497,3.338072533357321e-09,0.7433736296429559
3.340638044067009e-09,0.3214973882070373,3.340638044067009e-09,7.376179633850711e-05,3.340638044067009e-09,7.369466905223393e-05,3.340638044067009e-09,0.000203222994820887,3.340638044067009e-09,0.7447989133705607
3.343453803815337e-09,0.4719671650457904,3.343453803815337e-09,7.374478399231718e-05,3.343453803815337e-09,7.368552219970698e-05,3.343453803815337e-09,0.001427141069189095,3.343453803815337e-09,0.746363224341854
3.346189697339206e-09,0.6120190844703169,3.346189697339206e-09,7.372225610284089e-05,3.346189697339206e-09,7.36826550119819e-05,3.346189697339206e-09,0.00237008121263853,3.346189697339206e-09,0.747883165188448
3.349080149242929e-09,0.7320919257177532,3.349080149242929e-09,7.370318185386081e-05,3.349080149242929e-09,7.368278811750326e-05,3.349080149242929e-09,0.002921030817419402,3.349080149242929e-09,0.749488971801627
3.351618239996794e-09,0.8042392284672636,3.351618239996794e-09,7.369807385919385e-05,3.351618239996794e-09,7.368832702233314e-05,3.351618239996794e-09,0.003049353569322118,3.351618239996794e-09,0.750899022220441
3.354233821352417e-09,0.8678644383864492,3.354233821352417e-09,7.369864993986783e-05,3.354233821352417e-09,7.369573647553948e-05,3.354233821352417e-09,0.00293456170880379,3.354233821352417e-09,0.7523521229735648
3.35708898705382e-09,1.005100168118983,3.35708898705382e-09,7.369972130518142e-05,3.35708898705382e-09,7.370044323057831e-05,3.35708898705382e-09,0.002625862776534881,3.35708898705382e-09,0.7539383261410112
3.359734589985576e-09,1.335047579890299,3.359734589985576e-09,7.369978847886735e-05,3.359734589985576e-09,7.370280736652591e-05,3.359734589985576e-09,0.00225849955414879,3.359734589985576e-09,0.7554081055475421
3.361815584235334e-09,1.84163284137836,3.361815584235334e-09,7.369939924558775e-05,3.361815584235334e-09,7.370308920958962e-05,3.361815584235334e-09,0.001976541425878906,3.361815584235334e-09,0.7565642134640742
3.363800636170501e-09,2.523145061184748,3.363800636170501e-09,7.369789198019435e-05,3.363800636170501e-09,7.370241404825771e-05,3.363800636170501e-09,0.00173350957409023,3.363800636170501e-09,0.7576670200947229
3.36505195006501e-09,3.001227822492219,3.36505195006501e-09,7.369638215342581e-05,3.36505195006501e-09,7.37009450116929e-05,3.36505195006501e-09,0.001593336095097451,3.36505195006501e-09,0.7583621944805611
3.366762987641509e-09,3.608799966902083,3.366762987641509e-09,7.369433876751877e-05,3.366762987641509e-09,7.369936743743074e-05,3.366762987641509e-09,0.001416599962896887,3.366762987641509e-09,0.7593127709119494
3.368170822620921e-09,3.997680983884491,3.368170822620921e-09,7.369273453937713e-05,3.368170822620921e-09,7.369773748964735e-05,3.368170822620921e-09,0.001281902173521976,3.368170822620921e-09,0.7600949014560673
