/Vin X,/Vin Y,/out0 X,/out0 Y,/out1 X,/out1 Y,/out2 X,/out2 Y
-60,0.45,-60,0.2474540356629779,-60,0.1958492578167289,-60,0.06243225393572698
-58.6,0.45,-58.6,0.2501788052239039,-58.6,0.1967580437846957,-58.6,0.06264591162201204
-57.2,0.45,-57.2,0.2529541675712614,-57.2,0.1976621996313253,-57.2,0.0628591480849057
-55.8,0.45,-55.8,0.2557812848720851,-55.8,0.1985678330412209,-55.8,0.06307196360467421
-54.40000000000001,0.45,-54.40000000000001,0.2586613240503626,-54.40000000000001,0.1994756362050556,-54.40000000000001,0.06328435942237018
-53.00000000000001,0.45,-53.00000000000001,0.2615954336412867,-53.00000000000001,0.2003864121479809,-53.00000000000001,0.0634963367808196
-51.60000000000001,0.45,-51.60000000000001,0.2645847337103487,-51.60000000000001,0.2013010911124053,-51.60000000000001,0.06370789692690704
-50.20000000000001,0.45,-50.20000000000001,0.2676303040613495,-50.20000000000001,0.202220748924406,-50.20000000000001,0.06391904111386479
-48.80000000000001,0.45,-48.80000000000001,0.2707331707088978,-48.80000000000001,0.2031466274968571,-48.80000000000001,0.06412977060365532
-47.40000000000001,0.45,-47.40000000000001,0.2738942905341624,-47.40000000000001,0.2040801576100514,-47.40000000000001,0.06434008666946321
-46.00000000000001,0.45,-46.00000000000001,0.2771145341123177,-46.00000000000001,0.2050229841009431,-46.00000000000001,0.0645499905983742
-44.60000000000002,0.45,-44.60000000000002,0.2803946667780084,-44.60000000000002,0.2059769935793631,-44.60000000000002,0.06475948369429609
-43.20000000000002,0.45,-43.20000000000002,0.2837353280995399,-43.20000000000002,0.2069443447757618,-43.20000000000002,0.06496856728123462
-41.80000000000002,0.45,-41.80000000000002,0.287137010058899,-41.80000000000002,0.2079275016129147,-41.80000000000002,0.06517724270699893
-40.40000000000002,0.45,-40.40000000000002,0.290600034386452,-40.40000000000002,0.2089292690867648,-40.40000000000002,0.06538551134749318
-39.00000000000002,0.45,-39.00000000000002,0.2941245296636303,-39.00000000000002,0.2099528320445266,-39.00000000000002,0.06559337461175178
-37.60000000000002,0.45,-37.60000000000002,0.2977104089795815,-37.60000000000002,0.2110017969673737,-37.60000000000002,0.06580083394791046
-36.20000000000002,0.45,-36.20000000000002,0.3013573490865572,-36.20000000000002,0.2120802369084704,-36.20000000000002,0.06600789085038487
-34.80000000000003,0.45,-34.80000000000003,0.305064772126341,-34.80000000000003,0.2131927398134382,-34.80000000000003,0.06621454686853505
-33.40000000000003,0.45,-33.40000000000003,0.308831831068917,-33.40000000000003,0.2143444605687569,-33.40000000000003,0.06642080361729258
-32.00000000000003,0.45,-32.00000000000003,0.3126573999928333,-32.00000000000003,0.2155411772940936,-32.00000000000003,0.06662666279020676
-30.60000000000003,0.45,-30.60000000000003,0.3165400702234377,-30.60000000000003,0.216789352625934,-30.60000000000003,0.06683212617562433
-29.20000000000003,0.45,-29.20000000000003,0.3204781531189276,-29.20000000000003,0.2180962010410643,-29.20000000000003,0.06703719567687204
-27.80000000000003,0.45,-27.80000000000003,0.3244696899646866,-27.80000000000003,0.2194697636494722,-27.80000000000003,0.06724187333763557
-26.40000000000003,0.45,-26.40000000000003,0.3285124690194021,-26.40000000000003,0.2209189923586931,-26.40000000000003,0.06744616137408459
-25.00000000000004,0.45,-25.00000000000004,0.3326040492978574,-25.00000000000004,0.2224538458948469,-25.00000000000004,0.06765006221584506
-23.60000000000004,0.45,-23.60000000000004,0.3367468514648226,-23.60000000000004,0.2240907834621931,-23.60000000000004,0.06785509581426291
-22.20000000000004,0.45,-22.20000000000004,0.3409344500467802,-22.20000000000004,0.2258385328951069,-22.20000000000004,0.06806018201959051
-20.80000000000004,0.45,-20.80000000000004,0.3451624792391416,-20.80000000000004,0.2277093841803395,-20.80000000000004,0.06826489663460114
-19.40000000000004,0.45,-19.40000000000004,0.3494279111824616,-19.40000000000004,0.2297187151753462,-19.40000000000004,0.06846924368366875
-18.00000000000004,0.45,-18.00000000000004,0.3537276673836328,-18.00000000000004,0.2318837289966751,-18.00000000000004,0.06867322794774854
-16.60000000000004,0.45,-16.60000000000004,0.3580586552571735,-16.60000000000004,0.2342237342067338,-16.60000000000004,0.06887685512556234
-15.20000000000004,0.45,-15.20000000000004,0.3624178016332949,-15.20000000000004,0.2367604932853618,-15.20000000000004,0.06908013212983481
-13.80000000000004,0.45,-13.80000000000004,0.3668020822030024,-13.80000000000004,0.2395186603830226,-13.80000000000004,0.06928306749132179
-12.40000000000004,0.45,-12.40000000000004,0.3712085463312962,-12.40000000000004,0.2425263367685138,-12.40000000000004,0.06948567192448357
-11.00000000000004,0.45,-11.00000000000004,0.3756343370117508,-11.00000000000004,0.245815782388954,-11.00000000000004,0.06968795913109584
-9.600000000000042,0.45,-9.600000000000042,0.3800767060330477,-9.600000000000042,0.2494243356147942,-9.600000000000042,0.06988994695999594
-8.200000000000042,0.45,-8.200000000000042,0.3845330246584336,-8.200000000000042,0.2533956117918273,-8.200000000000042,0.07009165910975147
-6.800000000000042,0.45,-6.800000000000042,0.389000790280255,-6.800000000000042,0.257781076169874,-6.800000000000042,0.07029312767535564
-5.400000000000041,0.45,-5.400000000000041,0.3934776296036845,-5.400000000000041,0.2626421195853273,-5.400000000000041,0.07049439703503182
-4.000000000000041,0.45,-4.000000000000041,0.3979612989494605,-4.000000000000041,0.2680528062949516,-4.000000000000041,0.07069552991363946
-2.600000000000041,0.45,-2.600000000000041,0.4024496822546416,-2.600000000000041,0.2741035086057467,-2.600000000000041,0.07089661706707785
-1.200000000000041,0.45,-1.200000000000041,0.4069407873108113,-1.200000000000041,0.2809056749798362,-1.200000000000041,0.07109779314458524
0.1999999999999589,0.45,0.1999999999999589,0.4114327407177605,0.1999999999999589,0.2885979408990048,0.1999999999999589,0.07129926336251073
1.599999999999959,0.45,1.599999999999959,0.4159237819615409,1.599999999999959,0.2973535204309089,1.599999999999959,0.07150134955582377
2.999999999999959,0.45,2.999999999999959,0.420412256955724,2.999999999999959,0.307387853164126,2.999999999999959,0.07170457159185478
4.399999999999959,0.45,4.399999999999959,0.4248966113164051,4.399999999999959,0.3189626414639873,4.399999999999959,0.0719097934860569
5.799999999999958,0.45,5.799999999999958,0.4293753835814184,5.799999999999958,0.3323752359504826,5.799999999999958,0.07211848395915266
7.199999999999958,0.45,7.199999999999958,0.4338471985310465,7.199999999999958,0.3479093736738376,7.199999999999958,0.07233315738195016
8.599999999999959,0.45,8.599999999999959,0.4383107607242702,8.599999999999959,0.3657218522604916,8.599999999999959,0.07255802844112061
9.999999999999959,0.45,9.999999999999959,0.4427648483285295,9.999999999999959,0.3857107082309942,9.999999999999959,0.0727998013913688
11.39999999999996,0.45,11.39999999999996,0.4472083072921644,11.39999999999996,0.4075244776887122,11.39999999999996,0.07306847523223932
12.79999999999996,0.45,12.79999999999996,0.4516400458877199,12.79999999999996,0.4307450494339737,12.79999999999996,0.07337803710004896
14.19999999999996,0.45,14.19999999999996,0.4560590296374071,14.19999999999996,0.4550368665497547,14.19999999999996,0.07374634045176651
15.59999999999996,0.45,15.59999999999996,0.4604642766201928,15.59999999999996,0.4801679073132434,15.59999999999996,0.07419304141267895
16.99999999999996,0.45,16.99999999999996,0.4648548531513308,16.99999999999996,0.5059759638042909,16.99999999999996,0.07473564873562652
18.39999999999996,0.45,18.39999999999996,0.4692298698200888,18.39999999999996,0.5323374716898275,18.39999999999996,0.07538564007953373
19.79999999999996,0.45,19.79999999999996,0.4735884778672783,19.79999999999996,0.559149243032102,19.79999999999996,0.07614680192614467
21.19999999999996,0.45,21.19999999999996,0.4779298658824676,21.19999999999996,0.5863190570601988,21.19999999999996,0.077016085415561
22.59999999999996,0.45,22.59999999999996,0.482253256800463,22.59999999999996,0.6137609374791538,22.59999999999996,0.07798565638342579
23.99999999999995,0.45,23.99999999999995,0.4865579051753989,23.99999999999995,0.6413927572406611,23.99999999999995,0.07904481902580743
25.39999999999995,0.45,25.39999999999995,0.4908472265359374,25.39999999999995,0.6691628653170851,25.39999999999995,0.08018360887575721
26.79999999999995,0.45,26.79999999999995,0.4951267796371842,26.79999999999995,0.6970372981026316,26.79999999999995,0.08139299331154803
28.19999999999995,0.45,28.19999999999995,0.4993855974125269,28.19999999999995,0.7248712839427846,28.19999999999995,0.08265354775390077
29.59999999999995,0.45,29.59999999999995,0.5036230370188847,29.59999999999995,0.7525904571738701,29.59999999999995,0.08395059978365177
30.99999999999995,0.45,30.99999999999995,0.5078384769466775,30.99999999999995,0.7801226612260344,30.99999999999995,0.08526884534656894
32.39999999999995,0.45,32.39999999999995,0.5120313155726749,32.39999999999995,0.8073984475908068,32.39999999999995,0.08659273026669582
33.79999999999995,0.45,33.79999999999995,0.5162009698710391,33.79999999999995,0.8343517405566769,33.79999999999995,0.0879096588521338
35.19999999999995,0.45,35.19999999999995,0.5203468742727141,35.19999999999995,0.8609206182090944,35.19999999999995,0.08919981666948229
36.59999999999994,0.45,36.59999999999994,0.5244684796623759,36.59999999999994,0.8870481668956436,36.59999999999994,0.09044634624673166
37.99999999999994,0.45,37.99999999999994,0.5285652525022317,37.99999999999994,0.9126831250910542,37.99999999999994,0.09163376298988749
39.39999999999994,0.45,39.39999999999994,0.5326366740727017,39.39999999999994,0.9377804309096256,39.39999999999994,0.09274803506954707
40.79999999999994,0.45,40.79999999999994,0.5366822398218396,40.79999999999994,0.9623014741884096,40.79999999999994,0.0937771987390577
42.19999999999994,0.45,42.19999999999994,0.5407014588148291,42.19999999999994,0.98621394457587,42.19999999999994,0.09471209899160397
43.59999999999994,0.45,43.59999999999994,0.5446938532760435,43.59999999999994,1.009491168050906,43.59999999999994,0.09554723009888333
44.99999999999994,0.45,44.99999999999994,0.5486589582162786,44.99999999999994,1.032110784095386,44.99999999999994,0.0962816115405615
46.39999999999993,0.45,46.39999999999993,0.5525963211388184,46.39999999999993,1.054052538315915,46.39999999999993,0.09691945521408402
47.79999999999993,0.45,47.79999999999993,0.5565055018173207,47.79999999999993,1.075294836282066,47.79999999999993,0.09747012560393066
49.19999999999993,0.45,49.19999999999993,0.5603860721398425,49.19999999999993,1.09583083166427,49.19999999999993,0.09794715692988536
50.59999999999993,0.45,50.59999999999993,0.5642376160131,50.59999999999993,1.115708605543835,50.59999999999993,0.09836613605220941
51.99999999999993,0.45,51.99999999999993,0.5680597293209266,51.99999999999993,1.134781581670638,51.99999999999993,0.0987396263933769
53.39999999999993,0.45,53.39999999999993,0.5718520199318671,53.39999999999993,1.152919625460826,53.39999999999993,0.09907867881385951
54.79999999999993,0.45,54.79999999999993,0.5756141077506162,54.79999999999993,1.169995508726963,54.79999999999993,0.099391745075636
56.19999999999992,0.45,56.19999999999992,0.5793456248077365,56.19999999999992,1.185897168965822,56.19999999999992,0.09968489775415482
57.59999999999992,0.45,57.59999999999992,0.5830462153830555,57.59999999999992,1.200562502368558,57.59999999999992,0.09996252993913735
58.99999999999992,0.45,58.99999999999992,0.5867155361579978,58.99999999999992,1.213999012168172,58.99999999999992,0.1002279354945795
60.39999999999992,0.45,60.39999999999992,0.5903532563914194,60.39999999999992,1.226272973055784,60.39999999999992,0.100483641473553
61.79999999999992,0.45,61.79999999999992,0.5939590581153307,61.79999999999992,1.237482917700343,61.79999999999992,0.1007315896815701
63.19999999999992,0.45,63.19999999999992,0.5975326363453439,63.19999999999992,1.247736610965358,63.19999999999992,0.1009732653509485
64.59999999999992,0.45,64.59999999999992,0.6010736993017146,64.59999999999992,1.257137860726346,64.59999999999992,0.1012098048336452
65.99999999999993,0.45,65.99999999999993,0.6045819686371386,65.99999999999993,1.265780977984157,65.99999999999993,0.1014420834896404
67.39999999999993,0.45,67.39999999999993,0.6080571796669197,67.39999999999993,1.273749368231415,67.39999999999993,0.1016707830382381
68.79999999999994,0.45,68.79999999999994,0.611499081598186,68.79999999999994,1.281115931858214,68.79999999999994,0.1018964410756244
70.19999999999995,0.45,70.19999999999995,0.6149074377539667,70.19999999999995,1.287944109099892,70.19999999999995,0.1021194868612765
71.59999999999995,0.45,71.59999999999995,0.6182820257896361,71.59999999999995,1.294289064268608,71.59999999999995,0.1023402671606673
72.99999999999996,0.45,72.99999999999996,0.6216226378976105,72.99999999999996,1.300198813769899,72.99999999999996,0.102559065065277
74.39999999999996,0.45,74.39999999999996,0.6249290809980196,74.39999999999996,1.305715234129054,74.39999999999996,0.1027761138749812
75.79999999999997,0.45,75.79999999999997,0.6282011769127422,75.79999999999997,1.310874938482211,75.79999999999997,0.1029916074848822
77.19999999999997,0.45,77.19999999999997,0.6314387625195309,77.19999999999997,1.315710029128218,77.19999999999997,0.1032057082666256
78.59999999999998,0.45,78.59999999999998,0.6346416898853365,78.59999999999998,1.32024873972023,78.59999999999998,0.1034185531273451
79.99999999999999,0.45,79.99999999999999,0.6378098263758648,79.99999999999999,1.32451598161402,79.99999999999999,0.1036302582232037
81.39999999999999,0.45,81.39999999999999,0.6409430547401891,81.39999999999999,1.328533808014224,81.39999999999999,0.1038409226654714
82.8,0.45,82.8,0.644041273168906,82.8,1.332321808103061,82.8,0.1040506314623938
84.2,0.45,84.2,0.6471043953250789,84.2,1.33589744178008,84.2,0.1042594578745454
85.60000000000001,0.45,85.60000000000001,0.6501323503465042,85.60000000000001,1.339276324161158,85.60000000000001,0.1044674653152522
87.00000000000001,0.45,87.00000000000001,0.6531250828192503,87.00000000000001,1.342472467647429,87.00000000000001,0.1046747088949626
88.40000000000002,0.45,88.40000000000002,0.6560825527219405,88.40000000000002,1.345498488192312,88.40000000000002,0.1048812366844418
89.80000000000003,0.45,89.80000000000003,0.6590047353407383,89.80000000000003,1.348365781368268,89.80000000000003,0.1050870907543479
91.20000000000003,0.45,91.20000000000003,0.6618916211549508,91.20000000000003,1.351084672952805,91.20000000000003,0.1052923080356089
92.60000000000004,0.45,92.60000000000004,0.6647432156941664,92.60000000000004,1.353664548002343,92.60000000000004,0.1054969210353299
94.00000000000004,0.45,94.00000000000004,0.667559539366919,94.00000000000004,1.356113961744749,94.00000000000004,0.1057009584354826
95.40000000000005,0.45,95.40000000000005,0.6703406272618353,95.40000000000005,1.358440735086316,95.40000000000005,0.1059044455959733
96.80000000000005,0.45,96.80000000000005,0.6730865289224194,96.80000000000005,1.360652037078618,96.80000000000005,0.1061074049792395
98.20000000000006,0.45,98.20000000000006,0.6757973080964719,98.20000000000006,1.362754456313631,98.20000000000006,0.1063098565102223
99.60000000000007,0.45,99.60000000000007,0.6784730424610891,99.60000000000007,1.364754062900483,99.60000000000007,0.1065118178826978
101.0000000000001,0.45,101.0000000000001,0.6811138233250541,101.0000000000001,1.366656462415116,101.0000000000001,0.10671330482104
102.4000000000001,0.45,102.4000000000001,0.6837197553099359,102.4000000000001,1.368466842994353,102.4000000000001,0.1069143313046945
103.8000000000001,0.45,103.8000000000001,0.6862909560113167,103.8000000000001,1.37019001656304,103.8000000000001,0.1071149097613224
105.2000000000001,0.45,105.2000000000001,0.6888275556420508,105.2000000000001,1.371830455030677,105.2000000000001,0.1073150512335664
106.6000000000001,0.45,106.6000000000001,0.6913296966591004,106.6000000000001,1.37339232216611,106.6000000000001,0.1075147655234538
108.0000000000001,0.45,108.0000000000001,0.6937975333757062,108.0000000000001,1.374879501752116,108.0000000000001,0.1077140613178367
109.4000000000001,0.45,109.4000000000001,0.6962312315608389,109.4000000000001,1.376295622532362,109.4000000000001,0.1079129462976184
110.8000000000001,0.45,110.8000000000001,0.6986309680272793,110.8000000000001,1.377644080386829,110.8000000000001,0.1081114272331457
112.2000000000001,0.45,112.2000000000001,0.7009969302108022,112.2000000000001,1.378928058108702,112.2000000000001,0.1083095100676844
113.6000000000001,0.45,113.6000000000001,0.7033293157415206,113.6000000000001,1.380150543099429,113.6000000000001,0.1085071999906423
115.0000000000001,0.45,115.0000000000001,0.7056283320096244,115.0000000000001,1.381314343252535,115.0000000000001,0.108704501501888
116.4000000000001,0.45,116.4000000000001,0.7078941957270442,116.4000000000001,1.382422101254845,116.4000000000001,0.1089014184683755
117.8000000000001,0.45,117.8000000000001,0.710127132486687,117.8000000000001,1.383476307498268,117.8000000000001,0.1090979541739664
119.2000000000001,0.45,119.2000000000001,0.7123273763208592,119.2000000000001,1.384479311764154,119.2000000000001,0.1092941113633541
120.6000000000002,0.45,120.6000000000002,0.7144951692607054,120.6000000000002,1.385433333815826,120.6000000000002,0.1094898922806951
122.0000000000002,0.45,122.0000000000002,0.7166307608976321,122.0000000000002,1.38634047301203,122.0000000000002,0.1096852987035872
123.4000000000002,0.45,123.4000000000002,0.7187344079486119,123.4000000000002,1.387202717036855,123.4000000000002,0.1098803319728378
124.8000000000002,0.45,124.8000000000002,0.7208063738265171,124.8000000000002,1.388021949827466,124.8000000000002,0.1100749930184922
126.2000000000002,0.45,126.2000000000002,0.7228469282169487,126.2000000000002,1.388799958771403,126.2000000000002,0.11026928238245
127.6000000000002,0.45,127.6000000000002,0.7248563466623286,127.6000000000002,1.389538441238229,127.6000000000002,0.1104632002380555
129.0000000000002,0.45,129.0000000000002,0.726834910155022,129.0000000000002,1.390239010506763,129.0000000000002,0.1106567464069409
130.4000000000002,0.45,130.4000000000002,0.7287829047400346,130.4000000000002,1.390903201145769,130.4000000000002,0.1108499203734603
131.8000000000002,0.45,131.8000000000002,0.7307006211286178,131.8000000000002,1.391532473904252,131.8000000000002,0.111042721296964
133.2000000000002,0.45,133.2000000000002,0.732588354323328,133.2000000000002,1.39212822016488,133.2000000000002,0.1112351480222551
134.6000000000002,0.45,134.6000000000002,0.7344464032559131,134.6000000000002,1.392691766011654,134.6000000000002,0.1114271990884433
136.0000000000002,0.45,136.0000000000002,0.736275070438333,136.0000000000002,1.393224375958645,136.0000000000002,0.1116188727365251
137.4000000000002,0.45,137.4000000000002,0.7380746616278062,137.4000000000002,1.393727256382697,137.4000000000002,0.1118101669159042
138.8000000000002,0.45,138.8000000000002,0.7398454855067924,138.8000000000002,1.394201558698205,138.8000000000002,0.1120010792901571
140.2000000000002,0.45,140.2000000000002,0.7415878533780712,140.2000000000002,1.394648382306692,140.2000000000002,0.1121916072422505
141.6000000000002,0.45,141.6000000000002,0.7433020788758126,141.6000000000002,1.395068777349628,141.6000000000002,0.112381747879496
143.0000000000002,0.45,143.0000000000002,0.7449884776932389,143.0000000000002,1.395463747288167,143.0000000000002,0.1125714980384272
144.4000000000002,0.45,144.4000000000002,0.7466473673269242,144.4000000000002,1.395834251329385,144.4000000000002,0.1127608542899001
145.8000000000002,0.45,145.8000000000002,0.7482790668387341,145.8000000000002,1.396181206715708,145.8000000000002,0.1129498129445659
147.2000000000002,0.45,147.2000000000002,0.7498838966354006,147.2000000000002,1.396505490890898,147.2000000000002,0.1131383700589738
148.6000000000003,0.45,148.6000000000003,0.7514621782664738,148.6000000000003,1.39680794355414,148.6000000000003,0.1133265214425109
