/out0 X,/out0 Y,/out1 X,/out1 Y,/Vin X,/Vin Y,/out2 X,/out2 Y
0,0.4957364671687216,0,0.7010178116874852,0,0.45,0,0.06421096206420279
2e-05,0.4988259259308466,2e-05,0.7184514668983846,2e-05,0.4506266661678215,2e-05,0.06454742070885844
3.587424901550371e-05,0.5012563289353886,3.587424901550371e-05,0.7322439790175947,3.587424901550371e-05,0.4511175035051558,3.587424901550371e-05,0.06481896404812951
5.587424901550371e-05,0.5042485586148016,5.587424901550371e-05,0.7493107531087244,5.587424901550371e-05,0.4517195055317024,5.587424901550371e-05,0.06516011483562739
7.58742490155037e-05,0.5071175272918024,7.58742490155037e-05,0.7657500513439887,7.58742490155037e-05,0.4522943899288313,7.58742490155037e-05,0.06549252039708889
9.58742490155037e-05,0.5098160838172076,9.58742490155037e-05,0.781270365522421,9.58742490155037e-05,0.4528330904261804,9.58742490155037e-05,0.06580847917764665
0.0001158742490155037,0.5122993182505895,0.0001158742490155037,0.7955927925477427,0.0001158742490155037,0.4533271113951024,0.0001158742490155037,0.06610085445112053
0.0001358742490155037,0.514525680797064,0.0001358742490155037,0.8084605329802432,0.0001358742490155037,0.4537686618298037,0.0001358742490155037,0.06636344393714014
0.0001558742490155037,0.5164575144306331,0.0001558742490155037,0.8196418691224868,0.0001558742490155037,0.4541507782161595,0.0001558742490155037,0.06659151322313119
0.0001758742490155037,0.5180620633877078,0.0001758742490155037,0.8289376378445333,0.0001758742490155037,0.4544674343504918,0.0001758742490155037,0.06678037844929555
0.0001958742490155037,0.5193118565009234,0.0001958742490155037,0.8361820488294456,0.0001958742490155037,0.4547136363764008,0.0001958742490155037,0.06692685904484592
0.0002158742490155037,0.5201855286090422,0.0002158742490155037,0.841247986657774,0.0002158742490155037,0.4548855015408642,0.0002158742490155037,0.06702884055850282
0.0002358742490155037,0.5206679857890884,0.0002358742490155037,0.8440459466826765,0.0002358742490155037,0.4549803194275709,0.0002358742490155037,0.06708504413220336
0.0002558742490155037,0.5207509813925499,0.0002558742490155037,0.8445277604276187,0.0002558742490155037,0.4549965947018063,0.0002558742490155037,0.06709481525088389
0.0002758742490155037,0.5204330172259408,0.0002758742490155037,0.8426843569623977,0.0002758742490155037,0.4549340706927731,0.0002758742490155037,0.06705805640781072
0.0002958742490155037,0.5197196417406245,0.0002958742490155037,0.8385485611670696,0.0002958742490155037,0.454793733441444,0.0002958742490155037,0.0669751679506993
0.0003158742490155037,0.5186230691076026,0.0003158742490155037,0.8321920670954054,0.0003158742490155037,0.4545777961501058,0.0003158742490155037,0.06684715877227372
0.0003358742490155037,0.5171621963441487,0.0003358742490155037,0.8237273863231437,0.0003358742490155037,0.4542896642788375,0.0003358742490155037,0.06667575748691161
0.0003558742490155037,0.5153619525094186,0.0003558742490155037,0.813303763709659,0.0003558742490155037,0.4539338818393707,0.0003558742490155037,0.06646365969415091
0.0003758742490155037,0.5132530608946759,0.0003758742490155037,0.8011077249207184,0.0003758742490155037,0.45351605973331,0.0003758742490155037,0.06621495950768516
0.0003958742490155037,0.5108711592865443,0.0003958742490155037,0.7873572167437209,0.0003958742490155037,0.4530427872648626,0.0003958742490155037,0.06593440640068099
0.0004158742490155037,0.5082563604444745,0.0004158742490155037,0.7723001010538773,0.0004158742490155037,0.4525215282235754,0.0004158742490155037,0.06562750192641986
0.0004358742490155037,0.5054522080143371,0.0004358742490155037,0.7562060923162481,0.0004358742490155037,0.4519605031759145,0.0004358742490155037,0.06530106790751598
0.0004558742490155037,0.5025051091596046,0.0004558742490155037,0.7393631398681894,0.0004558742490155037,0.4513685598220215,0.0004558742490155037,0.06496261337874369
0.0004758742490155037,0.4994632070812873,0.0004758742490155037,0.7220676365357415,0.0004758742490155037,0.4507550334621973,0.0004758742490155037,0.06461997276135312
0.0004958742490155037,0.4963757704000061,0.0004958742490155037,0.7046197049168114,0.0004958742490155037,0.450129599773639,0.0004958742490155037,0.06428090616003311
0.0005158742490155038,0.493292068446091,0.0005158742490155038,0.6873130905959498,0.0005158742490155038,0.4495021222192314,0.0005158742490155038,0.06395267543309281
0.0005358742490155038,0.4902608015129021,0.0005358742490155038,0.6704310056443632,0.0005358742490155038,0.4488824964948442,0.0005358742490155038,0.06364170354723159
0.0005558742490155039,0.4873290579431108,0.0005558742490155039,0.6542374435738652,0.0005558742490155039,0.4482804944682976,0.0005558742490155039,0.06335327169166614
0.0005758742490155039,0.4845418564707395,0.0005758742490155039,0.6389751254539204,0.0005758742490155039,0.4477056100711687,0.0005758742490155039,0.06309138562061807
0.000595874249015504,0.4819412452208314,0.000595874249015504,0.6248594309547308,0.000595874249015504,0.4471669095738196,0.000595874249015504,0.06285869632519084
0.0006158742490155041,0.4795660031918746,0.0006158742490155041,0.612079159292082,0.0006158742490155041,0.4466728886048976,0.0006158742490155041,0.06265661653105999
0.0006358742490155041,0.4774509129047182,0.0006358742490155041,0.6007932802645396,0.0006358742490155041,0.4462313381701963,0.0006358742490155041,0.06248545542891463
0.0006558742490155042,0.4756266360930286,0.0006558742490155042,0.5911342020702106,0.0006558742490155042,0.4458492217838405,0.0006558742490155042,0.06234471964435474
0.0006758742490155042,0.474119158119584,0.0006758742490155042,0.5832066080266298,0.0006758742490155042,0.4455325656495083,0.0006758742490155042,0.06223335662268711
0.0006958742490155043,0.4729498199744607,0.0006958742490155043,0.5770921601291222,0.0006958742490155043,0.4452863636235992,0.0006958742490155043,0.06215010387212744
0.0007158742490155043,0.4721349030776814,0.0007158742490155043,0.5728491352607425,0.0007158742490155043,0.4451144984591359,0.0007158742490155043,0.06209370301559506
0.0007358742490155044,0.4716857768924675,0.0007358742490155044,0.5705171850982393,0.0007358742490155044,0.4450196805724291,0.0007358742490155044,0.06206317274269907
0.0007558742490155044,0.471608579030713,0.0007558742490155044,0.5701164107525184,0.0007558742490155044,0.4450034052981938,0.0007558742490155044,0.06205790559299912
0.0007758742490155045,0.4719044361998177,0.0007758742490155045,0.571650977773034,0.0007758742490155045,0.4450659293072269,0.0007758742490155045,0.0620778094498539
0.0007958742490155045,0.4725692054980324,0.0007958742490155045,0.5751066912214026,0.0007958742490155045,0.445206266558556,0.0007958742490155045,0.06212326540556531
0.0008158742490155046,0.473593748349217,0.0008158742490155046,0.5804529207944246,0.0008158742490155046,0.4454222038498942,0.0008158742490155046,0.06219512850554465
0.0008358742490155046,0.4749637292492441,0.0008358742490155046,0.5876385722591596,0.0008358742490155046,0.4457103357211625,0.0008358742490155046,0.06229454814937433
0.0008558742490155047,0.4766599567167731,0.0008558742490155047,0.5965926992726824,0.0008558742490155047,0.4460661181606293,0.0008558742490155047,0.06242282954077145
0.0008758742490155047,0.4786582678612886,0.0008758742490155047,0.6072196488555303,0.0008758742490155047,0.4464839402666901,0.0008758742490155047,0.06258113396431814
0.0008958742490155048,0.4809299765864838,0.0008958742490155048,0.6193994749567445,0.0008958742490155048,0.4469572127351374,0.0008958742490155048,0.06277023837100286
0.0009158742490155048,0.4834418882280096,0.0009158742490155048,0.6329835622461426,0.0009158742490155048,0.4474784717764246,0.0009158742490155048,0.06299019170361217
0.0009358742490155049,0.4861568983000517,0.0009358742490155049,0.6477962300920111,0.0009358742490155049,0.4480394968240856,0.0009358742490155049,0.06324008100173381
0.0009558742490155049,0.4890341734088807,0.0009558742490155049,0.6636321759711009,0.0009558742490155049,0.4486314401779786,0.0009558742490155049,0.06351778066802374
0.000975874249015505,0.4920299239595262,0.000975874249015505,0.6802604405521837,0.000975874249015505,0.4492449665378028,0.000975874249015505,0.06381986291107322
0.0009958742490155049,0.4950977601361113,0.0009958742490155049,0.6974245617504468,0.0009958742490155049,0.449870400226361,0.0009958742490155049,0.06414156237992011
0.001015874249015505,0.4981896307933774,0.001015874249015505,0.7148493923560684,0.001015874249015505,0.4504978777807687,0.001015874249015505,0.0644769128913604
0.001035874249015505,0.501256329324119,0.001035874249015505,0.7322439835559558,0.001035874249015505,0.4511175035051558,0.001035874249015505,0.06481896288374447
0.001055874249015505,0.5042485578444562,0.001055874249015505,0.7493107446738377,0.001055874249015505,0.4517195055317025,0.001055874249015505,0.06516011573151377
0.001075874249015505,0.5071175278917078,0.001075874249015505,0.7657500579100821,0.001075874249015505,0.4522943899288313,0.001075874249015505,0.06549251962666645
0.001095874249015505,0.5098160832095224,0.001095874249015505,0.7812703589725067,0.001095874249015505,0.4528330904261804,0.001095874249015505,0.0658084800052875
0.001115874249015505,0.5122993188540303,0.001115874249015505,0.7955927990669853,0.001115874249015505,0.4533271113951025,0.001115874249015505,0.06610085359779708
0.001135874249015505,0.5145256801920082,0.001135874249015505,0.8084605264708917,0.001135874249015505,0.4537686618298037,0.001135874249015505,0.06636344481082167
0.001155874249015505,0.5164575150318007,0.001155874249015505,0.8196418756035991,0.001155874249015505,0.4541507782161595,0.001155874249015505,0.06659151233140184
0.001175874249015505,0.5180620627904619,0.001175874249015505,0.8289376313991962,0.001175874249015505,0.4544674343504918,0.001175874249015505,0.06678037935625677
0.001195874249015505,0.5193118571088395,0.001195874249015505,0.8361820553348656,0.001195874249015505,0.4547136363764008,0.001195874249015505,0.06692685812949313
0.001215874249015506,0.5201855280039324,0.001215874249015506,0.8412479801961417,0.001215874249015506,0.4548855015408642,0.001215874249015506,0.06702884147858167
0.001235874249015506,0.5206679864024834,0.001235874249015506,0.8440459531936403,0.001235874249015506,0.4549803194275709,0.001235874249015506,0.06708504321540167
0.001255874249015506,0.5207509807678854,0.001255874249015506,0.8445277538560393,0.001255874249015506,0.4549965947018063,0.001255874249015506,0.06709481615772335
0.001275874249015506,0.5204330178369381,0.001275874249015506,0.8426843634660012,0.001275874249015506,0.4549340706927731,0.001275874249015506,0.06705805551456231
0.001295874249015506,0.5197196411258821,0.001295874249015506,0.8385485546289507,0.001295874249015506,0.454793733441444,0.001295874249015506,0.06697516882226183
0.001315874249015506,0.5186230697115135,0.001315874249015506,0.8321920735841449,0.001315874249015506,0.4545777961501057,0.001315874249015506,0.06684715792623323
0.001335874249015506,0.5171621957400653,0.001335874249015506,0.823727379850779,0.001335874249015506,0.4542896642788375,0.001335874249015506,0.06667575830198051
0.001355874249015506,0.5153619530976346,0.001355874249015506,0.8133037701028414,0.001355874249015506,0.4539338818393707,0.001355874249015506,0.06646365891224301
0.001375874249015506,0.5132530603003717,0.001375874249015506,0.8011077184693554,0.001375874249015506,0.4535160597333099,0.001375874249015506,0.06621496025168538
0.001395874249015506,0.5108711598923449,0.001395874249015506,0.7873572232561236,0.001395874249015506,0.4530427872648626,0.001395874249015506,0.06593440569853541
0.001415874249015506,0.5082563598536823,0.001415874249015506,0.7723000946160686,0.001415874249015506,0.4525215282235753,0.001415874249015506,0.06562750258819607
0.001435874249015506,0.5054522085876976,0.001435874249015506,0.7562060986512392,0.001435874249015506,0.4519605031759144,0.001435874249015506,0.06530106728589471
0.001455874249015506,0.5025051085908387,0.001455874249015506,0.7393631335793509,0.001455874249015506,0.4513685598220215,0.001455874249015506,0.06496261395946575
0.001475874249015506,0.4994632076470998,0.001475874249015506,0.7220676428027195,0.001475874249015506,0.4507550334621972,0.001475874249015506,0.06461997222092355
0.001495874249015506,0.4963757698466784,0.001495874249015506,0.7046196987375897,0.001495874249015506,0.450129599773639,0.001495874249015506,0.06428090666285748
0.001515874249015506,0.493292069007428,0.001515874249015506,0.6873130967951147,0.001515874249015506,0.4495021222192313,0.001515874249015506,0.06395267496805475
0.001535874249015506,0.4902608009566698,0.001535874249015506,0.670430999507708,0.001535874249015506,0.4488824964948441,0.001535874249015506,0.06364170397812656
0.001555874249015506,0.4873290584926163,0.001555874249015506,0.6542374496468039,0.001555874249015506,0.4482804944682975,0.001555874249015506,0.06335327129261022
0.001575874249015506,0.4845418559195042,0.001575874249015506,0.6389751194172196,0.001575874249015506,0.4477056100711687,0.001575874249015506,0.06309138598970902
0.001595874249015507,0.4819412457638485,0.001595874249015507,0.624859436925153,0.001595874249015507,0.4471669095738195,0.001595874249015507,0.06285869598307643
0.001615874249015507,0.4795660026397632,0.001615874249015507,0.6120791533124503,0.001615874249015507,0.4466728886048976,0.001615874249015507,0.06265661684754796
0.001635874249015507,0.4774509134405308,0.001635874249015507,0.6007932861128906,0.001635874249015507,0.4462313381701963,0.001635874249015507,0.06248545513311896
0.001655874249015507,0.4756266355815968,0.001655874249015507,0.5911341963737474,0.001655874249015507,0.4458492217838405,0.001655874249015507,0.06234471992259884
0.001675874249015507,0.4741191586461918,0.001675874249015507,0.5832066137827522,0.001675874249015507,0.4455325656495082,0.001675874249015507,0.06223335636208416
0.001695874249015507,0.4729498194636028,0.001695874249015507,0.5770921544602544,0.001695874249015507,0.4452863636235992,0.001695874249015507,0.06215010412035089
0.001715874249015507,0.4721349035844227,0.001715874249015507,0.5728491408892213,0.001715874249015507,0.4451144984591359,0.001715874249015507,0.06209370277712219
0.001735874249015507,0.4716857763843761,0.001735874249015507,0.570517179482078,0.001735874249015507,0.4450196805724291,0.001735874249015507,0.0620631729743916
0.001755874249015507,0.4716085795186769,0.001755874249015507,0.5701164162347888,0.001755874249015507,0.4450034052981938,0.001755874249015507,0.06205790536312691
0.001775874249015507,0.4719044357160059,0.001775874249015507,0.5716509723149885,0.001775874249015507,0.4450659293072269,0.001775874249015507,0.06207780967985328
0.001795874249015507,0.4725692059681037,0.001795874249015507,0.5751066966198428,0.001795874249015507,0.445206266558556,0.001795874249015507,0.06212326517167141
0.001815874249015507,0.4735937478758288,0.001815874249015507,0.5804529153546303,0.001815874249015507,0.4454222038498943,0.001815874249015507,0.06219512874537724
0.001835874249015507,0.4749637297206862,0.001835874249015507,0.5876385777102545,0.001835874249015507,0.4457103357211626,0.001835874249015507,0.06229454790013909
0.001855874249015507,0.4766599562384543,0.001855874249015507,0.5965926937799615,0.001855874249015507,0.4460661181606294,0.001855874249015507,0.06242282980186495
0.001875874249015507,0.4786582683520654,0.001875874249015507,0.6072196544391131,0.001875874249015507,0.4464839402666901,0.001875874249015507,0.06258113368960214
0.001895874249015507,0.4809299761037966,0.001895874249015507,0.6193994693852312,0.001895874249015507,0.4469572127351375,0.001895874249015507,0.06277023866335682
0.001915874249015507,0.483441888682583,0.001915874249015507,0.6329835676915162,0.001915874249015507,0.4474784717764247,0.001915874249015507,0.06299019138969107
0.001935874249015507,0.486156897860093,0.001935874249015507,0.647796224692527,0.001935874249015507,0.4480394968240857,0.001935874249015507,0.06324008133807482
0.001955874249015507,0.4890341738567177,0.001955874249015507,0.6636321814386051,0.001955874249015507,0.4486314401779786,0.001955874249015507,0.06351778030964567
0.001975874249015507,0.4920299235093047,0.001975874249015507,0.6802604350543677,0.001975874249015507,0.4492449665378029,0.001975874249015507,0.06381986329367638
0.001995874249015507,0.4950977605765595,0.001995874249015507,0.6974245672137508,0.001995874249015507,0.4498704002263611,0.001995874249015507,0.06414156197070814
0.002015874249015507,0.4981896303611638,0.002015874249015507,0.7148493869239485,0.002015874249015507,0.4504978777807688,0.002015874249015507,0.06447691332809223
0.002035874249015507,0.5012563297568159,0.002035874249015507,0.7322439889941349,0.002035874249015507,0.4511175035051559,0.002035874249015507,0.06481896241954331
0.002055874249015508,0.5042485574023682,0.002055874249015508,0.7493107391918573,0.002055874249015508,0.4517195055317025,0.002055874249015508,0.06516011622278871
0.002075874249015508,0.5071175283559649,0.002075874249015508,0.7657500635030228,0.002075874249015508,0.4522943899288314,0.002075874249015508,0.06549251910989531
0.002095874249015508,0.5098160827454025,0.002095874249015508,0.7812703533916467,0.002095874249015508,0.4528330904261805,0.002095874249015508,0.06580848054920825
0.002115874249015508,0.5122993193206264,0.002115874249015508,0.7955928046690646,0.002115874249015508,0.4533271113951025,0.002115874249015508,0.06610085302895893
0.002135874249015508,0.5145256797351407,0.002135874249015508,0.808460520927148,0.002135874249015508,0.4537686618298037,0.002135874249015508,0.06636344540194275
0.002155874249015508,0.5164575154984987,0.002155874249015508,0.8196418811805496,0.002155874249015508,0.4541507782161596,0.002155874249015508,0.06659151172240717
0.002175874249015508,0.5180620623257742,0.002175874249015508,0.8289376258570816,0.002175874249015508,0.4544674343504918,0.002175874249015508,0.066780379981972
0.002195874249015508,0.5193118575677385,0.002195874249015508,0.8361820608357581,0.002195874249015508,0.4547136363764008,0.002195874249015508,0.06692685749162339
0.002215874249015508,0.5201855275455689,0.002215874249015508,0.8412479746886841,0.002215874249015508,0.4548855015408642,0.002215874249015508,0.06702884212238949
0.002235874249015508,0.5206679868577686,0.002235874249015508,0.8440459586667732,0.002235874249015508,0.4549803194275709,0.002235874249015508,0.0670850425704498
0.002255874249015508,0.5207509803165563,0.002255874249015508,0.8445277484041483,0.002255874249015508,0.4549965947018063,0.002255874249015508,0.06709481679754592
0.002275874249015508,0.5204330182870963,0.002275874249015508,0.8426843689154412,0.002275874249015508,0.4549340706927731,0.002275874249015508,0.06705805488618174
0.002295874249015508,0.5197196406713028,0.002295874249015508,0.8385485491531967,0.002295874249015508,0.454793733441444,0.002295874249015508,0.06697516943282351
0.002315874249015508,0.5186230701588492,0.002315874249015508,0.832192079012641,0.002315874249015508,0.4545777961501057,0.002315874249015508,0.06684715733705758
0.002335874249015508,0.517162195294854,0.002335874249015508,0.823727374404676,0.002335874249015508,0.4542896642788374,0.002335874249015508,0.06667575886396941
0.002355874249015508,0.5153619535566356,0.002355874249015508,0.8133037756535151,0.002355874249015508,0.4539338818393707,0.002355874249015508,0.06646365838252986
0.002375874249015508,0.5132530598478318,0.002375874249015508,0.8011077129577626,0.002375874249015508,0.4535160597333099,0.002375874249015508,0.06621496075044657
0.002395874249015508,0.5108711603359167,0.002395874249015508,0.7873572287300015,0.002395874249015508,0.4530427872648625,0.002395874249015508,0.06593440523479591
0.002415874249015508,0.5082563594130475,0.002415874249015508,0.7723000891675318,0.002415874249015508,0.4525215282235753,0.002415874249015508,0.0656275030156486
0.002435874249015508,0.5054522090437978,0.002435874249015508,0.7562061041681829,0.002435874249015508,0.4519605031759144,0.002435874249015508,0.06530106689706246
