/out0 X,/out0 Y,/out1 X,/out1 Y,/out2 X,/out2 Y
0,0.1844346642841077,0,0.1825835859941525,0,0.07503504163186689
0.01066666666666667,0.1844346692215359,0.01066666666666667,0.1825815945747544,0.01066666666666667,0.0750350418366199
0.02133333333333334,0.1844346760736572,0.02133333333333334,0.1825815945753654,0.02133333333333334,0.07503504183662001
0.032,0.1844346855767992,0.032,0.1825815945762121,0.032,0.07503504183661998
0.04266666666666667,0.1844346987466194,0.04266666666666667,0.1825815945773855,0.04266666666666667,0.07503504183662019
0.05333333333333334,0.184434716981715,0.05333333333333334,0.1825815945790103,0.05333333333333334,0.07503504183662009
0.06400000000000002,0.1844347422041827,0.06400000000000002,0.1825815945812583,0.06400000000000002,0.07503504183662019
0.07466666666666669,0.1844347770494439,0.07466666666666669,0.1825815945843633,0.07466666666666669,0.07503504183662039
0.08533333333333336,0.1844348251212481,0.08533333333333336,0.1825815945886469,0.08533333333333336,0.07503504183662048
0.09600000000000003,0.1844348913319265,0.09600000000000003,0.1825815945945473,0.09600000000000003,0.0750350418366206
0.1066666666666667,0.1844349823530808,0.1066666666666667,0.1825815946026583,0.1066666666666667,0.07503504183662132
0.1173333333333334,0.1844351072071813,0.1173333333333334,0.1825815946137841,0.1173333333333334,0.07503504183662171
0.128,0.1844352780360441,0.128,0.1825815946290068,0.128,0.07503504183662196
0.1386666666666667,0.1844355110868404,0.1386666666666667,0.1825815946497747,0.1386666666666667,0.07503504183662306
0.1493333333333333,0.1844358279590896,0.1493333333333333,0.1825815946780126,0.1493333333333333,0.0750350418366242
0.16,0.1844362571552176,0.16,0.1825815947162598,0.16,0.0750350418366252
0.1706666666666667,0.1844368359707682,0.1706666666666667,0.1825815947678417,0.1706666666666667,0.07503504183662761
0.1813333333333333,0.1844376127460997,0.1813333333333333,0.1825815948370658,0.1813333333333333,0.07503504183663055
0.192,0.1844386494776216,0.192,0.1825815949294584,0.192,0.07503504183663418
0.2026666666666666,0.1844400247533723,0.2026666666666666,0.182581595052026,0.2026666666666666,0.07503504183663913
0.2133333333333333,0.1844418369373903,0.2133333333333333,0.1825815952135393,0.2133333333333333,0.07503504183664543
0.2239999999999999,0.1844442074864004,0.2239999999999999,0.1825815954248288,0.2239999999999999,0.07503504183665403
0.2346666666666666,0.1844472842504203,0.2346666666666666,0.1825815956990845,0.2346666666666666,0.07503504183666451
0.2453333333333333,0.1844512445985425,0.2453333333333333,0.1825815960521339,0.2453333333333333,0.07503504183667901
0.2559999999999999,0.1844562982319263,0.2559999999999999,0.1825815965027002,0.2559999999999999,0.07503504183669675
0.2666666666666666,0.1844626896013302,0.2666666666666666,0.1825815970726228,0.2666666666666666,0.07503504183671962
0.2773333333333333,0.1844706999273929,0.2773333333333333,0.1825815977870472,0.2773333333333333,0.07503504183674864
0.2879999999999999,0.1844806489092253,0.2879999999999999,0.1825815986745907,0.2879999999999999,0.07503504183678361
0.2986666666666666,0.184492896277815,0.2986666666666666,0.1825815997674986,0.2986666666666666,0.07503504183682766
0.3093333333333332,0.184507843392666,0.3093333333333332,0.1825816011018091,0.3093333333333332,0.07503504183688113
0.3199999999999999,0.1845259351043331,0.3199999999999999,0.1825816027175528,0.3199999999999999,0.07503504183694532
0.3306666666666666,0.1845476621538528,0.3306666666666666,0.1825816046590029,0.3306666666666666,0.07503504183702324
0.3413333333333332,0.1845735645191176,0.3413333333333332,0.1825816069750277,0.3413333333333332,0.07503504183711548
0.3519999999999999,0.1846042364247434,0.3519999999999999,0.1825816097196042,0.3519999999999999,0.07503504183722622
0.3626666666666665,0.1846403342773357,0.3626666666666665,0.1825816129526067,0.3626666666666665,0.07503504183735553
0.3733333333333332,0.1846825896398651,0.3733333333333332,0.1825816167410838,0.3733333333333332,0.0750350418375071
0.3839999999999998,0.1847318306177516,0.3839999999999998,0.1825816211613029,0.3839999999999998,0.07503504183768407
0.3946666666666665,0.1847890169264944,0.3946666666666665,0.1825816263021052,0.3946666666666665,0.07503504183788984
0.4053333333333332,0.1848552970086269,0.4053333333333332,0.1825816322703021,0.4053333333333332,0.07503504183812881
0.4159999999999998,0.1849321011676543,0.4159999999999998,0.1825816391994606,0.4159999999999998,0.07503504183840567
0.4266666666666665,0.1850212957539263,0.4266666666666665,0.1825816472644445,0.4266666666666665,0.07503504183872793
0.4373333333333331,0.1851254469735054,0.4373333333333331,0.182581656706315,0.4373333333333331,0.07503504183910581
0.4479999999999998,0.1852482967381457,0.4479999999999998,0.1825816678773326,0.4479999999999998,0.07503504183955301
0.4586666666666664,0.1853956874638606,0.4586666666666664,0.1825816813286403,0.4586666666666664,0.07503504184009079
0.4693333333333331,0.1855775484591129,0.4693333333333331,0.1825816979992756,0.4693333333333331,0.07503504184075874
0.4799999999999998,0.1858127676763499,0.4799999999999998,0.1825817196818218,0.4799999999999998,0.07503504184162585
0.4906666666666664,0.1861434285753163,0.4906666666666664,0.1825817503927414,0.4906666666666664,0.07503504184285396
0.5013333333333331,0.1866860869078125,0.5013333333333331,0.1825818013738666,0.5013333333333331,0.0750350418448941
0.5119999999999998,0.1878520523694131,0.5119999999999998,0.1825819135145966,0.5119999999999998,0.07503504184937689
0.5226666666666665,0.1901535141460525,0.5226666666666665,0.1825821453445874,0.5226666666666665,0.07503504185865362
0.5333333333333332,0.1934975610512241,0.5333333333333332,0.182582508516622,0.5333333333333332,0.07503504187318336
0.5439999999999999,0.1977076267106617,0.5439999999999999,0.1825830134988036,0.5439999999999999,0.07503504189338887
0.5546666666666666,0.2028968702852866,0.5546666666666666,0.1825837177112999,0.5546666666666666,0.07503504192156321
0.5653333333333334,0.2093907117953565,0.5653333333333334,0.1825847427173334,0.5653333333333334,0.07503504196257475
0.5760000000000001,0.2177485612612728,0.5760000000000001,0.1825863362098488,0.5760000000000001,0.07503504202633181
0.5866666666666668,0.2294504403521821,0.5866666666666668,0.1825891943011611,0.5866666666666668,0.07503504214069698
0.5973333333333335,0.2501303624635038,0.5973333333333335,0.1825967156413401,0.5973333333333335,0.07503504244169934
0.6080000000000002,0.3132674034840696,0.6080000000000002,0.1826560496354666,0.6080000000000002,0.07503504481840824
0.6186666666666669,1.137816883117585,0.6186666666666669,1.412611332444514,0.6186666666666669,0.09637350244165906
0.6293333333333336,1.404182895572425,0.6293333333333336,1.41261345985678,0.6293333333333336,0.09637350789914174
0.6400000000000003,1.434390443794952,0.6400000000000003,1.412613609884629,0.6400000000000003,0.09637350828400752
0.6506666666666671,1.434621596507763,0.6506666666666671,1.412613610987409,0.6506666666666671,0.09637350828683591
0.6613333333333338,1.43464347781836,0.6613333333333338,1.412613611091762,0.6613333333333338,0.09637350828710435
0.6720000000000005,1.434654933887962,0.6720000000000005,1.412613611146398,0.6720000000000005,0.09637350828724427
0.6826666666666672,1.434662525717757,0.6826666666666672,1.4126136111826,0.6826666666666672,0.09637350828733712
0.6933333333333339,1.434668169012486,0.6933333333333339,1.412613611209514,0.6933333333333339,0.09637350828740603
0.7040000000000006,1.434672561706167,0.7040000000000006,1.412613611230459,0.7040000000000006,0.09637350828745987
0.7146666666666673,1.43467609177049,0.7146666666666673,1.412613611247296,0.7146666666666673,0.09637350828750424
0.7253333333333341,1.434678993914834,0.7253333333333341,1.412613611261134,0.7253333333333341,0.09637350828753911
0.7360000000000008,1.434681421366508,0.7360000000000008,1.412613611272708,0.7360000000000008,0.09637350828756833
0.7466666666666675,1.434683479840672,0.7466666666666675,1.412613611282528,0.7466666666666675,0.09637350828759292
0.7573333333333342,1.434685245322955,0.7573333333333342,1.412613611290946,0.7573333333333342,0.09637350828761491
0.7680000000000009,1.434686774165265,0.7680000000000009,1.412613611298235,0.7680000000000009,0.09637350828763376
0.7786666666666676,1.434688109197565,0.7786666666666676,1.412613611304601,0.7786666666666676,0.09637350828764955
0.7893333333333343,1.434689283622296,0.7893333333333343,1.412613611310201,0.7893333333333343,0.09637350828766433
0.800000000000001,1.4346903236009,0.800000000000001,1.41261361131516,0.800000000000001,0.09637350828767691
0.8106666666666678,1.434691250030984,0.8106666666666678,1.412613611319577,0.8106666666666678,0.09637350828768798
0.8213333333333345,1.434692079802202,0.8213333333333345,1.412613611323533,0.8213333333333345,0.09637350828769842
0.8320000000000012,1.434692826704949,0.8320000000000012,1.412613611327098,0.8320000000000012,0.0963735082877079
0.8426666666666679,1.434693502100989,0.8426666666666679,1.412613611330318,0.8426666666666679,0.09637350828771589
0.8533333333333346,1.434694115426969,0.8533333333333346,1.412613611333243,0.8533333333333346,0.0963735082877243
0.8640000000000013,1.434694674577971,0.8640000000000013,1.412613611335909,0.8640000000000013,0.09637350828773167
0.874666666666668,1.43469518620348,0.874666666666668,1.412613611338349,0.874666666666668,0.09637350828773761
0.8853333333333347,1.434695655938336,0.8853333333333347,1.412613611340588,0.8853333333333347,0.09637350828774341
0.8960000000000015,1.43469608858477,0.8960000000000015,1.412613611342651,0.8960000000000015,0.09637350828774875
0.9066666666666682,1.434696488257149,0.9066666666666682,1.412613611344557,0.9066666666666682,0.09637350828775391
0.9173333333333349,1.43469685849802,0.9173333333333349,1.412613611346322,0.9173333333333349,0.09637350828775838
0.9280000000000016,1.434697202371843,0.9280000000000016,1.412613611347962,0.9280000000000016,0.09637350828776201
0.9386666666666683,1.434697522541181,0.9386666666666683,1.412613611349488,0.9386666666666683,0.09637350828776604
0.949333333333335,1.434697821329059,0.949333333333335,1.412613611350913,0.949333333333335,0.09637350828777018
0.9600000000000017,1.434698100770251,0.9600000000000017,1.412613611352246,0.9600000000000017,0.09637350828777268
0.9706666666666685,1.434698362653749,0.9706666666666685,1.412613611353494,0.9706666666666685,0.09637350828777641
0.9813333333333352,1.434698608558066,0.9813333333333352,1.412613611354667,0.9813333333333352,0.09637350828777876
0.9920000000000019,1.434698839880726,0.9920000000000019,1.412613611355769,0.9920000000000019,0.09637350828778239
1.002666666666669,1.434699057863035,1.002666666666669,1.412613611356808,1.002666666666669,0.09637350828778343
1.013333333333335,1.434699263610956,1.013333333333335,1.41261361135779,1.013333333333335,0.09637350828778589
1.024000000000002,1.434699458112795,1.024000000000002,1.412613611358718,1.024000000000002,0.09637350828778869
1.034666666666668,1.434699642254197,1.034666666666668,1.412613611359595,1.034666666666668,0.09637350828779101
1.045333333333335,1.434699816830981,1.045333333333335,1.412613611360427,1.045333333333335,0.09637350828779311
1.056000000000002,1.434699982560102,1.056000000000002,1.412613611361217,1.056000000000002,0.09637350828779548
1.066666666666668,1.434700140089068,1.066666666666668,1.412613611361969,1.066666666666668,0.09637350828779691
1.077333333333335,1.434700290004066,1.077333333333335,1.412613611362683,1.077333333333335,0.09637350828779882
1.088000000000001,1.434700432836992,1.088000000000001,1.412613611363365,1.088000000000001,0.09637350828780022
1.098666666666668,1.434700569071527,1.098666666666668,1.412613611364014,1.098666666666668,0.09637350828780232
1.109333333333335,1.434700699148446,1.109333333333335,1.412613611364634,1.109333333333335,0.09637350828780407
1.120000000000001,1.434700823470239,1.120000000000001,1.412613611365227,1.120000000000001,0.09637350828780525
1.130666666666668,1.434700942405144,1.130666666666668,1.412613611365793,1.130666666666668,0.09637350828780707
1.141333333333334,1.434701056290708,1.141333333333334,1.412613611366337,1.141333333333334,0.09637350828780816
1.152000000000001,1.434701165436886,1.152000000000001,1.412613611366858,1.152000000000001,0.09637350828780991
1.162666666666668,1.434701270128813,1.162666666666668,1.412613611367357,1.162666666666668,0.09637350828781074
1.173333333333334,1.434701370629209,1.173333333333334,1.412613611367836,1.173333333333334,0.09637350828781255
1.184000000000001,1.43470146718054,1.184000000000001,1.412613611368297,1.184000000000001,0.0963735082878136
1.194666666666667,1.434701560006935,1.194666666666667,1.412613611368742,1.194666666666667,0.09637350828781495
1.205333333333334,1.434701649315872,1.205333333333334,1.412613611369169,1.205333333333334,0.09637350828781556
1.216000000000001,1.434701735299693,1.216000000000001,1.412613611369578,1.216000000000001,0.09637350828781674
1.226666666666667,1.434701818136965,1.226666666666667,1.412613611369974,1.226666666666667,0.09637350828781746
1.237333333333334,1.434701897993686,1.237333333333334,1.412613611370354,1.237333333333334,0.09637350828781829
1.248,1.434701975024369,1.248,1.412613611370722,1.248,0.096373508287819
1.258666666666667,1.434702049373016,1.258666666666667,1.412613611371076,1.258666666666667,0.09637350828782043
1.269333333333334,1.434702121173998,1.269333333333334,1.412613611371418,1.269333333333334,0.09637350828782121
1.28,1.434702190552852,1.28,1.412613611371749,1.28,0.09637350828782189
1.290666666666667,1.434702257626987,1.290666666666667,1.41261361137207,1.290666666666667,0.09637350828782318
1.301333333333333,1.434702322506335,1.301333333333333,1.412613611372378,1.301333333333333,0.09637350828782398
1.312,1.434702385293938,1.312,1.412613611372677,1.312,0.09637350828782444
1.322666666666667,1.434702446086474,1.322666666666667,1.412613611372968,1.322666666666667,0.09637350828782554
1.333333333333333,1.434702504974751,1.333333333333333,1.412613611373249,1.333333333333333,0.09637350828782615
1.344,1.434702562044134,1.344,1.41261361137352,1.344,0.09637350828782665
1.354666666666666,1.43470261737496,1.354666666666666,1.412613611373784,1.354666666666666,0.09637350828782712
1.365333333333333,1.43470267104289,1.365333333333333,1.41261361137404,1.365333333333333,0.0963735082878279
1.376,1.434702723119251,1.376,1.412613611374288,1.376,0.09637350828782905
1.386666666666666,1.434702773671347,1.386666666666666,1.412613611374529,1.386666666666666,0.09637350828782949
1.397333333333333,1.43470282276273,1.397333333333333,1.412613611374764,1.397333333333333,0.09637350828782991
1.407999999999999,1.434702870453465,1.407999999999999,1.412613611374991,1.407999999999999,0.09637350828783042
1.418666666666666,1.434702916800356,1.418666666666666,1.412613611375212,1.418666666666666,0.09637350828783119
1.429333333333333,1.434702961857183,1.429333333333333,1.412613611375427,1.429333333333333,0.09637350828783191
1.439999999999999,1.434703005674876,1.439999999999999,1.412613611375636,1.439999999999999,0.0963735082878323
1.450666666666666,1.434703048301728,1.450666666666666,1.412613611375839,1.450666666666666,0.09637350828783253
1.461333333333332,1.434703089783544,1.461333333333332,1.412613611376037,1.461333333333332,0.09637350828783291
1.471999999999999,1.434703130163804,1.471999999999999,1.41261361137623,1.471999999999999,0.09637350828783335
1.482666666666666,1.434703169483814,1.482666666666666,1.412613611376417,1.482666666666666,0.09637350828783466
1.493333333333332,1.434703207782839,1.493333333333332,1.412613611376599,1.493333333333332,0.09637350828783478
1.503999999999999,1.43470324509822,1.503999999999999,1.412613611376778,1.503999999999999,0.09637350828783509
1.514666666666665,1.434703281465504,1.514666666666665,1.412613611376951,1.514666666666665,0.0963735082878356
1.525333333333332,1.434703316918534,1.525333333333332,1.41261361137712,1.525333333333332,0.09637350828783584
1.535999999999999,1.434703351489566,1.535999999999999,1.412613611377284,1.535999999999999,0.09637350828783611
1.546666666666665,1.434703385209353,1.546666666666665,1.412613611377446,1.546666666666665,0.09637350828783711
1.557333333333332,1.434703418107229,1.557333333333332,1.412613611377603,1.557333333333332,0.09637350828783738
1.567999999999999,1.434703450211195,1.567999999999999,1.412613611377756,1.567999999999999,0.09637350828783768
1.578666666666665,1.434703481547995,1.578666666666665,1.412613611377905,1.578666666666665,0.09637350828783803
1.589333333333332,1.434703512143183,1.589333333333332,1.412613611378051,1.589333333333332,0.09637350828783825
1.6,1.434703542021184,1.6,1.412613611378194,1.6,0.09637350828783844
