/Vin X,/Vin Y,/out0 X,/out0 Y,/out1 X,/out1 Y,/out2 X,/out2 Y
-60,0.45,-60,0.1292137297901633,-60,0.128102875508202,-60,0.06243222243622828
-58.6,0.45,-58.6,0.1301552782560369,-58.6,0.1290290778063329,-58.6,0.06264587569760814
-57.2,0.45,-57.2,0.131095329563614,-57.2,0.1299497973480207,-57.2,0.0628591072376357
-55.8,0.45,-55.8,0.1320338823071784,-55.8,0.1308688128924819,-55.8,0.06307191724142347
-54.40000000000001,0.45,-54.40000000000001,0.1329709354877829,-54.40000000000001,0.1317861231221414,-54.40000000000001,0.0632843068873947
-53.00000000000001,0.45,-53.00000000000001,0.133906488462754,-53.00000000000001,0.132701727109292,-53.00000000000001,0.06349627734958224
-51.60000000000001,0.45,-51.60000000000001,0.1348405409418515,-51.60000000000001,0.1336156243115687,-51.60000000000001,0.06370782979914361
-50.20000000000001,0.45,-50.20000000000001,0.135773092968987,-50.20000000000001,0.134527814552804,-50.20000000000001,0.06391896540581281
-48.80000000000001,0.45,-48.80000000000001,0.1367041449066009,-48.80000000000001,0.1354382980065442,-48.80000000000001,0.06412968533917646
-47.40000000000001,0.45,-47.40000000000001,0.1376336974202977,-47.40000000000001,0.136347075179725,-47.40000000000001,0.06433999076990826
-46.00000000000001,0.45,-46.00000000000001,0.1385617514636933,-46.00000000000001,0.1372541468965717,-46.00000000000001,0.0645498828708921
-44.60000000000002,0.45,-44.60000000000002,0.139488308263552,-44.60000000000002,0.1381595142826704,-44.60000000000002,0.0647593628182323
-43.20000000000002,0.45,-43.20000000000002,0.1404133693051146,-43.20000000000002,0.1390631787492653,-43.20000000000002,0.06496843179221773
-41.80000000000002,0.45,-41.80000000000002,0.1413369363177321,-41.80000000000002,0.1399651419777631,-41.80000000000002,0.06517709097817852
-40.40000000000002,0.45,-40.40000000000002,0.1422590112607136,-40.40000000000002,0.1408654059044444,-40.40000000000002,0.06538534156728598
-39.00000000000002,0.45,-39.00000000000002,0.1431795963094641,-39.00000000000002,0.1417639727054203,-39.00000000000002,0.06559318475727621
-37.60000000000002,0.45,-37.60000000000002,0.1440986938418906,-37.60000000000002,0.1426608447818105,-37.60000000000002,0.06580062175311695
-36.20000000000002,0.45,-36.20000000000002,0.1450163064250635,-36.20000000000002,0.1435560247451663,-36.20000000000002,0.06600765376760086
-34.80000000000003,0.45,-34.80000000000003,0.1459324368021763,-34.80000000000003,0.1444495154031459,-34.80000000000003,0.06621428202190328
-33.40000000000003,0.45,-33.40000000000003,0.1468470878797865,-33.40000000000003,0.1453413197454254,-33.40000000000003,0.06642050774606302
-32.00000000000003,0.45,-32.00000000000003,0.1477602627153461,-32.00000000000003,0.1462314409298944,-32.00000000000003,0.06662633217943649
-30.60000000000003,0.45,-30.60000000000003,0.1486719645050236,-30.60000000000003,0.147119882269098,-30.60000000000003,0.0668317565710997
-29.20000000000003,0.45,-29.20000000000003,0.1495821965718591,-29.20000000000003,0.1480066472169639,-29.20000000000003,0.06703678218019327
-27.80000000000003,0.45,-27.80000000000003,0.1504909623541828,-27.80000000000003,0.1488917393557989,-27.80000000000003,0.06724141027625154
-26.40000000000003,0.45,-26.40000000000003,0.1513982653943824,-26.40000000000003,0.1497751623835621,-26.40000000000003,0.06744564213947429
-25.00000000000004,0.45,-25.00000000000004,0.1523041093279764,-25.00000000000004,0.1506569201014423,-25.00000000000004,0.06764947906097181
-23.60000000000004,0.45,-23.60000000000004,0.1532140759723566,-23.60000000000004,0.1515425169467267,-23.60000000000004,0.06785443941936886
-22.20000000000004,0.45,-22.20000000000004,0.1541242172658288,-22.20000000000004,0.1524280590197588,-22.20000000000004,0.06805944142129151
-20.80000000000004,0.45,-20.80000000000004,0.155032968457064,-20.80000000000004,0.1533120034491189,-20.80000000000004,0.06826405876922917
-19.40000000000004,0.45,-19.40000000000004,0.1559403335469372,-19.40000000000004,0.1541943544285615,-19.40000000000004,0.06846829280757463
-18.00000000000004,0.45,-18.00000000000004,0.1568463166930478,-18.00000000000004,0.1550751163098597,-18.00000000000004,0.06867214494340199
-16.60000000000004,0.45,-16.60000000000004,0.1577509220847825,-16.60000000000004,0.1559542934775558,-16.60000000000004,0.06887561659331362
-15.20000000000004,0.45,-15.20000000000004,0.1586541556677674,-15.20000000000004,0.1568318903381129,-15.20000000000004,0.06907870918721423
-13.80000000000004,0.45,-13.80000000000004,0.1595560228452029,-13.80000000000004,0.1577079113093771,-13.80000000000004,0.06928142416827376
-12.40000000000004,0.45,-12.40000000000004,0.160456527244118,-12.40000000000004,0.1585823615930655,-12.40000000000004,0.06948376299292454
-11.00000000000004,0.45,-11.00000000000004,0.1613556726640386,-11.00000000000004,0.1594552466699225,-11.00000000000004,0.06968572713079399
-9.600000000000042,0.45,-9.600000000000042,0.16225346301034,-9.600000000000042,0.1603265705467106,-9.600000000000042,0.069887318064647
-8.200000000000042,0.45,-8.200000000000042,0.1631499022504138,-8.200000000000042,0.1611963372915563,-8.200000000000042,0.07008853729031554
-6.800000000000042,0.45,-6.800000000000042,0.1640449943831728,-6.800000000000042,0.1620645510139404,-6.800000000000042,0.07028938631659978
-5.400000000000041,0.45,-5.400000000000041,0.164938743416777,-5.400000000000041,0.1629312158319242,-5.400000000000041,0.07048986666517693
-4.000000000000041,0.45,-4.000000000000041,0.1658311533517308,-4.000000000000041,0.1637963358481384,-4.000000000000041,0.07068997987047805
-2.600000000000041,0.45,-2.600000000000041,0.1667222281675255,-2.600000000000041,0.1646599151311937,-2.600000000000041,0.07088972747956643
-1.200000000000041,0.45,-1.200000000000041,0.1676119718117774,-1.200000000000041,0.1655219577007254,-1.200000000000041,0.07108911105200511
0.1999999999999589,0.45,0.1999999999999589,0.1685003881911567,0.1999999999999589,0.1663824675148536,0.1999999999999589,0.07128813215970786
1.599999999999959,0.45,1.599999999999959,0.169387481163677,1.599999999999959,0.1672414484593589,1.599999999999959,0.07148679238678361
2.999999999999959,0.45,2.999999999999959,0.1702732545320425,2.999999999999959,0.1680989043381634,2.999999999999959,0.07168509332937924
4.399999999999959,0.45,4.399999999999959,0.1711577120377819,4.399999999999959,0.168954838864725,4.399999999999959,0.07188303659549833
5.799999999999958,0.45,5.799999999999958,0.1720408573561326,5.799999999999958,0.1698092556542399,5.799999999999958,0.07208062380483213
7.199999999999958,0.45,7.199999999999958,0.1729226940914881,7.199999999999958,0.170662158216423,7.199999999999958,0.07227785658855915
8.599999999999959,0.45,8.599999999999959,0.1738032257733615,8.599999999999959,0.1715135499488601,8.599999999999959,0.07247473658916787
9.999999999999959,0.45,9.999999999999959,0.1746824558528141,9.999999999999959,0.172363434130768,9.999999999999959,0.07267126546023935
11.39999999999996,0.45,11.39999999999996,0.1755603876992793,11.39999999999996,0.1732118139171763,11.39999999999996,0.07286744486624608
12.79999999999996,0.45,12.79999999999996,0.1764370245977845,12.79999999999996,0.1740586923334762,12.79999999999996,0.0730632764823346
14.19999999999996,0.45,14.19999999999996,0.1773123697465128,14.19999999999996,0.1749040722702841,14.19999999999996,0.07325876199410125
15.59999999999996,0.45,15.59999999999996,0.1781864262546917,15.59999999999996,0.1757479564786461,15.59999999999996,0.07345390309736952
16.99999999999996,0.45,16.99999999999996,0.1790591971407918,16.99999999999996,0.176590347565509,16.99999999999996,0.07364870149795133
18.39999999999996,0.45,18.39999999999996,0.1799306853310076,18.39999999999996,0.1774312479894793,18.39999999999996,0.07384315891140816
19.79999999999996,0.45,19.79999999999996,0.1808008936580415,19.79999999999996,0.1782706600568839,19.79999999999996,0.07403727706279874
21.19999999999996,0.45,21.19999999999996,0.1816698248601023,21.19999999999996,0.1791085859180459,21.19999999999996,0.07423105768643481
22.59999999999996,0.45,22.59999999999996,0.1825374815801989,22.59999999999996,0.1799450275638646,22.59999999999996,0.07442450252562326
23.99999999999995,0.45,23.99999999999995,0.1834038663656464,23.99999999999995,0.1807799868226269,23.99999999999995,0.0746176133323853
25.39999999999995,0.45,25.39999999999995,0.1842725186992788,25.39999999999995,0.1816169464612526,25.39999999999995,0.07481133730056891
26.79999999999995,0.45,26.79999999999995,0.1851487980829739,26.79999999999995,0.1824611797595053,26.79999999999995,0.075007101286893
28.19999999999995,0.45,28.19999999999995,0.1860238928497436,28.19999999999995,0.1833040131404343,28.19999999999995,0.07520254739615227
29.59999999999995,0.45,29.59999999999995,0.1868978051361383,29.59999999999995,0.1841454477595564,29.59999999999995,0.07539767749064653
30.99999999999995,0.45,30.99999999999995,0.1877705369713203,30.99999999999995,0.1849854845866156,30.99999999999995,0.0755924934392074
32.39999999999995,0.45,32.39999999999995,0.1886420902784172,32.39999999999995,0.1858241244040421,32.39999999999995,0.07578699711841798
33.79999999999995,0.45,33.79999999999995,0.1895124668755327,33.79999999999995,0.1866613678056375,33.79999999999995,0.07598119041225647
35.19999999999995,0.45,35.19999999999995,0.1903816684769153,35.19999999999995,0.1874972151955253,35.19999999999995,0.07617507521170419
36.59999999999994,0.45,36.59999999999994,0.19124969669431,36.59999999999994,0.1883316667874505,36.59999999999994,0.07636865341436551
37.99999999999994,0.45,37.99999999999994,0.1921165530384709,37.99999999999994,0.1891647226042338,37.99999999999994,0.07656192692407819
39.39999999999994,0.45,39.39999999999994,0.1929822389208161,39.39999999999994,0.1899963824775273,39.39999999999994,0.0767548976505243
40.79999999999994,0.45,40.79999999999994,0.1938467556552445,40.79999999999994,0.1908266460480569,40.79999999999994,0.07694756750884368
42.19999999999994,0.45,42.19999999999994,0.1947101044600631,42.19999999999994,0.1916555127668218,42.19999999999994,0.07713993841923665
43.59999999999994,0.45,43.59999999999994,0.195572286460068,43.59999999999994,0.1924829818936732,43.59999999999994,0.07733201230655955
44.99999999999994,0.45,44.99999999999994,0.1964333026886958,44.99999999999994,0.1933090525007568,44.99999999999994,0.07752379109993714
46.39999999999993,0.45,46.39999999999993,0.1972931540903412,46.39999999999993,0.1941337234726342,46.39999999999993,0.07771527673235419
47.79999999999993,0.45,47.79999999999993,0.1981518415227,47.79999999999993,0.1949569935082638,47.79999999999993,0.07790647114025329
49.19999999999993,0.45,49.19999999999993,0.1990093657592676,49.19999999999993,0.1957788611230291,49.19999999999993,0.07809737626313457
50.59999999999993,0.45,50.59999999999993,0.19986572749185,50.59999999999993,0.1965993246510933,50.59999999999993,0.0782879940431393
51.99999999999993,0.45,51.99999999999993,0.200720927333181,51.99999999999993,0.197418382248123,51.99999999999993,0.07847832642464801
53.39999999999993,0.45,53.39999999999993,0.2015749658195819,53.39999999999993,0.1982360318943248,53.39999999999993,0.07866837535386541
54.79999999999993,0.45,54.79999999999993,0.2024278434136551,54.79999999999993,0.199052271397845,54.79999999999993,0.07885814277840754
56.19999999999992,0.45,56.19999999999992,0.2032795605070301,56.19999999999992,0.1998670983985016,56.19999999999992,0.07904763064689166
57.59999999999992,0.45,57.59999999999992,0.2041301174231175,57.59999999999992,0.2006805103718968,57.59999999999992,0.07923684090850786
58.99999999999992,0.45,58.99999999999992,0.2049795144198762,58.99999999999992,0.2014925046338166,58.99999999999992,0.07942577551261494
60.39999999999992,0.45,60.39999999999992,0.2058277516925849,60.39999999999992,0.202303078345046,60.39999999999992,0.07961443640832074
61.79999999999992,0.45,61.79999999999992,0.2066748293765899,61.79999999999992,0.203112228516485,61.79999999999992,0.07980282554399569
63.19999999999992,0.45,63.19999999999992,0.2075207475500387,63.19999999999992,0.2039199520146178,63.19999999999992,0.07999094486698941
64.59999999999992,0.45,64.59999999999992,0.2083655062365742,64.59999999999992,0.2047262455673214,64.59999999999992,0.08017879632305075
65.99999999999993,0.45,65.99999999999993,0.209209105407965,65.99999999999993,0.205531105769987,65.99999999999993,0.08036638185598124
67.39999999999993,0.45,67.39999999999993,0.2100515449867015,67.39999999999993,0.2063345290919902,67.39999999999993,0.08055370340718038
68.79999999999994,0.45,68.79999999999994,0.2108928248484704,68.79999999999994,0.2071365118834421,68.79999999999994,0.08074076291520209
70.19999999999995,0.45,70.19999999999995,0.2117329448245964,70.19999999999995,0.2079370503822633,70.19999999999995,0.080927562315327
71.59999999999995,0.45,71.59999999999995,0.2125719047043273,71.59999999999995,0.2087361407215327,71.59999999999995,0.08111410353910674
72.99999999999996,0.45,72.99999999999996,0.2134097042370403,72.99999999999996,0.2095337789370944,72.99999999999996,0.08130038851391332
74.39999999999996,0.45,74.39999999999996,0.2142463431342953,74.39999999999996,0.2103299609754501,74.39999999999996,0.08148641916248206
75.79999999999997,0.45,75.79999999999997,0.2150818210717723,75.79999999999997,0.2111246827018711,75.79999999999997,0.08167219740245739
77.19999999999997,0.45,77.19999999999997,0.2159161376910176,77.19999999999997,0.2119179399087087,77.19999999999997,0.08185772514591121
78.59999999999998,0.45,78.59999999999998,0.2167492926010677,78.59999999999998,0.212709728323927,78.59999999999998,0.08204300429887251
79.99999999999999,0.45,79.99999999999999,0.2175812853798514,79.99999999999999,0.2135000436198255,79.99999999999999,0.08222803676083534
81.39999999999999,0.45,81.39999999999999,0.218412115575438,81.39999999999999,0.214288881421841,81.39999999999999,0.08241282442426089
82.8,0.45,82.8,0.2192417827070637,82.8,0.215076237317546,82.8,0.0825973691740718
84.2,0.45,84.2,0.2200702862659592,84.2,0.2158621068657207,84.2,0.08278167288712857
85.60000000000001,0.45,85.60000000000001,0.2208976257159565,85.60000000000001,0.2166464856054802,85.60000000000001,0.08296573743168618
87.00000000000001,0.45,87.00000000000001,0.2217238004938756,87.00000000000001,0.2174293690654731,87.00000000000001,0.08314956466685015
88.40000000000002,0.45,88.40000000000002,0.2225488100096691,88.40000000000002,0.2182107527730707,88.40000000000002,0.08333315644200172
89.80000000000003,0.45,89.80000000000003,0.2233726536463704,89.80000000000003,0.2189906322635766,89.80000000000003,0.08351651459620206
91.20000000000003,0.45,91.20000000000003,0.2241953307597281,91.20000000000003,0.2197690030893574,91.20000000000003,0.08369964095758554
92.60000000000004,0.45,92.60000000000004,0.2250168406776978,92.60000000000004,0.2205458608289416,92.60000000000004,0.0838825373427155
94.00000000000004,0.45,94.00000000000004,0.2258371826995973,94.00000000000004,0.2213212010959914,94.00000000000004,0.08406520555592581
95.40000000000005,0.45,95.40000000000005,0.2266563560951071,95.40000000000005,0.2220950195481647,95.40000000000005,0.08424764738861718
96.80000000000005,0.45,96.80000000000005,0.2274743601029671,96.80000000000005,0.2228673118958233,96.80000000000005,0.08442986461853427
98.20000000000006,0.45,98.20000000000006,0.2282911939294767,98.20000000000006,0.2236380739105407,98.20000000000006,0.08461185900900224
99.60000000000007,0.45,99.60000000000007,0.2291068567467551,99.60000000000007,0.224407301433427,99.60000000000007,0.08479363230811943
101.0000000000001,0.45,101.0000000000001,0.2299213476907798,101.0000000000001,0.225174990383194,101.0000000000001,0.08497518624791135
102.4000000000001,0.45,102.4000000000001,0.2307346658591929,102.4000000000001,0.2259411367639477,102.4000000000001,0.08515652254343807
103.8000000000001,0.45,103.8000000000001,0.2315468103089249,103.8000000000001,0.2267057366727351,103.8000000000001,0.0853376428918423
105.2000000000001,0.45,105.2000000000001,0.2323577800535801,105.2000000000001,0.2274687863066991,105.2000000000001,0.08551854897135992
106.6000000000001,0.45,106.6000000000001,0.2331675740606599,106.6000000000001,0.2282302819699571,106.6000000000001,0.08569924244023654
108.0000000000001,0.45,108.0000000000001,0.2339761912485512,108.0000000000001,0.2289902200800514,108.0000000000001,0.08587972493561918
109.4000000000001,0.45,109.4000000000001,0.2347836304833906,109.4000000000001,0.2297485971740278,109.4000000000001,0.08605999807233856
110.8000000000001,0.45,110.8000000000001,0.2355898905756681,110.8000000000001,0.2305054099140665,110.8000000000001,0.08624006344163515
112.2000000000001,0.45,112.2000000000001,0.2363949702767257,112.2000000000001,0.2312606550926682,112.2000000000001,0.0864199226098008
113.6000000000001,0.45,113.6000000000001,0.2371988682750481,113.6000000000001,0.2320143296373375,113.6000000000001,0.08659957711671007
115.0000000000001,0.45,115.0000000000001,0.2380015831923531,115.0000000000001,0.2327664306147378,115.0000000000001,0.08677902847427903
116.4000000000001,0.45,116.4000000000001,0.23880311357955,116.4000000000001,0.2335169552343225,116.4000000000001,0.08695827816479801
117.8000000000001,0.45,117.8000000000001,0.2396034579124532,117.8000000000001,0.2342659008513231,117.8000000000001,0.0871373276391631
119.2000000000001,0.45,119.2000000000001,0.2404026145873492,119.2000000000001,0.2350132649691708,119.2000000000001,0.0873161783149711
120.6000000000002,0.45,120.6000000000002,0.2412005819163019,120.6000000000002,0.2357590452412061,120.6000000000002,0.08749483157449912
122.0000000000002,0.45,122.0000000000002,0.2419973581222599,122.0000000000002,0.236503239471695,122.0000000000002,0.08767328876252528
123.4000000000002,0.45,123.4000000000002,0.2427929413338925,123.4000000000002,0.2372458456161141,123.4000000000002,0.08785155118401594
124.8000000000002,0.45,124.8000000000002,0.243587329580144,124.8000000000002,0.237986861780586,124.8000000000002,0.08802962010163365
126.2000000000002,0.45,126.2000000000002,0.2443805207844967,126.2000000000002,0.2387262862205478,126.2000000000002,0.08820749673307762
127.6000000000002,0.45,127.6000000000002,0.2451725127588308,127.6000000000002,0.2394641173384297,127.6000000000002,0.08838518224824579
129.0000000000002,0.45,129.0000000000002,0.2459633031969654,129.0000000000002,0.2402003536804491,129.0000000000002,0.0885626777661869
130.4000000000002,0.45,130.4000000000002,0.2467528896676881,130.4000000000002,0.2409349939323371,130.4000000000002,0.08873998435185003
131.8000000000002,0.45,131.8000000000002,0.2475412696073477,131.8000000000002,0.2416680369140239,131.8000000000002,0.08891710301260825
133.2000000000002,0.45,133.2000000000002,0.2483284403118437,133.2000000000002,0.24239948157316,133.2000000000002,0.0890940346945477
134.6000000000002,0.45,134.6000000000002,0.249114398928052,134.6000000000002,0.2431293269774011,134.6000000000002,0.0892707802785019
136.0000000000002,0.45,136.0000000000002,0.2498991424445114,136.0000000000002,0.2438575723054371,136.0000000000002,0.08944734057581312
137.4000000000002,0.45,137.4000000000002,0.2506826676814046,137.4000000000002,0.2445842168366261,137.4000000000002,0.08962371632383413
138.8000000000002,0.45,138.8000000000002,0.2514649712796317,138.8000000000002,0.2453092599391608,138.8000000000002,0.08979990818110827
140.2000000000002,0.45,140.2000000000002,0.2522460496889835,140.2000000000002,0.2460327010566976,140.2000000000002,0.08997591672226334
141.6000000000002,0.45,141.6000000000002,0.2530258991552882,141.6000000000002,0.2467545396933582,141.6000000000002,0.09015174243255442
143.0000000000002,0.45,143.0000000000002,0.2538045157064051,143.0000000000002,0.2474747753969504,143.0000000000002,0.09032738570208795
144.4000000000002,0.45,144.4000000000002,0.2545818951369906,144.4000000000002,0.2481934077403551,144.4000000000002,0.09050284681967768
145.8000000000002,0.45,145.8000000000002,0.2553580329919066,145.8000000000002,0.2489104363009595,145.8000000000002,0.09067812596633429
147.2000000000002,0.45,147.2000000000002,0.2561329245481129,147.2000000000002,0.2496258606379919,147.2000000000002,0.09085322320835831
