/net06 X,/net06 Y,/net09 X,/net09 Y,/net08 X,/net08 Y,/net07 X,/net07 Y,/vout X,/vout Y
0,0,0,0,0,0,0,0,0,0.9447172265801049
1e-10,0,1e-10,0,1e-10,0,1e-10,0,1e-10,0.9447172265800999
3e-10,0,3e-10,0,3e-10,0,3e-10,0,3e-10,0.9447172265801033
7e-10,0,7e-10,0,7e-10,0,7e-10,0,7e-10,0.9447172265801084
1.5e-09,0,1.5e-09,0,1.5e-09,0,1.5e-09,0,1.5e-09,0.9447172265801018
3.1e-09,0,3.1e-09,0,3.1e-09,0,3.1e-09,0,3.1e-09,0.944717226580108
4.675e-09,0,4.675e-09,0,4.675e-09,0,4.675e-09,0,4.675e-09,0.9447172265801025
6.25e-09,0,6.25e-09,0,6.25e-09,0,6.25e-09,0,6.25e-09,0.9447172265801076
6.676517378228523e-09,0,6.676517378228523e-09,0,6.676517378228523e-09,0,6.676517378228523e-09,2.132586891142615,6.676517378228523e-09,0.9755769489587397
7.25e-09,0,7.25e-09,0,7.25e-09,0,7.25e-09,4.999999999999999,7.25e-09,1.017805438980242
7.542085989228563e-09,0,7.542085989228563e-09,0,7.542085989228563e-09,0,7.542085989228563e-09,5,7.542085989228563e-09,1.01782164803979
7.92279225522305e-09,0,7.92279225522305e-09,0,7.92279225522305e-09,0,7.92279225522305e-09,5,7.92279225522305e-09,1.017789448544085
8.299202681311646e-09,0,8.299202681311646e-09,0,8.299202681311646e-09,0,8.299202681311646e-09,5,8.299202681311646e-09,1.017822329601711
9.052023533488839e-09,0,9.052023533488839e-09,0,9.052023533488839e-09,0,9.052023533488839e-09,5,9.052023533488839e-09,1.017787938066089
1.034900220811844e-08,0,1.034900220811844e-08,0,1.034900220811844e-08,0,1.034900220811844e-08,5,1.034900220811844e-08,1.017820445767009
1.142450110405922e-08,0,1.142450110405922e-08,0,1.142450110405922e-08,0,1.142450110405922e-08,5,1.142450110405922e-08,1.017791253231005
1.25e-08,0,1.25e-08,0,1.25e-08,0,1.25e-08,5,1.25e-08,1.017820618905931
1.275e-08,0,1.275e-08,0,1.275e-08,1.249999999999995,1.275e-08,5,1.275e-08,1.055558687429432
1.317805551446527e-08,0,1.317805551446527e-08,0,1.317805551446527e-08,3.390277572326368,1.317805551446527e-08,5,1.317805551446527e-08,1.124307045436767
1.35e-08,0,1.35e-08,0,1.35e-08,4.999999999999995,1.35e-08,5,1.35e-08,1.184587676495678
1.353125e-08,0,1.353125e-08,0,1.353125e-08,5,1.353125e-08,4.843750000000009,1.353125e-08,1.181423674964201
1.359375e-08,0,1.359375e-08,0,1.359375e-08,5,1.359375e-08,4.531250000000019,1.359375e-08,1.174888685085652
1.371874999999999e-08,0,1.371874999999999e-08,0,1.371874999999999e-08,5,1.371874999999999e-08,3.906250000000038,1.371874999999999e-08,1.162519457752729
1.388104020816829e-08,0,1.388104020816829e-08,0,1.388104020816829e-08,5,1.388104020816829e-08,3.094798959158533,1.388104020816829e-08,1.147393528431375
1.416231171335789e-08,0,1.416231171335789e-08,0,1.416231171335789e-08,5,1.416231171335789e-08,1.688441433210565,1.416231171335789e-08,1.122702319883414
1.45e-08,0,1.45e-08,0,1.45e-08,5,1.45e-08,0,1.45e-08,1.094861884044764
1.476575182002897e-08,0,1.476575182002897e-08,0,1.476575182002897e-08,5,1.476575182002897e-08,0,1.476575182002897e-08,1.094830156690737
1.506294175165763e-08,0,1.506294175165763e-08,0,1.506294175165763e-08,5,1.506294175165763e-08,0,1.506294175165763e-08,1.094830379810291
1.536119992422704e-08,0,1.536119992422704e-08,0,1.536119992422704e-08,5,1.536119992422704e-08,0,1.536119992422704e-08,1.094857401584778
1.595771626936585e-08,0,1.595771626936585e-08,0,1.595771626936585e-08,5,1.595771626936585e-08,0,1.595771626936585e-08,1.09482971611655
1.715074895964348e-08,0,1.715074895964348e-08,0,1.715074895964348e-08,5,1.715074895964348e-08,0,1.715074895964348e-08,1.094854187268594
1.875e-08,0,1.875e-08,0,1.875e-08,5,1.875e-08,0,1.875e-08,1.094832428766772
1.9e-08,0,1.9e-08,0,1.9e-08,5,1.9e-08,1.249999999999995,1.9e-08,1.115319414786633
1.9375e-08,0,1.9375e-08,0,1.9375e-08,5,1.9375e-08,3.125000000000003,1.9375e-08,1.147921602863849
1.975e-08,0,1.975e-08,0,1.975e-08,5,1.975e-08,4.999999999999995,1.975e-08,1.184672172779105
1.99375e-08,0,1.99375e-08,0,1.99375e-08,5,1.99375e-08,5,1.99375e-08,1.184715965484104
2.022952925233439e-08,0,2.022952925233439e-08,0,2.022952925233439e-08,5,2.022952925233439e-08,5,2.022952925233439e-08,1.184715224062142
2.051380463953243e-08,0,2.051380463953243e-08,0,2.051380463953243e-08,5,2.051380463953243e-08,5,2.051380463953243e-08,1.184715629979325
2.108235541392852e-08,0,2.108235541392852e-08,0,2.108235541392852e-08,5,2.108235541392852e-08,5,2.108235541392852e-08,1.184715457962323
2.221945696272071e-08,0,2.221945696272071e-08,0,2.221945696272071e-08,5,2.221945696272071e-08,5,2.221945696272071e-08,1.184715586770584
2.360972848136035e-08,0,2.360972848136035e-08,0,2.360972848136035e-08,5,2.360972848136035e-08,5,2.360972848136035e-08,1.184715477640301
2.5e-08,0,2.5e-08,0,2.5e-08,5,2.5e-08,5,2.5e-08,1.184715570054838
2.5015625e-08,0,2.5015625e-08,0.07812500000000587,2.5015625e-08,5,2.5015625e-08,5,2.5015625e-08,1.191514136371905
2.5046875e-08,0,2.5046875e-08,0.2343750000000176,2.5046875e-08,5,2.5046875e-08,5,2.5046875e-08,1.206335352055125
2.510937500000001e-08,0,2.510937500000001e-08,0.5468750000000411,2.510937500000001e-08,5,2.510937500000001e-08,5,2.510937500000001e-08,1.243746988985061
2.519776782441167e-08,0,2.519776782441167e-08,0.9888391220583325,2.519776782441167e-08,5,2.519776782441167e-08,5,2.519776782441167e-08,1.333014483840082
2.530526957744017e-08,0,2.530526957744017e-08,1.526347887200862,2.530526957744017e-08,5,2.530526957744017e-08,5,2.530526957744017e-08,1.470900926258485
2.542789595575204e-08,0,2.542789595575204e-08,2.1394797787602,2.542789595575204e-08,5,2.542789595575204e-08,5,2.542789595575204e-08,1.629011791919081
2.555873856549481e-08,0,2.555873856549481e-08,2.793692827474052,2.555873856549481e-08,5,2.555873856549481e-08,5,2.555873856549481e-08,1.798689108164649
2.582042378498035e-08,0,2.582042378498035e-08,4.102118924901759,2.582042378498035e-08,5,2.582042378498035e-08,5,2.582042378498035e-08,2.139679274315314
2.6e-08,0,2.6e-08,4.999999999999995,2.6e-08,5,2.6e-08,5,2.6e-08,2.376262278552725
2.604239866650467e-08,0,2.604239866650467e-08,5,2.604239866650467e-08,4.788006667476632,2.604239866650467e-08,4.788006667476627,2.604239866650467e-08,2.335689961675358
2.612468037898253e-08,0,2.612468037898253e-08,5,2.612468037898253e-08,4.376598105087349,2.612468037898253e-08,4.376598105087345,2.612468037898253e-08,2.254415331885853
2.619543018622383e-08,0,2.619543018622383e-08,5,2.619543018622383e-08,4.022849068880856,2.619543018622383e-08,4.022849068880851,2.619543018622383e-08,2.184667462564113
2.632370604376573e-08,0,2.632370604376573e-08,5,2.632370604376573e-08,3.381469781171334,2.632370604376573e-08,3.38146978117133,2.632370604376573e-08,2.058678609412312
2.6477893110785e-08,0,2.6477893110785e-08,5,2.6477893110785e-08,2.610534446074996,2.6477893110785e-08,2.610534446074992,2.6477893110785e-08,1.907884804975551
2.675103158246443e-08,0,2.675103158246443e-08,5,2.675103158246443e-08,1.244842087677871,2.675103158246443e-08,1.244842087677867,2.675103158246443e-08,1.642400474079927
2.7e-08,0,2.7e-08,5,2.7e-08,1.332267629550188e-14,2.7e-08,8.881784197001252e-15,2.7e-08,1.401460964835656
2.707944602854553e-08,0,2.707944602854553e-08,5,2.707944602854553e-08,0,2.707944602854553e-08,0,2.707944602854553e-08,1.400651615783772
2.721353278935189e-08,0,2.721353278935189e-08,5,2.721353278935189e-08,0,2.721353278935189e-08,0,2.721353278935189e-08,1.400639585500062
2.733657730535141e-08,0,2.733657730535141e-08,5,2.733657730535141e-08,0,2.733657730535141e-08,0,2.733657730535141e-08,1.400655541608276
2.758266633735044e-08,0,2.758266633735044e-08,5,2.758266633735044e-08,0,2.758266633735044e-08,0,2.758266633735044e-08,1.40064052122306
2.790746865325261e-08,0,2.790746865325261e-08,5,2.790746865325261e-08,0,2.790746865325261e-08,0,2.790746865325261e-08,1.400655130093502
2.849947312969808e-08,0,2.849947312969808e-08,5,2.849947312969808e-08,0,2.849947312969808e-08,0,2.849947312969808e-08,1.400640777485261
2.968348208258901e-08,0,2.968348208258901e-08,5,2.968348208258901e-08,0,2.968348208258901e-08,0,2.968348208258901e-08,1.400654979922935
3.125e-08,0,3.125e-08,5,3.125e-08,0,3.125e-08,0,3.125e-08,1.40064086951266
3.15e-08,0,3.15e-08,5,3.15e-08,0,3.15e-08,1.249999999999995,3.15e-08,1.480916505010564
3.1875e-08,0,3.1875e-08,5,3.1875e-08,0,3.1875e-08,3.125000000000003,3.1875e-08,1.601950177382318
3.225e-08,0,3.225e-08,5,3.225e-08,0,3.225e-08,5,3.225e-08,1.723204108000533
3.249191705944466e-08,0,3.249191705944466e-08,5,3.249191705944466e-08,0,3.249191705944466e-08,5,3.249191705944466e-08,1.723458163338233
3.277334971026751e-08,0,3.277334971026751e-08,5,3.277334971026751e-08,0,3.277334971026751e-08,5,3.277334971026751e-08,1.723448062271471
3.304581743963693e-08,0,3.304581743963693e-08,5,3.304581743963693e-08,0,3.304581743963693e-08,5,3.304581743963693e-08,1.723461148746387
3.359075289837576e-08,0,3.359075289837576e-08,5,3.359075289837576e-08,0,3.359075289837576e-08,5,3.359075289837576e-08,1.723447919977757
3.468062381585341e-08,0,3.468062381585341e-08,5,3.468062381585341e-08,0,3.468062381585341e-08,5,3.468062381585341e-08,1.723461183128278
3.609031190792671e-08,0,3.609031190792671e-08,5,3.609031190792671e-08,0,3.609031190792671e-08,5,3.609031190792671e-08,1.723447929327838
3.75e-08,0,3.75e-08,5,3.75e-08,0,3.75e-08,5,3.75e-08,1.723461268161487
3.774989221007567e-08,0,3.774989221007567e-08,5,3.774989221007567e-08,1.249461050378381,3.774989221007567e-08,5,3.774989221007567e-08,1.885006236243602
3.812494610503784e-08,0,3.812494610503784e-08,5,3.812494610503784e-08,3.124730525189196,3.812494610503784e-08,5,3.812494610503784e-08,2.129885109970014
3.85e-08,0,3.85e-08,5,3.85e-08,5,3.85e-08,5,3.85e-08,2.376517167882498
3.862282780323178e-08,0,3.862282780323178e-08,5,3.862282780323178e-08,5,3.862282780323178e-08,4.385860983841071,3.862282780323178e-08,2.336700167067191
3.879659818610961e-08,0,3.879659818610961e-08,5,3.879659818610961e-08,5,3.879659818610961e-08,3.517009069451924,3.879659818610961e-08,2.279437652368357
3.895607184792181e-08,0,3.895607184792181e-08,5,3.895607184792181e-08,5,3.895607184792181e-08,2.71964076039094,3.895607184792181e-08,2.227003739195879
3.92750191715462e-08,0,3.92750191715462e-08,5,3.92750191715462e-08,5,3.92750191715462e-08,1.124904142268974,3.92750191715462e-08,2.122348729700405
3.95e-08,0,3.95e-08,5,3.95e-08,5,3.95e-08,0,3.95e-08,2.048774068496153
3.968704938471046e-08,0,3.968704938471046e-08,5,3.968704938471046e-08,5,3.968704938471046e-08,0,3.968704938471046e-08,2.048531645780837
3.99090937823095e-08,0,3.99090937823095e-08,5,3.99090937823095e-08,5,3.99090937823095e-08,0,3.99090937823095e-08,2.048538362342901
4.012090170642917e-08,0,4.012090170642917e-08,5,4.012090170642917e-08,5,4.012090170642917e-08,0,4.012090170642917e-08,2.048529285295702
4.054451755466852e-08,0,4.054451755466852e-08,5,4.054451755466852e-08,5,4.054451755466852e-08,0,4.054451755466852e-08,2.048538383957757
4.139174925114721e-08,0,4.139174925114721e-08,5,4.139174925114721e-08,5,4.139174925114721e-08,0,4.139174925114721e-08,2.048529192730214
4.25708746255736e-08,0,4.25708746255736e-08,5,4.25708746255736e-08,5,4.25708746255736e-08,0,4.25708746255736e-08,2.048538449677931
4.375e-08,0,4.375e-08,5,4.375e-08,5,4.375e-08,0,4.375e-08,2.048529166945989
4.408576796319745e-08,0,4.408576796319745e-08,5,4.408576796319745e-08,5,4.408576796319745e-08,1.678839815987267,4.408576796319745e-08,2.158197490348894
4.441788398159872e-08,0,4.441788398159872e-08,5,4.441788398159872e-08,5,4.441788398159872e-08,3.339419907993622,4.441788398159872e-08,2.267307262563595
4.475e-08,0,4.475e-08,5,4.475e-08,5,4.475e-08,5,4.475e-08,2.376796315195545
4.497691104425158e-08,0,4.497691104425158e-08,5,4.497691104425158e-08,5,4.497691104425158e-08,5,4.497691104425158e-08,2.37700040530125
4.523905670590257e-08,0,4.523905670590257e-08,5,4.523905670590257e-08,5,4.523905670590257e-08,5,4.523905670590257e-08,2.376996754200813
4.549434111024987e-08,0,4.549434111024987e-08,5,4.549434111024987e-08,5,4.549434111024987e-08,5,4.549434111024987e-08,2.377001589581319
4.600490991894447e-08,0,4.600490991894447e-08,5,4.600490991894447e-08,5,4.600490991894447e-08,5,4.600490991894447e-08,2.376996846667999
4.702604753633367e-08,0,4.702604753633367e-08,5,4.702604753633367e-08,5,4.702604753633367e-08,5,4.702604753633367e-08,2.377001579922368
4.851302376816683e-08,0,4.851302376816683e-08,5,4.851302376816683e-08,5,4.851302376816683e-08,5,4.851302376816683e-08,2.376996848760828
5e-08,0,5e-08,5,5e-08,5,5e-08,5,5e-08,2.377001584882272
5.010584830967544e-08,0.5292415483772149,5.010584830967544e-08,5,5.010584830967544e-08,5,5.010584830967544e-08,5,5.010584830967544e-08,2.655574899539813
5.02776276720811e-08,1.388138360405528,5.02776276720811e-08,5,5.02776276720811e-08,5,5.02776276720811e-08,5,5.02776276720811e-08,3.112095414541373
5.051266220502999e-08,2.563311025149968,5.051266220502999e-08,5,5.051266220502999e-08,5,5.051266220502999e-08,5,5.051266220502999e-08,3.735431239303131
5.075694471724333e-08,3.784723586216665,5.075694471724333e-08,5,5.075694471724333e-08,5,5.075694471724333e-08,5,5.075694471724333e-08,4.380166216579813
5.08177085379325e-08,4.088542689662501,5.08177085379325e-08,5,5.08177085379325e-08,5,5.08177085379325e-08,5,5.08177085379325e-08,4.537396977108077
5.090885426896624e-08,4.544271344831223,5.090885426896624e-08,5,5.090885426896624e-08,5,5.090885426896624e-08,5,5.090885426896624e-08,4.769658530520807
5.099999999999999e-08,4.999999999999979,5.099999999999999e-08,5,5.099999999999999e-08,5,5.099999999999999e-08,5,5.099999999999999e-08,4.997471402650229
5.102198124235928e-08,5,5.102198124235928e-08,4.890093788203601,5.102198124235928e-08,4.89009378820361,5.102198124235928e-08,4.890093788203606,5.102198124235928e-08,4.953550746110918
5.106062895604565e-08,5,5.106062895604565e-08,4.696855219771745,5.106062895604565e-08,4.696855219771753,5.106062895604565e-08,4.696855219771749,5.106062895604565e-08,4.869582527234273
5.109592608632733e-08,5,5.109592608632733e-08,4.520369568363346,5.109592608632733e-08,4.520369568363354,5.109592608632733e-08,4.520369568363351,5.109592608632733e-08,4.791548681935236
5.11613402290628e-08,5,5.11613402290628e-08,4.193298854685973,5.11613402290628e-08,4.193298854685981,5.11613402290628e-08,4.193298854685978,5.11613402290628e-08,4.646614032902737
5.124216499225554e-08,5,5.124216499225554e-08,3.789175038722296,5.124216499225554e-08,3.789175038722304,5.124216499225554e-08,3.7891750387223,5.124216499225554e-08,4.464333882750734
5.136384468136371e-08,5,5.136384468136371e-08,3.180776593181428,5.136384468136371e-08,3.180776593181436,5.136384468136371e-08,3.180776593181432,5.136384468136371e-08,4.185565104873347
5.155518250255059e-08,5,5.155518250255059e-08,2.224087487247038,5.155518250255059e-08,2.224087487247046,5.155518250255059e-08,2.224087487247042,5.155518250255059e-08,3.742670473650233
5.172118886705034e-08,5,5.172118886705034e-08,1.394055664748292,5.172118886705034e-08,1.394055664748301,5.172118886705034e-08,1.394055664748297,5.172118886705034e-08,3.357748356546236
5.186059443352517e-08,5,5.186059443352517e-08,0.6970278323741486,5.186059443352517e-08,0.6970278323741574,5.186059443352517e-08,0.697027832374153,5.186059443352517e-08,3.033562567940673
5.2e-08,5,5.2e-08,0,5.2e-08,1.332267629550188e-14,5.2e-08,8.881784197001252e-15,5.2e-08,2.709698253832982
5.203930945177549e-08,5,5.203930945177549e-08,0,5.203930945177549e-08,0,5.203930945177549e-08,0,5.203930945177549e-08,2.708098676522273
5.210588273257384e-08,5,5.210588273257384e-08,0,5.210588273257384e-08,0,5.210588273257384e-08,0,5.210588273257384e-08,2.708158767969722
5.216716639639599e-08,5,5.216716639639599e-08,0,5.216716639639599e-08,0,5.216716639639599e-08,0,5.216716639639599e-08,2.70814203699744
5.228211165974317e-08,5,5.228211165974317e-08,0,5.228211165974317e-08,0,5.228211165974317e-08,0,5.228211165974317e-08,2.708155646774644
5.242766567926281e-08,5,5.242766567926281e-08,0,5.242766567926281e-08,0,5.242766567926281e-08,0,5.242766567926281e-08,2.708145802526429
5.267216317579712e-08,5,5.267216317579712e-08,0,5.267216317579712e-08,0,5.267216317579712e-08,0,5.267216317579712e-08,2.708154947789929
5.307358284456098e-08,5,5.307358284456098e-08,0,5.307358284456098e-08,0,5.307358284456098e-08,0,5.307358284456098e-08,2.708145976629675
5.371572466020327e-08,5,5.371572466020327e-08,0,5.371572466020327e-08,0,5.371572466020327e-08,0,5.371572466020327e-08,2.708154886000158
5.480432649934792e-08,5,5.480432649934792e-08,0,5.480432649934792e-08,0,5.480432649934792e-08,0,5.480432649934792e-08,2.708145990066423
5.625e-08,5,5.625e-08,0,5.625e-08,0,5.625e-08,0,5.625e-08,2.708154893236668
5.660503434387341e-08,5,5.660503434387341e-08,0,5.660503434387341e-08,0,5.660503434387341e-08,1.775171719367082,5.660503434387341e-08,2.825820518710306
5.69275171719367e-08,5,5.69275171719367e-08,0,5.69275171719367e-08,0,5.69275171719367e-08,3.38758585968353,5.69275171719367e-08,2.932935106729859
5.725e-08,5,5.725e-08,0,5.725e-08,0,5.725e-08,5,5.725e-08,3.040046741655004
5.747330553427651e-08,5,5.747330553427651e-08,0,5.747330553427651e-08,0,5.747330553427651e-08,5,5.747330553427651e-08,3.04026128609263
5.773099146557714e-08,5,5.773099146557714e-08,0,5.773099146557714e-08,0,5.773099146557714e-08,5,5.773099146557714e-08,3.040249338593962
5.79822097656146e-08,5,5.79822097656146e-08,0,5.79822097656146e-08,0,5.79822097656146e-08,5,5.79822097656146e-08,3.040258169077427
5.848464636568954e-08,5,5.848464636568954e-08,0,5.848464636568954e-08,0,5.848464636568954e-08,5,5.848464636568954e-08,3.04024937789576
5.948951956583942e-08,5,5.948951956583942e-08,0,5.948951956583942e-08,0,5.948951956583942e-08,5,5.948951956583942e-08,3.040258186736475
6.099475978291971e-08,5,6.099475978291971e-08,0,6.099475978291971e-08,0,6.099475978291971e-08,5,6.099475978291971e-08,3.04024936629808
6.25e-08,5,6.25e-08,0,6.25e-08,0,6.25e-08,5,6.25e-08,3.040258198995316
6.275413741814438e-08,5,6.275413741814438e-08,0,6.275413741814438e-08,1.270687090721915,6.275413741814438e-08,5,6.275413741814438e-08,3.208618891973632
6.312706870907218e-08,5,6.312706870907218e-08,0,6.312706870907218e-08,3.135343545360914,6.312706870907218e-08,5,6.312706870907218e-08,3.456088544739245
6.349999999999999e-08,5,6.349999999999999e-08,0,6.349999999999999e-08,4.999999999999979,6.349999999999999e-08,5,6.349999999999999e-08,3.703239800058964
6.362252489476484e-08,5,6.362252489476484e-08,0,6.362252489476484e-08,5,6.362252489476484e-08,4.387375526175806,6.362252489476484e-08,3.663294773636596
6.379564560207823e-08,5,6.379564560207823e-08,0,6.379564560207823e-08,5,6.379564560207823e-08,3.521771989608857,6.379564560207823e-08,3.605977985992525
6.395448116005651e-08,5,6.395448116005651e-08,0,6.395448116005651e-08,5,6.395448116005651e-08,2.72759419971742,6.395448116005651e-08,3.55327683794296
6.427215227601309e-08,5,6.427215227601309e-08,0,6.427215227601309e-08,5,6.427215227601309e-08,1.139238619934547,6.427215227601309e-08,3.448031051576894
6.45e-08,5,6.45e-08,0,6.45e-08,5,6.45e-08,0,6.45e-08,3.372386765064524
6.46877242048784e-08,5,6.46877242048784e-08,0,6.46877242048784e-08,5,6.46877242048784e-08,0,6.46877242048784e-08,3.372224202614347
6.491010434557652e-08,5,6.491010434557652e-08,0,6.491010434557652e-08,5,6.491010434557652e-08,0,6.491010434557652e-08,3.372219228062666
6.512251120888348e-08,5,6.512251120888348e-08,0,6.512251120888348e-08,5,6.512251120888348e-08,0,6.512251120888348e-08,3.372211431140133
6.554732493549739e-08,5,6.554732493549739e-08,0,6.554732493549739e-08,5,6.554732493549739e-08,0,6.554732493549739e-08,3.372219393950884
6.639695238872522e-08,5,6.639695238872522e-08,0,6.639695238872522e-08,5,6.639695238872522e-08,0,6.639695238872522e-08,3.372211316858353
6.757347619436261e-08,5,6.757347619436261e-08,0,6.757347619436261e-08,5,6.757347619436261e-08,0,6.757347619436261e-08,3.372219460795949
6.875e-08,5,6.875e-08,0,6.875e-08,5,6.875e-08,6.617444900424221e-14,6.875e-08,3.372211264142019
6.908503866791444e-08,5,6.908503866791444e-08,0,6.908503866791444e-08,5,6.908503866791444e-08,1.675193339572192,6.908503866791444e-08,3.483122147667291
