/vout X,/vout Y,/net06 X,/net06 Y,/net09 X,/net09 Y,/net08 X,/net08 Y,/net07 X,/net07 Y
0,1.885166977515121,0,0,0,0,0,0,0,0
1e-10,1.885172817408378,1e-10,0,1e-10,0,1e-10,0,1e-10,0
3e-10,1.885172819616219,3e-10,0,3e-10,0,3e-10,0,3e-10,0
7e-10,1.885172774637274,7e-10,0,7e-10,0,7e-10,0,7e-10,0
1.5e-09,1.885172871035953,1.5e-09,0,1.5e-09,0,1.5e-09,0,1.5e-09,0
3.1e-09,1.885172774644972,3.1e-09,0,3.1e-09,0,3.1e-09,0,3.1e-09,0
4.675e-09,1.885172871033799,4.675e-09,0,4.675e-09,0,4.675e-09,0,4.675e-09,0
6.25e-09,1.885172774668874,6.25e-09,0,6.25e-09,0,6.25e-09,0,6.25e-09,0
6.677781163689812e-09,1.914603575047283,6.677781163689812e-09,0,6.677781163689812e-09,0,6.677781163689812e-09,0,6.677781163689812e-09,2.138905818449061
7.25e-09,1.9541224605353,7.25e-09,0,7.25e-09,0,7.25e-09,0,7.25e-09,4.999999999999999
7.54297114417465e-09,1.954114838789899,7.54297114417465e-09,0,7.54297114417465e-09,0,7.54297114417465e-09,0,7.54297114417465e-09,5
7.924690201778215e-09,1.95413423433437,7.924690201778215e-09,0,7.924690201778215e-09,0,7.924690201778215e-09,0,7.924690201778215e-09,5
8.301862299967726e-09,1.954142375757638,8.301862299967726e-09,0,8.301862299967726e-09,0,8.301862299967726e-09,0,8.301862299967726e-09,5
9.056206496346748e-09,1.954134314253161,9.056206496346748e-09,0,9.056206496346748e-09,0,9.056206496346748e-09,0,9.056206496346748e-09,5
1.056489488910479e-08,1.954142050219537,1.056489488910479e-08,0,1.056489488910479e-08,0,1.056489488910479e-08,0,1.056489488910479e-08,5
1.25e-08,1.954134547646742,1.25e-08,0,1.25e-08,0,1.25e-08,0,1.25e-08,5
1.282269761348213e-08,1.998940092026216,1.282269761348213e-08,0,1.282269761348213e-08,0,1.282269761348213e-08,1.61348806741063,1.282269761348213e-08,5
1.316134880674106e-08,2.046351271367555,1.316134880674106e-08,0,1.316134880674106e-08,0,1.316134880674106e-08,3.306744033705312,1.316134880674106e-08,5
1.35e-08,2.094163081917104,1.35e-08,0,1.35e-08,0,1.35e-08,4.999999999999995,1.35e-08,5
1.364078226810493e-08,2.084215595843986,1.364078226810493e-08,0,1.364078226810493e-08,0,1.364078226810493e-08,5,1.364078226810493e-08,4.296088659475325
1.382727956274583e-08,2.070993461389819,1.382727956274583e-08,0,1.382727956274583e-08,0,1.382727956274583e-08,5,1.382727956274583e-08,3.363602186270854
1.400145993600233e-08,2.058740050941509,1.400145993600233e-08,0,1.400145993600233e-08,0,1.400145993600233e-08,5,1.400145993600233e-08,2.492700319988347
1.425072996800116e-08,2.041180534324699,1.425072996800116e-08,0,1.425072996800116e-08,0,1.425072996800116e-08,5,1.425072996800116e-08,1.246350159994174
1.45e-08,2.023741920502534,1.45e-08,0,1.45e-08,0,1.45e-08,5,1.45e-08,0
1.473037866367856e-08,2.02370076706686,1.473037866367856e-08,0,1.473037866367856e-08,0,1.473037866367856e-08,5,1.473037866367856e-08,0
1.498943901731682e-08,2.023720545893883,1.498943901731682e-08,0,1.498943901731682e-08,0,1.498943901731682e-08,5,1.498943901731682e-08,0
1.524963241775522e-08,2.023725014538471,1.524963241775522e-08,0,1.524963241775522e-08,0,1.524963241775522e-08,5,1.524963241775522e-08,0
1.577001921863203e-08,2.02372058934174,1.577001921863203e-08,0,1.577001921863203e-08,0,1.577001921863203e-08,5,1.577001921863203e-08,0
1.681079282038565e-08,2.023724971595242,1.681079282038565e-08,0,1.681079282038565e-08,0,1.681079282038565e-08,5,1.681079282038565e-08,0
1.875e-08,2.023720596502541,1.875e-08,0,1.875e-08,0,1.875e-08,5,1.875e-08,0
1.920654367098874e-08,2.055748972560056,1.920654367098874e-08,0,1.920654367098874e-08,0,1.920654367098874e-08,5,1.920654367098874e-08,2.282718354943691
1.975e-08,2.094179292741384,1.975e-08,0,1.975e-08,0,1.975e-08,5,1.975e-08,4.999999999999995
2.004748949372316e-08,2.094190712031585,2.004748949372316e-08,0,2.004748949372316e-08,0,2.004748949372316e-08,5,2.004748949372316e-08,5
2.042571928897741e-08,2.094179677213354,2.042571928897741e-08,0,2.042571928897741e-08,0,2.042571928897741e-08,5,2.042571928897741e-08,5
2.07962949952902e-08,2.094193863640392,2.07962949952902e-08,0,2.07962949952902e-08,0,2.07962949952902e-08,5,2.07962949952902e-08,5
2.153744640791578e-08,2.094179469256645,2.153744640791578e-08,0,2.153744640791578e-08,0,2.153744640791578e-08,5,2.153744640791578e-08,5
2.301974923316694e-08,2.094193121776232,2.301974923316694e-08,0,2.301974923316694e-08,0,2.301974923316694e-08,5,2.301974923316694e-08,5
2.5e-08,2.094180184595089,2.5e-08,0,2.5e-08,0,2.5e-08,5,2.5e-08,5
2.525e-08,2.165986828562508,2.525e-08,0,2.525e-08,1.249999999999995,2.525e-08,5,2.525e-08,5
2.567619526879693e-08,2.295315666973314,2.567619526879693e-08,0,2.567619526879693e-08,3.38097634398467,2.567619526879693e-08,5,2.567619526879693e-08,5
2.57571464515977e-08,2.322154080166436,2.57571464515977e-08,0,2.57571464515977e-08,3.785732257988493,2.57571464515977e-08,5,2.57571464515977e-08,5
2.587857322579885e-08,2.366311708652437,2.587857322579885e-08,0,2.587857322579885e-08,4.392866128994252,2.587857322579885e-08,5,2.587857322579885e-08,5
2.6e-08,2.422899200267198,2.6e-08,0,2.6e-08,4.999999999999995,2.6e-08,5,2.6e-08,5
2.601424053781795e-08,2.41703762041249,2.601424053781795e-08,0,2.601424053781795e-08,5,2.601424053781795e-08,4.928797310910252,2.601424053781795e-08,4.928797310910247
2.604272161345385e-08,2.405692721934604,2.604272161345385e-08,0,2.604272161345385e-08,5,2.604272161345385e-08,4.786391932730737,2.604272161345385e-08,4.786391932730734
2.609545938639758e-08,2.387031047244343,2.609545938639758e-08,0,2.609545938639758e-08,5,2.609545938639758e-08,4.522703068012092,2.609545938639758e-08,4.522703068012087
2.615875567594953e-08,2.367257029901935,2.615875567594953e-08,0,2.615875567594953e-08,5,2.615875567594953e-08,4.206221620252342,2.615875567594953e-08,4.206221620252338
2.625285355125634e-08,2.340841015090314,2.625285355125634e-08,0,2.625285355125634e-08,5,2.625285355125634e-08,3.735732243718294,2.625285355125634e-08,3.73573224371829
2.638501698410305e-08,2.306840008611833,2.638501698410305e-08,0,2.638501698410305e-08,5,2.638501698410305e-08,3.074915079484743,2.638501698410305e-08,3.07491507948474
2.663851347115737e-08,2.246663897884017,2.663851347115737e-08,0,2.663851347115737e-08,5,2.663851347115737e-08,1.807432644213148,2.663851347115737e-08,1.807432644213144
2.7e-08,2.166026178819952,2.7e-08,0,2.7e-08,5,2.7e-08,1.332267629550188e-14,2.7e-08,8.881784197001252e-15
2.715286138081105e-08,2.165997436275742,2.715286138081105e-08,0,2.715286138081105e-08,5,2.715286138081105e-08,0,2.715286138081105e-08,0
2.733983895965007e-08,2.166054210046032,2.733983895965007e-08,0,2.733983895965007e-08,5,2.733983895965007e-08,0,2.733983895965007e-08,0
2.752094253727295e-08,2.165959249169967,2.752094253727295e-08,0,2.752094253727295e-08,5,2.752094253727295e-08,0,2.752094253727295e-08,0
2.78831496925187e-08,2.166043185935084,2.78831496925187e-08,0,2.78831496925187e-08,5,2.78831496925187e-08,0,2.78831496925187e-08,0
2.847161953639039e-08,2.165948706315129,2.847161953639039e-08,0,2.847161953639039e-08,5,2.847161953639039e-08,0,2.847161953639039e-08,0
2.950126133978448e-08,2.166044477312246,2.950126133978448e-08,0,2.950126133978448e-08,5,2.950126133978448e-08,0,2.950126133978448e-08,0
3.125e-08,2.16594667795905,3.125e-08,0,3.125e-08,5,3.125e-08,0,3.125e-08,0
3.169027821961043e-08,2.198244583260294,3.169027821961043e-08,0,3.169027821961043e-08,5,3.169027821961043e-08,0,3.169027821961043e-08,2.20139109805218
3.225e-08,2.240227322583956,3.225e-08,0,3.225e-08,5,3.225e-08,0,3.225e-08,5
3.254417970553344e-08,2.240236996066471,3.254417970553344e-08,0,3.254417970553344e-08,5,3.254417970553344e-08,0,3.254417970553344e-08,5
3.292307178973042e-08,2.240171106561373,3.292307178973042e-08,0,3.292307178973042e-08,5,3.292307178973042e-08,0,3.292307178973042e-08,5
3.329618733560021e-08,2.240253506946547,3.329618733560021e-08,0,3.329618733560021e-08,5,3.329618733560021e-08,0,3.329618733560021e-08,5
3.404241842733978e-08,2.240161658540207,3.404241842733978e-08,0,3.404241842733978e-08,5,3.404241842733978e-08,0,3.404241842733978e-08,5
3.553488061081893e-08,2.240225806053299,3.553488061081893e-08,0,3.553488061081893e-08,5,3.553488061081893e-08,0,3.553488061081893e-08,5
3.75e-08,2.24019133195642,3.75e-08,0,3.75e-08,5,3.75e-08,0,3.75e-08,5
3.775e-08,2.278904265537492,3.775e-08,0,3.775e-08,5,3.775e-08,1.249999999999995,3.775e-08,5
3.8125e-08,2.341595141146485,3.8125e-08,0,3.8125e-08,5,3.8125e-08,3.125000000000003,3.8125e-08,5
3.85e-08,2.422868199213259,3.85e-08,0,3.85e-08,5,3.85e-08,5,3.85e-08,5
3.853697725637812e-08,2.417773661294857,3.853697725637812e-08,0,3.853697725637812e-08,5,3.853697725637812e-08,5,3.853697725637812e-08,4.8151137181094
3.861093176913435e-08,2.407824614978708,3.861093176913435e-08,0,3.861093176913435e-08,5,3.861093176913435e-08,5,3.861093176913435e-08,4.445341154328225
3.875664803806151e-08,2.390317287690071,3.875664803806151e-08,0,3.875664803806151e-08,5,3.875664803806151e-08,5,3.875664803806151e-08,3.716759809692427
3.893702680139169e-08,2.371152034307932,3.893702680139169e-08,0,3.893702680139169e-08,5,3.893702680139169e-08,5,3.893702680139169e-08,2.81486599304154
3.922347241843483e-08,2.343984446273598,3.922347241843483e-08,0,3.922347241843483e-08,5,3.922347241843483e-08,5,3.922347241843483e-08,1.382637907825841
3.95e-08,2.319772199065135,3.95e-08,0,3.95e-08,5,3.95e-08,5,3.95e-08,0
3.97396110827362e-08,2.319760357740114,3.97396110827362e-08,0,3.97396110827362e-08,5,3.97396110827362e-08,5,3.97396110827362e-08,0
4.001221996726707e-08,2.319805900828562,4.001221996726707e-08,0,4.001221996726707e-08,5,4.001221996726707e-08,5,4.001221996726707e-08,0
4.028244407314974e-08,2.319760211123046,4.028244407314974e-08,0,4.028244407314974e-08,5,4.028244407314974e-08,5,4.028244407314974e-08,0
4.082289228491507e-08,2.319802626152569,4.082289228491507e-08,0,4.082289228491507e-08,5,4.082289228491507e-08,5,4.082289228491507e-08,0
4.190378870844573e-08,2.319754312116914,4.190378870844573e-08,0,4.190378870844573e-08,5,4.190378870844573e-08,5,4.190378870844573e-08,0
4.375e-08,2.319805575240643,4.375e-08,0,4.375e-08,5,4.375e-08,5,4.375e-08,0
4.4e-08,2.341524430175397,4.4e-08,0,4.4e-08,5,4.4e-08,5,4.4e-08,1.249999999999995
4.4375e-08,2.377516956784138,4.4375e-08,0,4.4375e-08,5,4.4375e-08,5,4.4375e-08,3.125000000000003
4.475e-08,2.423048933369121,4.475e-08,0,4.475e-08,5,4.475e-08,5,4.475e-08,5
4.49375e-08,2.423120531273601,4.49375e-08,0,4.49375e-08,5,4.49375e-08,5,4.49375e-08,5
4.500940771041436e-08,2.423118997801096,4.500940771041436e-08,0,4.500940771041436e-08,5,4.500940771041436e-08,5,4.500940771041436e-08,5
4.515322313124309e-08,2.423123078648136,4.515322313124309e-08,0,4.515322313124309e-08,5,4.515322313124309e-08,5,4.515322313124309e-08,5
4.544085397290055e-08,2.42311905915145,4.544085397290055e-08,0,4.544085397290055e-08,5,4.544085397290055e-08,5,4.544085397290055e-08,5
4.601611565621546e-08,2.423122996482872,4.601611565621546e-08,0,4.601611565621546e-08,5,4.601611565621546e-08,5,4.601611565621546e-08,5
4.716663902284527e-08,2.423119083123556,4.716663902284527e-08,0,4.716663902284527e-08,5,4.716663902284527e-08,5,4.716663902284527e-08,5
4.858331951142264e-08,2.423123025430668,4.858331951142264e-08,0,4.858331951142264e-08,5,4.858331951142264e-08,5,4.858331951142264e-08,5
5e-08,2.423119104494691,5e-08,0,5e-08,5,5e-08,5,5e-08,5
5.00625e-08,2.541737854205932,5.00625e-08,0.3124999999999904,5.00625e-08,5,5.00625e-08,5,5.00625e-08,5
5.018749999999999e-08,2.871629442919462,5.018749999999999e-08,0.9374999999999711,5.018749999999999e-08,5,5.018749999999999e-08,5,5.018749999999999e-08,5
5.027369034988977e-08,3.101901617910224,5.027369034988977e-08,1.368451749448846,5.027369034988977e-08,5,5.027369034988977e-08,5,5.027369034988977e-08,5
5.036220686264661e-08,3.335842685120882,5.036220686264661e-08,1.811034313233081,5.036220686264661e-08,5,5.036220686264661e-08,5,5.036220686264661e-08,5
5.052864237992646e-08,3.778274726981541,5.052864237992646e-08,2.643211899632301,5.052864237992646e-08,5,5.052864237992646e-08,5,5.052864237992646e-08,5
5.073582973479251e-08,4.324227596464306,5.073582973479251e-08,3.679148673962573,5.073582973479251e-08,5,5.073582973479251e-08,5,5.073582973479251e-08,5
5.080187230109438e-08,4.497108474320309,5.080187230109438e-08,4.009361505471933,5.080187230109438e-08,5,5.080187230109438e-08,5,5.080187230109438e-08,5
5.090093615054719e-08,4.749090880199162,5.090093615054719e-08,4.504680752735956,5.090093615054719e-08,5,5.090093615054719e-08,5,5.090093615054719e-08,5
5.099999999999999e-08,4.997926220746998,5.099999999999999e-08,4.999999999999979,5.099999999999999e-08,5,5.099999999999999e-08,5,5.099999999999999e-08,5
5.102289165676458e-08,4.95164868253129,5.102289165676458e-08,5,5.102289165676458e-08,4.885541716177086,5.102289165676458e-08,4.885541716177094,5.102289165676458e-08,4.88554171617709
5.106352511805102e-08,4.863274078977327,5.106352511805102e-08,5,5.106352511805102e-08,4.68237440974489,5.106352511805102e-08,4.682374409744898,5.106352511805102e-08,4.682374409744893
5.110049063872047e-08,4.781547914964744,5.110049063872047e-08,5,5.110049063872047e-08,4.497546806397624,5.110049063872047e-08,4.497546806397633,5.110049063872047e-08,4.497546806397628
5.116865766779125e-08,4.630310396534248,5.116865766779125e-08,5,5.116865766779125e-08,4.15671166104372,5.116865766779125e-08,4.156711661043729,5.116865766779125e-08,4.156711661043724
5.125383908605182e-08,4.437893670909996,5.125383908605182e-08,5,5.125383908605182e-08,3.730804569740887,5.125383908605182e-08,3.730804569740895,5.125383908605182e-08,3.730804569740891
5.1383303280039e-08,4.140700199713846,5.1383303280039e-08,5,5.1383303280039e-08,3.083483599805,5.1383303280039e-08,3.083483599805008,5.1383303280039e-08,3.083483599805003
5.159792734233798e-08,3.643713140289409,5.159792734233798e-08,5,5.159792734233798e-08,2.010363288310065,5.159792734233798e-08,2.010363288310073,5.159792734233798e-08,2.010363288310069
5.176712292696278e-08,3.251212687022813,5.176712292696278e-08,5,5.176712292696278e-08,1.164385365186101,5.176712292696278e-08,1.164385365186109,5.176712292696278e-08,1.164385365186105
5.2e-08,2.709775175142827,5.2e-08,5,5.2e-08,0,5.2e-08,1.332267629550188e-14,5.2e-08,8.881784197001252e-15
5.201184449848257e-08,2.708193102701787,5.201184449848257e-08,5,5.201184449848257e-08,0,5.201184449848257e-08,0,5.201184449848257e-08,0
5.203553349544771e-08,2.708046601060138,5.203553349544771e-08,5,5.203553349544771e-08,0,5.203553349544771e-08,0,5.203553349544771e-08,0
5.2082911489378e-08,2.708237564228478,5.2082911489378e-08,5,5.2082911489378e-08,0,5.2082911489378e-08,0,5.2082911489378e-08,0
5.21344880563266e-08,2.708066951669758,5.21344880563266e-08,5,5.21344880563266e-08,0,5.21344880563266e-08,0,5.21344880563266e-08,0
5.22092832118312e-08,2.708229747438447,5.22092832118312e-08,5,5.22092832118312e-08,0,5.22092832118312e-08,0,5.22092832118312e-08,0
5.231124782124789e-08,2.708076926423862,5.231124782124789e-08,5,5.231124782124789e-08,0,5.231124782124789e-08,0,5.231124782124789e-08,0
5.251517704008127e-08,2.708226264733073,5.251517704008127e-08,5,5.251517704008127e-08,0,5.251517704008127e-08,0,5.251517704008127e-08,0
5.286656568629044e-08,2.708079196525154,5.286656568629044e-08,5,5.286656568629044e-08,0,5.286656568629044e-08,0,5.286656568629044e-08,0
5.350475796111131e-08,2.708225028289115,5.350475796111131e-08,5,5.350475796111131e-08,0,5.350475796111131e-08,0,5.350475796111131e-08,0
5.472103880824054e-08,2.708079851337925,5.472103880824054e-08,5,5.472103880824054e-08,0,5.472103880824054e-08,0,5.472103880824054e-08,0
5.625e-08,2.708224638961283,5.625e-08,5,5.625e-08,0,5.625e-08,0,5.625e-08,0
5.661106533388396e-08,2.827785970525844,5.661106533388396e-08,5,5.661106533388396e-08,0,5.661106533388396e-08,0,5.661106533388396e-08,1.805326669419833
5.693053266694198e-08,2.933903379544287,5.693053266694198e-08,5,5.693053266694198e-08,0,5.693053266694198e-08,0,5.693053266694198e-08,3.402663334709922
5.725e-08,3.04001499181478,5.725e-08,5,5.725e-08,0,5.725e-08,0,5.725e-08,5
5.747226484354602e-08,3.040254640541363,5.747226484354602e-08,5,5.747226484354602e-08,0,5.747226484354602e-08,0,5.747226484354602e-08,5
5.772862209152462e-08,3.040254629179175,5.772862209152462e-08,5,5.772862209152462e-08,0,5.772862209152462e-08,0,5.772862209152462e-08,5
5.797867212560951e-08,3.040253978729622,5.797867212560951e-08,5,5.797867212560951e-08,0,5.797867212560951e-08,0,5.797867212560951e-08,5
5.84787721937793e-08,3.0402548646565,5.84787721937793e-08,5,5.84787721937793e-08,0,5.84787721937793e-08,0,5.84787721937793e-08,5
5.947897233011887e-08,3.040253907864048,5.947897233011887e-08,5,5.947897233011887e-08,0,5.947897233011887e-08,0,5.947897233011887e-08,5
6.098948616505944e-08,3.040254895646645,6.098948616505944e-08,5,6.098948616505944e-08,0,6.098948616505944e-08,0,6.098948616505944e-08,5
6.25e-08,3.040253883704275,6.25e-08,5,6.25e-08,0,6.25e-08,0,6.25e-08,5
6.275440699240921e-08,3.208739942670908,6.275440699240921e-08,5,6.275440699240921e-08,0,6.275440699240921e-08,1.272034962046062,6.275440699240921e-08,5
6.312720349620461e-08,3.456142140580536,6.312720349620461e-08,5,6.312720349620461e-08,0,6.312720349620461e-08,3.136017481023054,6.312720349620461e-08,5
6.349999999999999e-08,3.703204446746072,6.349999999999999e-08,5,6.349999999999999e-08,0,6.349999999999999e-08,4.999999999999979,6.349999999999999e-08,5
6.362251772828808e-08,3.663315003360875,6.362251772828808e-08,5,6.362251772828808e-08,0,6.362251772828808e-08,5,6.362251772828808e-08,4.387411358559578
6.379561302121306e-08,3.60597884484771,6.379561302121306e-08,5,6.379561302121306e-08,0,6.379561302121306e-08,5,6.379561302121306e-08,3.521934893934668
6.395444678892628e-08,3.553339311154936,6.395444678892628e-08,5,6.395444678892628e-08,0,6.395444678892628e-08,5,6.395444678892628e-08,2.727766055368569
6.427211432435272e-08,3.44803401101513,6.427211432435272e-08,5,6.427211432435272e-08,0,6.427211432435272e-08,5,6.427211432435272e-08,1.13942837823637
6.45e-08,3.372442701832272,6.45e-08,5,6.45e-08,0,6.45e-08,5,6.45e-08,0
6.468778147976827e-08,3.372216122192727,6.468778147976827e-08,5,6.468778147976827e-08,0,6.468778147976827e-08,5,6.468778147976827e-08,0
6.491026772817773e-08,3.372215835507166,6.491026772817773e-08,5,6.491026772817773e-08,0,6.491026772817773e-08,5,6.491026772817773e-08,0
6.512278927629449e-08,3.372216878551304,6.512278927629449e-08,5,6.512278927629449e-08,0,6.512278927629449e-08,5,6.512278927629449e-08,0
6.554783237252803e-08,3.372215629097248,6.554783237252803e-08,5,6.554783237252803e-08,0,6.554783237252803e-08,5,6.554783237252803e-08,0
6.639791856499509e-08,3.372216931303801,6.639791856499509e-08,5,6.639791856499509e-08,0,6.639791856499509e-08,5,6.639791856499509e-08,0
6.757395928249755e-08,3.372215601324423,6.757395928249755e-08,5,6.757395928249755e-08,0,6.757395928249755e-08,5,6.757395928249755e-08,0
6.875e-08,3.372216951870434,6.875e-08,5,6.875e-08,0,6.875e-08,5,6.875e-08,6.617444900424221e-14
6.908500701295052e-08,3.483091383524941,6.908500701295052e-08,5,6.908500701295052e-08,0,6.908500701295052e-08,5,6.908500701295052e-08,1.6750350647526
6.941750350647527e-08,3.5933072919343,6.941750350647527e-08,5,6.941750350647527e-08,0,6.941750350647527e-08,5,6.941750350647527e-08,3.337517532376388
6.975e-08,3.703427311421168,6.975e-08,5,6.975e-08,0,6.975e-08,5,6.975e-08,5
6.997686327783201e-08,3.70366165092267,6.997686327783201e-08,5,6.997686327783201e-08,0,6.997686327783201e-08,5,6.997686327783201e-08,5
7.023911550652695e-08,3.703679355553928,7.023911550652695e-08,5,7.023911550652695e-08,0,7.023911550652695e-08,5,7.023911550652695e-08,5
7.04943806217031e-08,3.703642974518841,7.04943806217031e-08,5,7.04943806217031e-08,0,7.04943806217031e-08,5,7.04943806217031e-08,5
7.100491085205539e-08,3.703680504672558,7.100491085205539e-08,5,7.100491085205539e-08,0,7.100491085205539e-08,5,7.100491085205539e-08,5
7.202597131275997e-08,3.703642445878463,7.202597131275997e-08,5,7.202597131275997e-08,0,7.202597131275997e-08,5,7.202597131275997e-08,5
7.351298565637998e-08,3.703680783707203,7.351298565637998e-08,5,7.351298565637998e-08,0,7.351298565637998e-08,5,7.351298565637998e-08,5
