/net039 X,/net039 Y,/net010 X,/net010 Y,/net09 X,/net09 Y,/net02 X,/net02 Y,/net08 X,/net08 Y
0,6.795643765969235e-05,0,6.795643765964396e-05,0,6.79564376594555e-05,0,0,0,6.094256728571976e-05
1.5e-11,6.795643765973876e-05,1.5e-11,6.795643765971076e-05,1.5e-11,6.795643765975887e-05,1.5e-11,0,1.5e-11,6.094256728565709e-05
4.5e-11,6.795643765964915e-05,4.5e-11,6.795643765964926e-05,4.5e-11,6.79564376597551e-05,4.5e-11,0,4.5e-11,6.094256728543901e-05
1.05e-10,6.795643765971425e-05,1.05e-10,6.795643765701103e-05,1.05e-10,6.795643766007093e-05,1.05e-10,0,1.05e-10,6.09425672858348e-05
2.25e-10,6.795643766004816e-05,2.25e-10,6.795643766244669e-05,2.25e-10,6.795643765967041e-05,2.25e-10,0,2.25e-10,6.094256728549388e-05
4.65e-10,6.795643765965878e-05,4.65e-10,6.795643765719443e-05,4.65e-10,6.795643766018294e-05,4.65e-10,0,4.65e-10,6.094256728574582e-05
7.649999999999999e-10,6.795643766007132e-05,7.649999999999999e-10,6.795643766581131e-05,7.649999999999999e-10,6.795643765960738e-05,7.649999999999999e-10,0,7.649999999999999e-10,6.094256728557798e-05
1.065e-09,6.795643765972001e-05,1.065e-09,6.795643765377163e-05,1.065e-09,6.795643765997862e-05,1.065e-09,0,1.065e-09,6.094256728547952e-05
1.365e-09,6.795643765993092e-05,1.365e-09,6.795643766580632e-05,1.365e-09,6.795643765980946e-05,1.365e-09,0,1.365e-09,6.094256728579978e-05
1.665e-09,6.795643765960864e-05,1.665e-09,6.795643765070527e-05,1.665e-09,6.795643766315658e-05,1.665e-09,0,1.665e-09,6.094256728558579e-05
1.8325e-09,6.795643765685066e-05,1.8325e-09,6.795643766867857e-05,1.8325e-09,6.79564376538282e-05,1.8325e-09,0,1.8325e-09,6.094256728569983e-05
2e-09,6.795643766262566e-05,2e-09,6.795643765110124e-05,2e-09,6.795643766532111e-05,2e-09,0,2e-09,6.094256728529139e-05
2.120144127384571e-09,6.795643765973399e-05,2.120144127384571e-09,6.795643765974972e-05,2.120144127384571e-09,6.795643765988094e-05,2.120144127384571e-09,0.06674673743587282,2.120144127384571e-09,6.094256728657874e-05
2.261585129605973e-09,6.795643765966523e-05,2.261585129605973e-09,6.795643765668818e-05,2.261585129605973e-09,6.795643765919146e-05,2.261585129605973e-09,0.1453250720033182,2.261585129605973e-09,6.094256725742227e-05
2.400273538304042e-09,6.795643765679283e-05,2.400273538304042e-09,6.795643766278667e-05,2.400273538304042e-09,6.795643766360925e-05,2.400273538304042e-09,0.2223741879466899,2.400273538304042e-09,6.094256740809124e-05
2.455693803733487e-09,6.795643766245695e-05,2.455693803733487e-09,6.795643765707917e-05,2.455693803733487e-09,6.795643765857407e-05,2.455693803733487e-09,0.2531632242963818,2.455693803733487e-09,6.094256661151248e-05
2.48340393644821e-09,6.795643766063917e-05,2.48340393644821e-09,6.795643766187828e-05,2.48340393644821e-09,6.795643766726969e-05,2.48340393644821e-09,0.2685577424712278,2.48340393644821e-09,6.094256951034067e-05
2.538824201877656e-09,6.795643765622609e-05,2.538824201877656e-09,6.795643765778973e-05,2.538824201877656e-09,6.795643764758173e-05,2.538824201877656e-09,0.2993467788209199,2.538824201877656e-09,6.094256447044586e-05
2.561274479313976e-09,6.795643766530032e-05,2.561274479313976e-09,6.795643766154548e-05,2.561274479313976e-09,6.795643768579635e-05,2.561274479313976e-09,0.3118191551744313,2.561274479313976e-09,6.094256995256069e-05
2.572499618032136e-09,6.795643765603469e-05,2.572499618032136e-09,6.795643765596805e-05,2.572499618032136e-09,6.795643763990206e-05,2.572499618032136e-09,0.3180553433511868,2.572499618032136e-09,6.094256781584586e-05
2.594949895468456e-09,6.795643766337335e-05,2.594949895468456e-09,6.79564376604293e-05,2.594949895468456e-09,6.795643766353958e-05,2.594949895468456e-09,0.330527719704698,2.594949895468456e-09,6.094256537608179e-05
2.620191837972068e-09,6.795643765915813e-05,2.620191837972068e-09,6.795643765893414e-05,2.620191837972068e-09,6.795643767007185e-05,2.620191837972068e-09,0.3445510210955935,2.620191837972068e-09,6.094256961919802e-05
2.641152210955155e-09,6.795643766030611e-05,2.641152210955155e-09,6.795643766347723e-05,2.641152210955155e-09,6.795643763830592e-05,2.641152210955155e-09,0.356195672752864,2.641152210955155e-09,6.094256506560489e-05
2.661831460741584e-09,6.795643765942129e-05,2.661831460741584e-09,6.7956437657003e-05,2.661831460741584e-09,6.795643768464882e-05,2.661831460741584e-09,0.3676841448564355,2.661831460741584e-09,6.094256908585348e-05
2.683150840006407e-09,6.795643766042084e-05,2.683150840006407e-09,6.79564376593142e-05,2.683150840006407e-09,6.795643763505931e-05,2.683150840006407e-09,0.3795282444480037,2.683150840006407e-09,6.094256594201854e-05
2.702706616570642e-09,6.79564376592806e-05,2.702706616570642e-09,6.795643766014362e-05,2.702706616570642e-09,6.795643768195312e-05,2.702706616570642e-09,0.3903925647614677,2.702706616570642e-09,6.094256819148665e-05
2.725850249366061e-09,6.795643766042087e-05,2.725850249366061e-09,6.795643766233016e-05,2.725850249366061e-09,6.795643763779918e-05,2.725850249366061e-09,0.4032501385367004,2.725850249366061e-09,6.094256667900952e-05
2.754017301166135e-09,6.795643765651003e-05,2.754017301166135e-09,6.795643765741753e-05,2.754017301166135e-09,6.795643767935443e-05,2.754017301166135e-09,0.4188985006478526,2.754017301166135e-09,6.094256769737202e-05
2.784554590449761e-09,6.795643766243917e-05,2.784554590449761e-09,6.795643765911968e-05,2.784554590449761e-09,6.795643764551858e-05,2.784554590449761e-09,0.4358636613609783,2.784554590449761e-09,6.094256701703252e-05
2.813120231789305e-09,6.795643765740515e-05,2.813120231789305e-09,6.795643766025358e-05,2.813120231789305e-09,6.795643766941994e-05,2.813120231789305e-09,0.4517334621051696,2.813120231789305e-09,6.094256743374273e-05
2.842920733339438e-09,6.795643766178577e-05,2.842920733339438e-09,6.795643765941981e-05,2.842920733339438e-09,6.795643765151079e-05,2.842920733339438e-09,0.4682892962996878,2.842920733339438e-09,6.094256722685183e-05
2.867243662813272e-09,6.795643765778679e-05,2.867243662813272e-09,6.795643765733042e-05,2.867243662813272e-09,6.795643766321703e-05,2.867243662813272e-09,0.4818020348962623,2.867243662813272e-09,6.094256726169487e-05
2.895154013063706e-09,6.795643766193959e-05,2.895154013063706e-09,6.795643766204934e-05,2.895154013063706e-09,6.795643765714265e-05,2.895154013063706e-09,0.4973077850353924,2.895154013063706e-09,6.094256736131355e-05
2.921094972943268e-09,6.795643765779802e-05,2.921094972943268e-09,6.795643765777142e-05,2.921094972943268e-09,6.795643766197517e-05,2.921094972943268e-09,0.5117194294129265,2.921094972943268e-09,6.094256716976168e-05
2.972976892702391e-09,6.795643765890137e-05,2.972976892702391e-09,6.795643765887585e-05,2.972976892702391e-09,6.795643766080283e-05,2.972976892702391e-09,0.5405427181679947,2.972976892702391e-09,6.094256741714256e-05
3.015534443808624e-09,6.795643766361257e-05,3.015534443808624e-09,6.795643765766611e-05,3.015534443808624e-09,6.795643765887268e-05,3.015534443808624e-09,0.5641858021159024,3.015534443808624e-09,6.094256713869952e-05
3.05895295251284e-09,6.795643765634457e-05,3.05895295251284e-09,6.795643766193161e-05,3.05895295251284e-09,6.795643765826444e-05,3.05895295251284e-09,0.5883071958404666,3.05895295251284e-09,6.094256744508991e-05
3.070072085180284e-09,6.795643766433008e-05,3.070072085180284e-09,6.795643765871435e-05,3.070072085180284e-09,6.795643766007684e-05,3.070072085180284e-09,0.5944844917668243,3.070072085180284e-09,6.094256709814986e-05
3.092310350515171e-09,6.795643765848313e-05,3.092310350515171e-09,6.79564376613529e-05,3.092310350515171e-09,6.795643765980789e-05,3.092310350515171e-09,0.6068390836195393,3.092310350515171e-09,6.094256747657531e-05
3.09963827990802e-09,6.795643766037296e-05,3.09963827990802e-09,6.795643765918812e-05,3.09963827990802e-09,6.79564376589275e-05,3.09963827990802e-09,0.6109101555044556,3.09963827990802e-09,6.094256710133607e-05
3.114294138693719e-09,6.79564376591853e-05,3.114294138693719e-09,6.79564376607569e-05,3.114294138693719e-09,6.795643766102001e-05,3.114294138693719e-09,0.6190522992742882,3.114294138693719e-09,6.094256745872502e-05
3.118522099332026e-09,6.795643765972955e-05,3.118522099332026e-09,6.795643765964163e-05,3.118522099332026e-09,6.795643765623144e-05,3.118522099332026e-09,0.6214011662955702,3.118522099332026e-09,6.094256709216308e-05
3.126978020608642e-09,6.795643765971466e-05,3.126978020608642e-09,6.795643765851751e-05,3.126978020608642e-09,6.795643766235435e-05,3.126978020608642e-09,0.6260989003381342,3.126978020608642e-09,6.094256740115017e-05
3.135236705322844e-09,6.795643765982269e-05,3.135236705322844e-09,6.795643766056812e-05,3.135236705322844e-09,6.795643766739513e-05,3.135236705322844e-09,0.6306870585126911,3.135236705322844e-09,6.094256741140257e-05
3.143153413132333e-09,6.795643765994958e-05,3.143153413132333e-09,6.795643765863486e-05,3.143153413132333e-09,6.795643765646201e-05,3.143153413132333e-09,0.6350852295179626,3.143153413132333e-09,6.094256752930853e-05
3.152074375164003e-09,6.795643765943167e-05,3.152074375164003e-09,6.79564376603883e-05,3.152074375164003e-09,6.795643765416004e-05,3.152074375164003e-09,0.6400413195355574,3.152074375164003e-09,6.094256722117563e-05
3.155201714466106e-09,6.795643766343965e-05,3.155201714466106e-09,6.79564376603126e-05,3.155201714466106e-09,6.79564377934114e-05,3.155201714466106e-09,0.6417787302589478,3.155201714466106e-09,6.094256984071435e-05
3.161456393070311e-09,6.795643765077785e-05,3.161456393070311e-09,6.795643766066171e-05,3.161456393070311e-09,6.795643743357202e-05,3.161456393070311e-09,0.6452535517057285,3.161456393070311e-09,6.094256436040025e-05
3.169463697505519e-09,6.795643760834202e-05,3.169463697505519e-09,6.79564376553484e-05,3.169463697505519e-09,6.795643566939246e-05,3.169463697505519e-09,0.6497020541697327,3.169463697505519e-09,6.094250469945891e-05
3.17807235801327e-09,6.795643774137782e-05,3.17807235801327e-09,6.795643766484e-05,3.17807235801327e-09,6.795643878175264e-05,3.17807235801327e-09,0.6544846433407058,3.17807235801327e-09,6.094252395964018e-05
3.186324396059137e-09,6.795643914611926e-05,3.186324396059137e-09,6.795643767380521e-05,3.186324396059137e-09,6.795649369911055e-05,3.186324396059137e-09,0.6590691089217428,3.186324396059137e-09,6.094419766562825e-05
3.197057002090866e-09,6.79564361393632e-05,3.197057002090866e-09,6.795643761266548e-05,3.197057002090866e-09,6.795637342254396e-05,3.197057002090866e-09,0.6650316678282586,3.197057002090866e-09,6.094267697956689e-05
3.204665144153831e-09,6.79564216028266e-05,3.204665144153831e-09,6.795643728744054e-05,3.204665144153831e-09,6.795421087452907e-05,3.204665144153831e-09,0.6692584134187948,3.204665144153831e-09,6.088053481681549e-05
3.212316916255931e-09,6.795642598825243e-05,3.212316916255931e-09,6.795643874533235e-05,3.212316916255931e-09,6.795712705876723e-05,3.212316916255931e-09,0.6735093979199613,3.212316916255931e-09,6.088579402724121e-05
3.219485189198268e-09,6.795651815945137e-05,3.219485189198268e-09,6.795643870029924e-05,3.219485189198268e-09,6.796698767687394e-05,3.219485189198268e-09,0.6774917717768155,3.219485189198268e-09,6.117088785932576e-05
3.225448914070186e-09,6.795650960819745e-05,3.225448914070186e-09,6.795643176806897e-05,3.225448914070186e-09,6.794933564161794e-05,3.225448914070186e-09,0.6808049522612143,3.225448914070186e-09,6.102226678423399e-05
3.233703839191983e-09,6.795637203478664e-05,3.233703839191983e-09,6.795644286187376e-05,3.233703839191983e-09,6.795096144649307e-05,3.233703839191983e-09,0.6853910217733236,3.233703839191983e-09,6.080842827638518e-05
3.24167718536776e-09,6.795643762710044e-05,3.24167718536776e-09,6.795643725561389e-05,3.24167718536776e-09,6.796083699488999e-05,3.24167718536776e-09,0.6898206585376442,3.24167718536776e-09,6.091454014344677e-05
3.248880944037323e-09,6.795637025841007e-05,3.248880944037323e-09,6.795643502192933e-05,3.248880944037323e-09,6.795651966090927e-05,3.248880944037323e-09,0.6938227466874016,3.248880944037323e-09,6.092943722092019e-05
3.256097615012773e-09,6.795615828611653e-05,3.256097615012773e-09,6.795643852978624e-05,3.256097615012773e-09,6.79571703024527e-05,3.256097615012773e-09,0.6978320083404292,3.256097615012773e-09,6.094669657475143e-05
3.262547468769166e-09,6.795601221532537e-05,3.262547468769166e-09,6.795643561277302e-05,3.262547468769166e-09,6.795320100078753e-05,3.262547468769166e-09,0.7014152604273143,3.262547468769166e-09,6.084565954694239e-05
3.268229514119008e-09,6.795176604270888e-05,3.268229514119008e-09,6.795641799944217e-05,3.268229514119008e-09,6.795156890969748e-05,3.268229514119008e-09,0.7045719522883377,3.268229514119008e-09,6.061816791288685e-05
3.27239483221699e-09,6.792741104100878e-05,3.27239483221699e-09,6.795629121089693e-05,3.27239483221699e-09,6.795293088255904e-05,3.27239483221699e-09,0.7068860178983277,3.27239483221699e-09,5.997346116083799e-05
3.276425169292085e-09,6.790874759950372e-05,3.276425169292085e-09,6.795634164366187e-05,3.276425169292085e-09,6.796387785924847e-05,3.276425169292085e-09,0.7091250940511581,3.276425169292085e-09,5.923617588546476e-05
3.28009003364241e-09,6.806780032624746e-05,3.28009003364241e-09,6.795752742565698e-05,3.28009003364241e-09,6.79719824202367e-05,3.28009003364241e-09,0.7111611298013391,3.28009003364241e-09,6.180498187339195e-05
3.283575352545406e-09,6.888010546828202e-05,3.283575352545406e-09,6.79618830121919e-05,3.283575352545406e-09,6.797494435729555e-05,3.283575352545406e-09,0.7130974180807809,3.283575352545406e-09,7.886001539101317e-05
3.286969045917218e-09,6.962039753079013e-05,3.286969045917218e-09,6.796109478331295e-05,3.286969045917218e-09,6.797020503345617e-05,3.286969045917218e-09,0.7149828032873431,3.286969045917218e-09,0.0001044508180607861
3.289566141276673e-09,6.899294878702031e-05,3.289566141276673e-09,6.795074995990659e-05,3.289566141276673e-09,6.796986728521524e-05,3.289566141276673e-09,0.7164256340425958,3.289566141276673e-09,0.0001021827803821979
3.291979649802087e-09,6.779765525541837e-05,3.291979649802087e-09,6.794438710452327e-05,3.291979649802087e-09,6.796090079179624e-05,3.291979649802087e-09,0.7177664721122707,3.291979649802087e-09,3.270522172955469e-05
3.294896760271485e-09,6.663235744265458e-05,3.294896760271485e-09,6.794819727359481e-05,3.294896760271485e-09,6.79328399275359e-05,3.294896760271485e-09,0.7193870890397139,3.294896760271485e-09,-0.0002635322548486254
3.298197194913241e-09,6.100894956278622e-05,3.298197194913241e-09,6.79617315650274e-05,3.298197194913241e-09,6.791759640295662e-05,3.298197194913241e-09,0.7212206638406893,3.298197194913241e-09,-0.0009385041275387674
3.302169201559776e-09,4.979938626412226e-05,3.302169201559776e-09,6.797830689109997e-05,3.302169201559776e-09,6.794704947474748e-05,3.302169201559776e-09,0.7234273341998757,3.302169201559776e-09,-0.001207733078852436
3.304962673991954e-09,4.928142908735323e-05,3.304962673991954e-09,6.796212060934912e-05,3.304962673991954e-09,6.795576900377419e-05,3.304962673991954e-09,0.7249792633288631,3.304962673991954e-09,-0.0009151078459482702
3.30766610954731e-09,5.964289812479659e-05,3.30766610954731e-09,6.794717546088319e-05,3.30766610954731e-09,6.794999029858884e-05,3.30766610954731e-09,0.7264811719707277,3.30766610954731e-09,-0.0005339618521505233
3.310466923465057e-09,8.274111793361659e-05,3.310466923465057e-09,6.795514577413928e-05,3.310466923465057e-09,6.794848076751359e-05,3.310466923465057e-09,0.7280371797028095,3.310466923465057e-09,-0.0002451433627731841
3.31307561749392e-09,0.0001225318685466964,3.31307561749392e-09,6.797569118433738e-05,3.31307561749392e-09,6.794766988092394e-05,3.31307561749392e-09,0.7294864541632888,3.31307561749392e-09,-0.0003158575281121957
3.315488550488152e-09,0.0001896964790581166,3.315488550488152e-09,6.799180615921922e-05,3.315488550488152e-09,6.795319431925629e-05,3.315488550488152e-09,0.7308269724934178,3.315488550488152e-09,-0.0007882500170433001
3.31823520325293e-09,0.0003533989158251576,3.31823520325293e-09,6.797693379404857e-05,3.31823520325293e-09,6.796258016669726e-05,3.31823520325293e-09,0.7323528906960719,3.31823520325293e-09,-0.001704605431868658
3.321381094173137e-09,0.0004062606468633879,3.321381094173137e-09,6.793468160647409e-05,3.321381094173137e-09,6.797703986906014e-05,3.321381094173137e-09,0.7341006078739647,3.321381094173137e-09,-0.00274386733997826
3.324145305439198e-09,-0.00279562305642571,3.324145305439198e-09,6.789808096394209e-05,3.324145305439198e-09,6.797926570663053e-05,3.324145305439198e-09,0.7356362807995546,3.324145305439198e-09,-0.003385753264956923
3.327048674824929e-09,-0.01073036408785849,3.327048674824929e-09,6.787857296577555e-05,3.327048674824929e-09,6.797563038894684e-05,3.327048674824929e-09,0.7372492637916274,3.327048674824929e-09,-0.0035951603567845
3.329986751803233e-09,-0.01154595987742784,3.329986751803233e-09,6.789235597514498e-05,3.329986751803233e-09,6.797024523289192e-05,3.329986751803233e-09,0.738881528779574,3.329986751803233e-09,-0.003168608033369337
3.332613091549751e-09,0.02122564748882195,3.332613091549751e-09,6.792870656088695e-05,3.332613091549751e-09,6.795974300179657e-05,3.332613091549751e-09,0.7403406064165283,3.332613091549751e-09,-0.002361690211538341
3.33509974093323e-09,0.09846414056272741,3.33509974093323e-09,6.796132766082368e-05,3.33509974093323e-09,6.794358567395788e-05,3.33509974093323e-09,0.741722078296239,3.33509974093323e-09,-0.001661230227176517
3.337226263277365e-09,0.1921447368530023,3.337226263277365e-09,6.799700172869467e-05,3.337226263277365e-09,6.794691868889868e-05,3.337226263277365e-09,0.742903479598536,3.337226263277365e-09,-0.0009534627679907866
3.339777268839778e-09,0.320403646985265,3.339777268839778e-09,6.80235239330392e-05,3.339777268839778e-09,6.79559941208261e-05,3.339777268839778e-09,0.7443207049109877,3.339777268839778e-09,0.0002095342097835986
3.342584470241409e-09,0.4721268516431332,3.342584470241409e-09,6.800650084542053e-05,3.342584470241409e-09,6.794659164489702e-05,3.342584470241409e-09,0.7458802612452272,3.342584470241409e-09,0.001442579903603974
3.345277717106497e-09,0.6114460907486609,3.345277717106497e-09,6.798335736711592e-05,3.345277717106497e-09,6.794367480863511e-05,3.345277717106497e-09,0.7473765095036097,3.345277717106497e-09,0.002379745525424968
3.348142813326281e-09,0.7317244608368974,3.348142813326281e-09,6.796453052823139e-05,3.348142813326281e-09,6.794365692408471e-05,3.348142813326281e-09,0.7489682296257117,3.348142813326281e-09,0.00293274429181648
3.350663740246366e-09,0.8041834253169089,3.350663740246366e-09,6.795897143294421e-05,3.350663740246366e-09,6.794927569373567e-05,3.350663740246366e-09,0.7503687445813142,3.350663740246366e-09,0.003061629863587555
3.353265384716069e-09,0.868108425175809,3.353265384716069e-09,6.796003201905531e-05,3.353265384716069e-09,6.795678034387076e-05,3.353265384716069e-09,0.7518141026200383,3.353265384716069e-09,0.002947008800789544
3.356105813002875e-09,1.005447850308518,3.356105813002875e-09,6.796085088162745e-05,3.356105813002875e-09,6.796165320516066e-05,3.356105813002875e-09,0.7533921183349307,3.356105813002875e-09,0.002635823302367566
3.358737777584963e-09,1.335142540014653,3.358737777584963e-09,6.796133175357914e-05,3.358737777584963e-09,6.796407294455261e-05,3.358737777584963e-09,0.7548543208805353,3.358737777584963e-09,0.002266565703939422
3.360808047419329e-09,1.841854433149673,3.360808047419329e-09,6.796069253070628e-05,3.360808047419329e-09,6.796444796389447e-05,3.360808047419329e-09,0.756004470788516,3.360808047419329e-09,0.001982562340604938
3.3627791013201e-09,2.522796123875071,3.3627791013201e-09,6.795944991116387e-05,3.3627791013201e-09,6.796375061377516e-05,3.3627791013201e-09,0.7570995007333891,3.3627791013201e-09,0.001739300460174827
3.364022669544756e-09,3.001041297167391,3.364022669544756e-09,6.795770975331181e-05,3.364022669544756e-09,6.7962307686191e-05,3.364022669544756e-09,0.7577903719693089,3.364022669544756e-09,0.001598142229919362
