/net039 X,/net039 Y,/net010 X,/net010 Y,/net09 X,/net09 Y,/net08 X,/net08 Y,/net02 X,/net02 Y
0,6.79564376597583e-05,0,6.795643765968479e-05,0,6.795643765981117e-05,0,6.094256728550759e-05,0,0
1.5e-11,6.795643765982883e-05,1.5e-11,6.79564376597516e-05,1.5e-11,6.79564376598582e-05,1.5e-11,6.094256728543667e-05,1.5e-11,0
4.5e-11,6.795643765977723e-05,4.5e-11,6.795643765968177e-05,4.5e-11,6.795643765984922e-05,4.5e-11,6.094256728550403e-05,4.5e-11,0
1.05e-10,6.795643765688043e-05,1.05e-10,6.795643765999213e-05,1.05e-10,6.795643765959842e-05,1.05e-10,6.094256728552466e-05,1.05e-10,0
2.25e-10,6.795643765961537e-05,2.25e-10,6.795643765967343e-05,2.25e-10,6.795643765694315e-05,2.25e-10,6.094256728547248e-05,2.25e-10,0
4.65e-10,6.795643765981179e-05,4.65e-10,6.795643765978351e-05,4.65e-10,6.795643765937323e-05,4.65e-10,6.094256728569698e-05,4.65e-10,0
7.649999999999999e-10,6.795643765996737e-05,7.649999999999999e-10,6.795643766284528e-05,7.649999999999999e-10,6.795643765719291e-05,7.649999999999999e-10,6.094256728553681e-05,7.649999999999999e-10,0
1.065e-09,6.795643765665184e-05,1.065e-09,6.795643765692478e-05,1.065e-09,6.795643766255092e-05,1.065e-09,6.094256728560856e-05,1.065e-09,0
1.365e-09,6.795643766299495e-05,1.365e-09,6.795643766279958e-05,1.365e-09,6.795643765708992e-05,1.365e-09,6.094256728561762e-05,1.365e-09,0
1.665e-09,6.795643765661277e-05,1.665e-09,6.795643765363253e-05,1.665e-09,6.795643766267947e-05,1.665e-09,6.094256728541673e-05,1.665e-09,0
1.8325e-09,6.795643766308756e-05,1.8325e-09,6.795643766566029e-05,1.8325e-09,6.795643765705754e-05,1.8325e-09,6.094256728586131e-05,1.8325e-09,0
2e-09,6.795643765343808e-05,2e-09,6.795643765407049e-05,2e-09,6.795643765941915e-05,2e-09,6.094256728544173e-05,2e-09,0
2.120144127384571e-09,6.795643765950067e-05,2.120144127384571e-09,6.795643765968821e-05,2.120144127384571e-09,6.795643765985468e-05,2.120144127384571e-09,6.094256728651553e-05,2.120144127384571e-09,0.06674673743587282
2.261585129605973e-09,6.795643765677231e-05,2.261585129605973e-09,6.795643765674624e-05,2.261585129605973e-09,6.795643766288754e-05,2.261585129605973e-09,6.094256725725987e-05,2.261585129605973e-09,0.1453250720033182
2.400273538304042e-09,6.795643766570626e-05,2.400273538304042e-09,6.795643766286064e-05,2.400273538304042e-09,6.795643765707529e-05,2.400273538304042e-09,6.09425674084635e-05,2.400273538304042e-09,0.2223741879466899
2.455693803733439e-09,6.795643765420892e-05,2.455693803733439e-09,6.795643765700201e-05,2.455693803733439e-09,6.79564376613625e-05,2.455693803733439e-09,6.094256661051531e-05,2.455693803733439e-09,0.2531632242963547
2.483403936448137e-09,6.795643766163316e-05,2.483403936448137e-09,6.795643766203205e-05,2.483403936448137e-09,6.795643766474808e-05,2.483403936448137e-09,6.094256951318285e-05,2.483403936448137e-09,0.268557742471187
2.538824201877533e-09,6.795643766113312e-05,2.538824201877533e-09,6.79564376577669e-05,2.538824201877533e-09,6.795643764709814e-05,2.538824201877533e-09,6.094256446703727e-05,2.538824201877533e-09,0.2993467788208515
2.56127447931382e-09,6.795643765887234e-05,2.56127447931382e-09,6.795643765863616e-05,2.56127447931382e-09,6.795643768702567e-05,2.56127447931382e-09,6.094256995263803e-05,2.56127447931382e-09,0.3118191551743447
2.572499618031964e-09,6.795643766036875e-05,2.572499618031964e-09,6.795643766038754e-05,2.572499618031964e-09,6.795643763945847e-05,2.572499618031964e-09,6.09425678208754e-05,2.572499618031964e-09,0.3180553433510913
2.594949895468252e-09,6.795643765917583e-05,2.594949895468252e-09,6.795643765918851e-05,2.594949895468252e-09,6.795643766699771e-05,2.594949895468252e-09,6.094256537222464e-05,2.594949895468252e-09,0.3305277197045844
2.620191837972028e-09,6.79564376601459e-05,2.620191837972028e-09,6.795643766008653e-05,2.620191837972028e-09,6.79564376644806e-05,2.620191837972028e-09,6.094256962033598e-05,2.620191837972028e-09,0.3445510210955708
2.641152210955126e-09,6.795643765960905e-05,2.641152210955126e-09,6.795643765934019e-05,2.641152210955126e-09,6.795643764224112e-05,2.641152210955126e-09,6.094256506699444e-05,2.641152210955126e-09,0.3561956727528476
2.661831460741679e-09,6.795643765735026e-05,2.661831460741679e-09,6.795643766026786e-05,2.661831460741679e-09,6.795643768372524e-05,2.661831460741679e-09,6.094256908374893e-05,2.661831460741679e-09,0.3676841448564881
2.683150840006561e-09,6.795643765911987e-05,2.683150840006561e-09,6.79564376592845e-05,2.683150840006561e-09,6.795643763352344e-05,2.683150840006561e-09,6.094256594431541e-05,2.683150840006561e-09,0.3795282444480896
2.70270661657084e-09,6.795643766024356e-05,2.70270661657084e-09,6.795643766006709e-05,2.70270661657084e-09,6.79564376804993e-05,2.70270661657084e-09,6.09425681888709e-05,2.70270661657084e-09,0.3903925647615777
2.725850249366303e-09,6.795643765955474e-05,2.725850249366303e-09,6.79564376595016e-05,2.725850249366303e-09,6.795643764158329e-05,2.725850249366303e-09,6.09425666803605e-05,2.725850249366303e-09,0.4032501385368351
2.754017301166396e-09,6.795643766018164e-05,2.754017301166396e-09,6.795643766000208e-05,2.754017301166396e-09,6.795643767357192e-05,2.754017301166396e-09,6.094256769673696e-05,2.754017301166396e-09,0.4188985006479976
2.784554590450057e-09,6.795643765948886e-05,2.784554590450057e-09,6.795643766225961e-05,2.784554590450057e-09,6.795643764801128e-05,2.784554590450057e-09,6.09425670177977e-05,2.784554590450057e-09,0.4358636613611429
2.813120231789634e-09,6.795643766020464e-05,2.813120231789634e-09,6.795643765758026e-05,2.813120231789634e-09,6.795643766966761e-05,2.813120231789634e-09,6.094256743294782e-05,2.813120231789634e-09,0.4517334621053522
2.842920733339832e-09,6.795643765934636e-05,2.842920733339832e-09,6.795643766470265e-05,2.842920733339832e-09,6.795643765463382e-05,2.842920733339832e-09,6.094256722766429e-05,2.842920733339832e-09,0.4682892962999066
2.86724366281339e-09,6.795643766038894e-05,2.86724366281339e-09,6.795643765556952e-05,2.86724366281339e-09,6.795643766351904e-05,2.86724366281339e-09,6.09425672611967e-05,2.86724366281339e-09,0.4818020348963275
2.895154013063812e-09,6.795643765638985e-05,2.895154013063812e-09,6.795643766358354e-05,2.895154013063812e-09,6.795643765707442e-05,2.895154013063812e-09,6.094256736127643e-05,2.895154013063812e-09,0.497307785035451
2.921094972943405e-09,6.795643766258999e-05,2.921094972943405e-09,6.795643765916107e-05,2.921094972943405e-09,6.795643765921842e-05,2.921094972943405e-09,6.094256717015225e-05,2.921094972943405e-09,0.511719429413003
2.972976892702593e-09,6.795643765720098e-05,2.972976892702593e-09,6.795643766055061e-05,2.972976892702593e-09,6.795643766079966e-05,2.972976892702593e-09,6.094256741641745e-05,2.972976892702593e-09,0.5405427181681071
3.015534443808934e-09,6.79564376622844e-05,3.015534443808934e-09,6.795643765901982e-05,3.015534443808934e-09,6.795643765857355e-05,3.015534443808934e-09,6.094256713892914e-05,3.015534443808934e-09,0.5641858021160743
3.058952952513212e-09,6.795643765762226e-05,3.058952952513212e-09,6.795643766056276e-05,3.058952952513212e-09,6.795643766144025e-05,3.058952952513212e-09,6.094256744505283e-05,3.058952952513212e-09,0.5883071958406733
3.070072085180666e-09,6.795643766126291e-05,3.070072085180666e-09,6.795643765932725e-05,3.070072085180666e-09,6.795643765785365e-05,3.070072085180666e-09,6.094256709815911e-05,3.070072085180666e-09,0.5944844917670368
3.092310350515575e-09,6.795643765568154e-05,3.092310350515575e-09,6.795643766030281e-05,3.092310350515575e-09,6.795643765942004e-05,3.092310350515575e-09,6.094256747670169e-05,3.092310350515575e-09,0.6068390836197638
3.099638279908362e-09,6.795643766171961e-05,3.099638279908362e-09,6.795643766152887e-05,3.099638279908362e-09,6.795643766097074e-05,3.099638279908362e-09,6.094256710184536e-05,3.099638279908362e-09,0.6109101555046456
3.114294138693937e-09,6.795643766044391e-05,3.114294138693937e-09,6.795643765869982e-05,3.114294138693937e-09,6.795643765956123e-05,3.114294138693937e-09,6.094256745832499e-05,3.114294138693937e-09,0.6190522992744092
3.118522099332242e-09,6.795643765964827e-05,3.118522099332242e-09,6.795643765963531e-05,3.118522099332242e-09,6.795643765504426e-05,3.118522099332242e-09,6.094256709295515e-05,3.118522099332242e-09,0.6214011662956899
3.126978020608852e-09,6.795643765984546e-05,3.126978020608852e-09,6.795643765725809e-05,3.126978020608852e-09,6.795643766041923e-05,3.126978020608852e-09,6.094256740092369e-05,3.126978020608852e-09,0.6260989003382512
3.135236705323135e-09,6.79564376621889e-05,3.135236705323135e-09,6.795643766151289e-05,3.135236705323135e-09,6.795643766827716e-05,3.135236705323135e-09,6.094256741095677e-05,3.135236705323135e-09,0.6306870585128526
3.143153413132585e-09,6.795643765852166e-05,3.143153413132585e-09,6.795643765590889e-05,3.143153413132585e-09,6.795643765358924e-05,3.143153413132585e-09,6.094256752893249e-05,3.143153413132585e-09,0.635085229518103
3.152074375164357e-09,6.795643766089304e-05,3.152074375164357e-09,6.795643766015031e-05,3.152074375164357e-09,6.795643765815101e-05,3.152074375164357e-09,6.094256722119674e-05,3.152074375164357e-09,0.6400413195357537
3.155201714466456e-09,6.795643766370971e-05,3.155201714466456e-09,6.795643766201855e-05,3.155201714466456e-09,6.795643779419246e-05,3.155201714466456e-09,6.094256983612424e-05,3.155201714466456e-09,0.6417787302591419
3.161456393070653e-09,6.795643765222707e-05,3.161456393070653e-09,6.795643766040641e-05,3.161456393070653e-09,6.795643743426437e-05,3.161456393070653e-09,6.09425643669105e-05,3.161456393070653e-09,0.6452535517059185
3.169463697505996e-09,6.795643761025183e-05,3.169463697505996e-09,6.795643765805622e-05,3.169463697505996e-09,6.795643566987141e-05,3.169463697505996e-09,6.094250478664389e-05,3.169463697505996e-09,0.6497020541699978
3.178072358013543e-09,6.795643774321572e-05,3.178072358013543e-09,6.795643766288915e-05,3.178072358013543e-09,6.795643877713856e-05,3.178072358013543e-09,6.094252394776668e-05,3.178072358013543e-09,0.6544846433408571
3.186324396059451e-09,6.795643914496277e-05,3.186324396059451e-09,6.795643767513784e-05,3.186324396059451e-09,6.795649361787152e-05,3.186324396059451e-09,6.094419527220764e-05,3.186324396059451e-09,0.6590691089219174
3.197057002091266e-09,6.795643614064924e-05,3.197057002091266e-09,6.795643761128203e-05,3.197057002091266e-09,6.7956373579363e-05,3.197057002091266e-09,6.094267882810455e-05,3.197057002091266e-09,0.6650316678284813
3.204665144154081e-09,6.79564215997081e-05,3.204665144154081e-09,6.795643729057347e-05,3.204665144154081e-09,6.795421425929674e-05,3.204665144154081e-09,6.088063085431949e-05,3.204665144154081e-09,0.6692584134189339
3.212316916465499e-09,6.795642598876259e-05,3.212316916465499e-09,6.795643874120911e-05,3.212316916465499e-09,6.795712317488693e-05,3.212316916465499e-09,6.088580305536254e-05,3.212316916465499e-09,0.6735093980363885
3.219485189423208e-09,6.795651815711094e-05,3.219485189423208e-09,6.795643870230401e-05,3.219485189423208e-09,6.796697124043756e-05,3.219485189423208e-09,6.117044212837791e-05,3.219485189423208e-09,0.6774917719017822
3.225448915369602e-09,6.79565096185242e-05,3.225448915369602e-09,6.795643177939585e-05,3.225448915369602e-09,6.794936095208262e-05,3.225448915369602e-09,6.102239649540017e-05,3.225448915369602e-09,0.6808049529831121
3.233703840253282e-09,6.795637202122138e-05,3.233703840253282e-09,6.795644284599205e-05,3.233703840253282e-09,6.795096151988265e-05,3.233703840253282e-09,6.08087405563301e-05,3.233703840253282e-09,0.6853910223629345
3.241677187032124e-09,6.795643763485352e-05,3.241677187032124e-09,6.795643726484049e-05,3.241677187032124e-09,6.796082380550831e-05,3.241677187032124e-09,6.091444821651496e-05,3.241677187032124e-09,0.6898206594622913
3.248880945511776e-09,6.79563702622672e-05,3.248880945511776e-09,6.795643502770365e-05,3.248880945511776e-09,6.795652267964452e-05,3.248880945511776e-09,6.092939370118962e-05,3.248880945511776e-09,0.693822747506542
3.256097616546714e-09,6.795615828372484e-05,3.256097616546714e-09,6.795643852134887e-05,3.256097616546714e-09,6.795716998851177e-05,3.256097616546714e-09,6.094664477857004e-05,3.256097616546714e-09,0.6978320091926189
3.262547469758284e-09,6.795601221871763e-05,3.262547469758284e-09,6.795643562119333e-05,3.262547469758284e-09,6.795320750981852e-05,3.262547469758284e-09,6.084579545988198e-05,3.262547469758284e-09,0.7014152609768244
3.268229515246978e-09,6.795176603501545e-05,3.268229515246978e-09,6.795641799183987e-05,3.268229515246978e-09,6.7951573710499e-05,3.268229515246978e-09,6.06184083891107e-05,3.268229515246978e-09,0.7045719529149875
3.272394833243928e-09,6.792741103369482e-05,3.272394833243928e-09,6.795629121217351e-05,3.272394833243928e-09,6.795293071943097e-05,3.272394833243928e-09,5.997369746199834e-05,3.272394833243928e-09,0.7068860184688489
3.27642517048851e-09,6.790874759958764e-05,3.27642517048851e-09,6.795634163551146e-05,3.27642517048851e-09,6.796385697906325e-05,3.27642517048851e-09,5.923599789279348e-05,3.27642517048851e-09,0.7091250947158386
3.280090034600603e-09,6.80678004617826e-05,3.280090034600603e-09,6.795752743256788e-05,3.280090034600603e-09,6.797195643673864e-05,3.280090034600603e-09,6.180437530391073e-05,3.280090034600603e-09,0.7111611303336683
3.283575353588814e-09,6.888010579996671e-05,3.283575353588814e-09,6.796188301831298e-05,3.283575353588814e-09,6.797492464862508e-05,3.283575353588814e-09,7.885915076189454e-05,3.283575353588814e-09,0.7130974186604523
3.286969047104419e-09,6.962039751398359e-05,3.286969047104419e-09,6.796109478778654e-05,3.286969047104419e-09,6.797020289421283e-05,3.286969047104419e-09,0.0001044499804549149,3.286969047104419e-09,0.7149828039468995
3.289566142222912e-09,6.899294836082763e-05,3.289566142222912e-09,6.79507499512864e-05,3.289566142222912e-09,6.796986417647356e-05,3.289566142222912e-09,0.0001021819004122172,3.289566142222912e-09,0.7164256345682846
3.291979650847705e-09,6.779765484590198e-05,3.291979650847705e-09,6.794438710916868e-05,3.291979650847705e-09,6.796091619205113e-05,3.291979650847705e-09,3.270454073336038e-05,3.291979650847705e-09,0.7177664726931692
3.294896761394919e-09,6.663235687723682e-05,3.294896761394919e-09,6.794819729377658e-05,3.294896761394919e-09,6.793290723472067e-05,3.294896761394919e-09,-0.0002635319531093874,3.294896761394919e-09,0.719387089663844
3.298197196193973e-09,6.100894549045945e-05,3.298197196193973e-09,6.796173155155601e-05,3.298197196193973e-09,6.79176568593406e-05,3.298197196193973e-09,-0.0009385030251556477,3.298197196193973e-09,0.7212206645522072
3.302169200938958e-09,4.979938618713675e-05,3.302169200938958e-09,6.797830687379689e-05,3.302169200938958e-09,6.79470571271299e-05,3.302169200938958e-09,-0.001207731787096765,3.302169200938958e-09,0.7234273338549766
3.304962673437167e-09,4.928142904752822e-05,3.304962673437167e-09,6.796212061036479e-05,3.304962673437167e-09,6.795575333204412e-05,3.304962673437167e-09,-0.0009151069280893735,3.304962673437167e-09,0.7249792630206484
3.307666108879311e-09,5.964289568036249e-05,3.307666108879311e-09,6.794717546655725e-05,3.307666108879311e-09,6.794996299124676e-05,3.307666108879311e-09,-0.0005339613712327738,3.307666108879311e-09,0.7264811715996172
3.310466922891178e-09,8.274111334223547e-05,3.310466922891178e-09,6.795514578109178e-05,3.310466922891178e-09,6.794845571010761e-05,3.310466922891178e-09,-0.0002451431228646979,3.310466922891178e-09,0.7280371793839876
3.313075617101884e-09,0.0001225318629462623,3.313075617101884e-09,6.797569118481903e-05,3.313075617101884e-09,6.794764297684908e-05,3.313075617101884e-09,-0.0003158575208595497,3.313075617101884e-09,0.7294864539454911
3.31548855015149e-09,0.0001896964673739385,3.31548855015149e-09,6.799180616354414e-05,3.31548855015149e-09,6.795316906439813e-05,3.31548855015149e-09,-0.0007882501957351469,3.31548855015149e-09,0.7308269723063834
3.318235202813292e-09,0.0003533988769444582,3.318235202813292e-09,6.797693380455027e-05,3.318235202813292e-09,6.796255385818567e-05,3.318235202813292e-09,-0.001704605826939643,3.318235202813292e-09,0.7323528904518289
3.321381094214372e-09,0.0004062606131939373,3.321381094214372e-09,6.793468162244871e-05,3.321381094214372e-09,6.797704614194503e-05,3.321381094214372e-09,-0.002743867671433249,3.321381094214372e-09,0.7341006078968733
3.324145305512649e-09,-0.002795623093876828,3.324145305512649e-09,6.789808096014951e-05,3.324145305512649e-09,6.797928084814945e-05,3.324145305512649e-09,-0.003385753365666179,3.324145305512649e-09,0.7356362808403605
3.327048674733805e-09,-0.01073036372226985,3.327048674733805e-09,6.787857293581074e-05,3.327048674733805e-09,6.797561193294709e-05,3.327048674733805e-09,-0.003595160889633736,3.327048674733805e-09,0.737249263741003
3.329986751806735e-09,-0.01154596000898711,3.329986751806735e-09,6.789235598128506e-05,3.329986751806735e-09,6.797023472379005e-05,3.329986751806735e-09,-0.003168608636479203,3.329986751806735e-09,0.7388815287815196
3.332613091520186e-09,0.02122564560215258,3.332613091520186e-09,6.792870657262077e-05,3.332613091520186e-09,6.795974562814845e-05,3.332613091520186e-09,-0.002361690656397775,3.332613091520186e-09,0.7403406064001035
3.335099740936059e-09,0.09846413842889203,3.335099740936059e-09,6.796132766553225e-05,3.335099740936059e-09,6.794361158171954e-05,3.335099740936059e-09,-0.001661230264236702,3.335099740936059e-09,0.7417220782978103
3.337226263278173e-09,0.1921447342830101,3.337226263278173e-09,6.799700172075172e-05,3.337226263278173e-09,6.794693583170921e-05,3.337226263278173e-09,-0.0009534626816637194,3.337226263278173e-09,0.7429034795989852
3.339777268849539e-09,0.3204036446153453,3.339777268849539e-09,6.802352392039415e-05,3.339777268849539e-09,6.795600431806543e-05,3.339777268849539e-09,0.0002095343095687114,3.339777268849539e-09,0.7443207049164104
3.342584470224438e-09,0.4721268477760834,3.342584470224438e-09,6.800650084636078e-05,3.342584470224438e-09,6.794659462389838e-05,3.342584470224438e-09,0.001442580009150789,3.342584470224438e-09,0.7458802612357988
3.345277717154101e-09,0.6114460903319907,3.345277717154101e-09,6.798335736559322e-05,3.345277717154101e-09,6.794367366665321e-05,3.345277717154101e-09,0.002379745592593932,3.345277717154101e-09,0.747376509530056
3.348142813384782e-09,0.7317244609788646,3.348142813384782e-09,6.796453053572858e-05,3.348142813384782e-09,6.794365711489559e-05,3.348142813384782e-09,0.002932744368412618,3.348142813384782e-09,0.748968229658212
3.350663740309019e-09,0.8041834254927077,3.350663740309019e-09,6.795897143173173e-05,3.350663740309019e-09,6.794927323572059e-05,3.350663740309019e-09,0.003061629888205149,3.350663740309019e-09,0.7503687446161215
3.353265384777866e-09,0.8681084253771356,3.353265384777866e-09,6.796003202382644e-05,3.353265384777866e-09,6.795678143653943e-05,3.353265384777866e-09,0.002947008845653969,3.353265384777866e-09,0.75181410265437
3.356105813065285e-09,1.005447850844346,3.356105813065285e-09,6.796085088118622e-05,3.356105813065285e-09,6.796165109074532e-05,3.356105813065285e-09,0.002635823310066896,3.356105813065285e-09,0.753392118369603
3.35873777764724e-09,1.335142541303967,3.35873777764724e-09,6.796133175503467e-05,3.35873777764724e-09,6.796407452978869e-05,3.35873777764724e-09,0.002266565735053835,3.35873777764724e-09,0.7548543209151332
3.360808047479986e-09,1.841854434780753,3.360808047479986e-09,6.796069253091962e-05,3.360808047479986e-09,6.796444607394458e-05,3.360808047479986e-09,0.001982562346135851,3.360808047479986e-09,0.7560044708222147
3.362779101381753e-09,2.522796126245868,3.362779101381753e-09,6.795944991305338e-05,3.362779101381753e-09,6.796375208821994e-05,3.362779101381753e-09,0.001739300485010361,3.362779101381753e-09,0.7570995007676408
3.364022669605258e-09,3.001041299134072,3.364022669605258e-09,6.795770975403674e-05,3.364022669605258e-09,6.79623061380197e-05,3.364022669605258e-09,0.001598142237130824,3.364022669605258e-09,0.7577903720029211
