/net039 X,/net039 Y,/net010 X,/net010 Y,/net09 X,/net09 Y,/net08 X,/net08 Y,/net02 X,/net02 Y
0,6.795643765985143e-05,0,6.795643765973504e-05,0,6.795643765948921e-05,0,6.094256728561484e-05,0,0
1.5e-11,6.79564376596938e-05,1.5e-11,6.795643765977718e-05,1.5e-11,6.795643765976505e-05,1.5e-11,6.094256728554533e-05,1.5e-11,0
4.5e-11,6.795643765967689e-05,4.5e-11,6.7956437659688e-05,4.5e-11,6.795643765974999e-05,4.5e-11,6.094256728584721e-05,4.5e-11,0
1.05e-10,6.795643765994527e-05,1.05e-10,6.795643765702924e-05,1.05e-10,6.795643765690051e-05,1.05e-10,6.094256728557262e-05,1.05e-10,0
2.25e-10,6.795643765954432e-05,2.25e-10,6.795643766214997e-05,2.25e-10,6.795643766300532e-05,2.25e-10,6.094256728564818e-05,2.25e-10,0
4.65e-10,6.79564376601737e-05,4.65e-10,6.795643765753178e-05,4.65e-10,6.795643765660152e-05,4.65e-10,6.094256728566707e-05,4.65e-10,0
7.649999999999999e-10,6.795643765939119e-05,7.649999999999999e-10,6.795643766209097e-05,7.649999999999999e-10,6.795643766299009e-05,7.649999999999999e-10,6.09425672857156e-05,7.649999999999999e-10,0
1.065e-09,6.795643766015348e-05,1.065e-09,6.795643765743965e-05,1.065e-09,6.795643765683534e-05,1.065e-09,6.094256728553508e-05,1.065e-09,0
1.365e-09,6.795643766250563e-05,1.365e-09,6.795643766204643e-05,1.365e-09,6.795643766294909e-05,1.365e-09,6.094256728568511e-05,1.365e-09,0
1.665e-09,6.795643765732332e-05,1.665e-09,6.795643765745665e-05,1.665e-09,6.795643765693178e-05,1.665e-09,6.094256728557676e-05,1.665e-09,0
1.8325e-09,6.795643766236862e-05,1.8325e-09,6.795643766202999e-05,1.8325e-09,6.795643765965014e-05,1.8325e-09,6.094256728570693e-05,1.8325e-09,0
2e-09,6.795643765421712e-05,2e-09,6.795643766058401e-05,2e-09,6.795643765711668e-05,2e-09,6.094256728542041e-05,2e-09,0
2.120144127384571e-09,6.795643765966353e-05,2.120144127384571e-09,6.795643765983896e-05,2.120144127384571e-09,6.795643765966738e-05,2.120144127384571e-09,6.094256728650692e-05,2.120144127384571e-09,0.06674673743587282
2.261585129605973e-09,6.795643765693153e-05,2.261585129605973e-09,6.795643765966015e-05,2.261585129605973e-09,6.795643765968993e-05,2.261585129605973e-09,6.09425672573617e-05,2.261585129605973e-09,0.1453250720033182
2.400273538304042e-09,6.795643766227815e-05,2.400273538304042e-09,6.79564376569764e-05,2.400273538304042e-09,6.795643765989411e-05,2.400273538304042e-09,6.094256740813951e-05,2.400273538304042e-09,0.2223741879466899
2.455693803733439e-09,6.795643765769109e-05,2.455693803733439e-09,6.795643766210664e-05,2.455693803733439e-09,6.795643765879368e-05,2.455693803733439e-09,6.094256661082129e-05,2.455693803733439e-09,0.2531632242963551
2.483403936448138e-09,6.795643766148495e-05,2.483403936448138e-09,6.795643765736678e-05,2.483403936448138e-09,6.795643766657332e-05,2.483403936448138e-09,6.094256951323623e-05,2.483403936448138e-09,0.2685577424711879
2.538824201877536e-09,6.795643765504316e-05,2.538824201877536e-09,6.795643766238855e-05,2.538824201877536e-09,6.795643764818684e-05,2.538824201877536e-09,6.094256446663112e-05,2.538824201877536e-09,0.2993467788208533
2.561274479313795e-09,6.795643766130972e-05,2.561274479313795e-09,6.795643765769674e-05,2.561274479313795e-09,6.795643768589364e-05,2.561274479313795e-09,6.094256995317327e-05,2.561274479313795e-09,0.3118191551743304
2.572499618031924e-09,6.795643765842064e-05,2.572499618031924e-09,6.795643765872674e-05,2.572499618031924e-09,6.7956437637966e-05,2.572499618031924e-09,6.094256782107594e-05,2.572499618031924e-09,0.318055343351069
2.594949895468183e-09,6.795643765846424e-05,2.594949895468183e-09,6.795643765764512e-05,2.594949895468183e-09,6.795643766558846e-05,2.594949895468183e-09,6.094256537208231e-05,2.594949895468183e-09,0.3305277197045461
2.620191837971952e-09,6.795643766077342e-05,2.620191837971952e-09,6.795643766149068e-05,2.620191837971952e-09,6.795643766781473e-05,2.620191837971952e-09,6.094256962012853e-05,2.620191837971952e-09,0.3445510210955288
2.641152210955017e-09,6.795643765902658e-05,2.641152210955017e-09,6.795643765859804e-05,2.641152210955017e-09,6.795643764250283e-05,2.641152210955017e-09,6.094256506725587e-05,2.641152210955017e-09,0.3561956727527875
2.661831460741622e-09,6.795643766073892e-05,2.661831460741622e-09,6.795643765797003e-05,2.661831460741622e-09,6.795643768140463e-05,2.661831460741622e-09,6.094256908315599e-05,2.661831460741622e-09,0.3676841448564564
2.683150840006498e-09,6.795643766184223e-05,2.683150840006498e-09,6.79564376611613e-05,2.683150840006498e-09,6.795643763806599e-05,2.683150840006498e-09,6.094256594439038e-05,2.683150840006498e-09,0.3795282444480542
2.70270661657075e-09,6.795643765824132e-05,2.70270661657075e-09,6.795643765916188e-05,2.70270661657075e-09,6.795643767955285e-05,2.70270661657075e-09,6.094256818905411e-05,2.70270661657075e-09,0.3903925647615276
2.725850249366137e-09,6.795643766380164e-05,2.725850249366137e-09,6.795643766046402e-05,2.725850249366137e-09,6.795643764524738e-05,2.725850249366137e-09,6.094256667993902e-05,2.725850249366137e-09,0.403250138536743
2.754017301166217e-09,6.795643765643576e-05,2.754017301166217e-09,6.795643765895556e-05,2.754017301166217e-09,6.795643767244673e-05,2.754017301166217e-09,6.094256769667293e-05,2.754017301166217e-09,0.4188985006478981
2.784554590449823e-09,6.79564376627142e-05,2.784554590449823e-09,6.79564376605709e-05,2.784554590449823e-09,6.795643765204595e-05,2.784554590449823e-09,6.09425670176516e-05,2.784554590449823e-09,0.4358636613610126
2.813120231789394e-09,6.795643765440729e-05,2.813120231789394e-09,6.795643765644155e-05,2.813120231789394e-09,6.79564376664053e-05,2.813120231789394e-09,6.094256743313082e-05,2.813120231789394e-09,0.4517334621052188
2.842920733339489e-09,6.79564376619281e-05,2.842920733339489e-09,6.795643766259636e-05,2.842920733339489e-09,6.795643765760492e-05,2.842920733339489e-09,6.09425672274703e-05,2.842920733339489e-09,0.4682892962997159
2.867243662813223e-09,6.795643766062364e-05,2.867243662813223e-09,6.795643766015128e-05,2.867243662813223e-09,6.795643765822937e-05,2.867243662813223e-09,6.094256726107807e-05,2.867243662813223e-09,0.4818020348962347
2.895154013063643e-09,6.795643765642416e-05,2.895154013063643e-09,6.795643765965911e-05,2.895154013063643e-09,6.795643766200813e-05,2.895154013063643e-09,6.094256736175216e-05,2.895154013063643e-09,0.4973077850353569
2.921094972943195e-09,6.795643766242706e-05,2.921094972943195e-09,6.795643765999601e-05,2.921094972943195e-09,6.795643765734833e-05,2.921094972943195e-09,6.094256716929224e-05,2.921094972943195e-09,0.5117194294128858
2.972976892702298e-09,6.7956437657332e-05,2.972976892702298e-09,6.795643766255486e-05,2.972976892702298e-09,6.795643766263232e-05,2.972976892702298e-09,6.094256741737061e-05,2.972976892702298e-09,0.5405427181679435
3.015534443808507e-09,6.795643766207458e-05,3.015534443808507e-09,6.795643765742712e-05,3.015534443808507e-09,6.795643765684097e-05,3.015534443808507e-09,6.094256713793986e-05,3.015534443808507e-09,0.5641858021158371
3.058952952512766e-09,6.795643765788256e-05,3.058952952512766e-09,6.79564376621164e-05,3.058952952512766e-09,6.795643766333083e-05,3.058952952512766e-09,6.094256744560736e-05,3.058952952512766e-09,0.5883071958404252
3.070072085180199e-09,6.795643766090778e-05,3.070072085180199e-09,6.795643765859772e-05,3.070072085180199e-09,6.795643765895472e-05,3.070072085180199e-09,6.094256709776959e-05,3.070072085180199e-09,0.5944844917667771
3.092310350515065e-09,6.795643765864715e-05,3.092310350515065e-09,6.79564376611119e-05,3.092310350515065e-09,6.795643766155456e-05,3.092310350515065e-09,6.094256747720538e-05,3.092310350515065e-09,0.6068390836194807
3.09963827990793e-09,6.795643766026501e-05,3.09963827990793e-09,6.79564376591024e-05,3.09963827990793e-09,6.795643765762588e-05,3.09963827990793e-09,6.094256710083054e-05,3.09963827990793e-09,0.6109101555044054
3.114294138693659e-09,6.79564376568132e-05,3.114294138693659e-09,6.795643766053472e-05,3.114294138693659e-09,6.795643766271503e-05,3.114294138693659e-09,6.094256745886463e-05,3.114294138693659e-09,0.6190522992742551
3.118522099331968e-09,6.795643766057316e-05,3.118522099331968e-09,6.795643765980194e-05,3.118522099331968e-09,6.795643765608193e-05,3.118522099331968e-09,6.094256709297254e-05,3.118522099331968e-09,0.6214011662955375
3.126978020608585e-09,6.795643765889273e-05,3.126978020608585e-09,6.795643766258075e-05,3.126978020608585e-09,6.795643766367961e-05,3.126978020608585e-09,6.094256740063752e-05,3.126978020608585e-09,0.6260989003381026
3.135236705322765e-09,6.795643766067953e-05,3.135236705322765e-09,6.795643766090708e-05,3.135236705322765e-09,6.795643766614845e-05,3.135236705322765e-09,6.094256741005321e-05,3.135236705322765e-09,0.6306870585126473
3.14315341313226e-09,6.795643766172731e-05,3.14315341313226e-09,6.795643765662834e-05,3.14315341313226e-09,6.795643765529781e-05,3.14315341313226e-09,6.094256752915069e-05,3.14315341313226e-09,0.635085229517922
3.152074375163905e-09,6.79564376587503e-05,3.152074375163905e-09,6.795643766179008e-05,3.152074375163905e-09,6.795643765646106e-05,3.152074375163905e-09,6.094256722058975e-05,3.152074375163905e-09,0.6400413195355028
3.155201714466007e-09,6.795643766193119e-05,3.155201714466007e-09,6.795643766068814e-05,3.155201714466007e-09,6.795643779310781e-05,3.155201714466007e-09,6.094256983601246e-05,3.155201714466007e-09,0.6417787302588929
3.161456393070212e-09,6.79564376517199e-05,3.161456393070212e-09,6.795643765946882e-05,3.161456393070212e-09,6.79564374338169e-05,3.161456393070212e-09,6.094256436727276e-05,3.161456393070212e-09,0.6452535517056731
3.169463697505381e-09,6.795643760804732e-05,3.169463697505381e-09,6.795643765656475e-05,3.169463697505381e-09,6.795643567048416e-05,3.169463697505381e-09,6.094250478740239e-05,3.169463697505381e-09,0.6497020541696559
3.178072358013193e-09,6.795643774188657e-05,3.178072358013193e-09,6.795643766368505e-05,3.178072358013193e-09,6.795643877641323e-05,3.178072358013193e-09,6.094252394745233e-05,3.178072358013193e-09,0.6544846433406627
3.186324396059045e-09,6.795643914547542e-05,3.186324396059045e-09,6.795643767466121e-05,3.186324396059045e-09,6.795649361630339e-05,3.186324396059045e-09,6.094419527196648e-05,3.186324396059045e-09,0.6590691089216917
3.197057002090748e-09,6.795643613740713e-05,3.197057002090748e-09,6.795643761130621e-05,3.197057002090748e-09,6.795637357786057e-05,3.197057002090748e-09,6.094267882716718e-05,3.197057002090748e-09,0.6650316678281932
3.204665144153458e-09,6.795642160188211e-05,3.204665144153458e-09,6.79564372900367e-05,3.204665144153458e-09,6.795421425793883e-05,3.204665144153458e-09,6.088063085376947e-05,3.204665144153458e-09,0.6692584134185879
3.212316916465026e-09,6.79564259893034e-05,3.212316916465026e-09,6.795643874162257e-05,3.212316916465026e-09,6.795712317701599e-05,3.212316916465026e-09,6.08858030553494e-05,3.212316916465026e-09,0.6735093980361256
3.219485189422632e-09,6.795651815733763e-05,3.219485189422632e-09,6.79564387018147e-05,3.219485189422632e-09,6.796697124108871e-05,3.219485189422632e-09,6.117044212826455e-05,3.219485189422632e-09,0.6774917719014619
3.225448915369081e-09,6.795650962047495e-05,3.225448915369081e-09,6.795643177959069e-05,3.225448915369081e-09,6.794936095353512e-05,3.225448915369081e-09,6.102239649477575e-05,3.225448915369081e-09,0.6808049529828227
3.233703840253032e-09,6.795637202044411e-05,3.233703840253032e-09,6.795644284794787e-05,3.233703840253032e-09,6.795096151697369e-05,3.233703840253032e-09,6.080874055656374e-05,3.233703840253032e-09,0.6853910223627955
3.241677187031726e-09,6.795643763365701e-05,3.241677187031726e-09,6.795643726191567e-05,3.241677187031726e-09,6.796082380717507e-05,3.241677187031726e-09,6.091444821638615e-05,3.241677187031726e-09,0.6898206594620703
3.248880945511453e-09,6.79563702629739e-05,3.248880945511453e-09,6.795643502978612e-05,3.248880945511453e-09,6.795652267629759e-05,3.248880945511453e-09,6.09293937015582e-05,3.248880945511453e-09,0.6938227475063629
3.256097616546357e-09,6.795615828104544e-05,3.256097616546357e-09,6.795643851993846e-05,3.256097616546357e-09,6.795716999028931e-05,3.256097616546357e-09,6.09466447785116e-05,3.256097616546357e-09,0.6978320091924204
3.262547469758055e-09,6.795601221981858e-05,3.262547469758055e-09,6.795643561829958e-05,3.262547469758055e-09,6.795320751107895e-05,3.262547469758055e-09,6.084579545940104e-05,3.262547469758055e-09,0.7014152609766973
3.268229515246713e-09,6.795176603448237e-05,3.268229515246713e-09,6.795641799285064e-05,3.268229515246713e-09,6.795157370816983e-05,3.268229515246713e-09,6.061840838875729e-05,3.268229515246713e-09,0.7045719529148404
3.272394833243686e-09,6.79274110326905e-05,3.272394833243686e-09,6.795629121533571e-05,3.272394833243686e-09,6.795293071846411e-05,3.272394833243686e-09,5.997369746205667e-05,3.272394833243686e-09,0.7068860184687142
3.276425170488228e-09,6.790874760126241e-05,3.276425170488228e-09,6.795634163658612e-05,3.276425170488228e-09,6.796385697855726e-05,3.276425170488228e-09,5.923599789230798e-05,3.276425170488228e-09,0.7091250947156822
3.280090034600372e-09,6.806780045925291e-05,3.280090034600372e-09,6.795752743140034e-05,3.280090034600372e-09,6.797195643890357e-05,3.280090034600372e-09,6.180437530315889e-05,3.280090034600372e-09,0.7111611303335401
3.283575353588565e-09,6.888010579959426e-05,3.283575353588565e-09,6.796188301713465e-05,3.283575353588565e-09,6.797492464772823e-05,3.283575353588565e-09,7.885915075982739e-05,3.283575353588565e-09,0.7130974186603141
3.286969047104146e-09,6.962039751368862e-05,3.286969047104146e-09,6.796109478980792e-05,3.286969047104146e-09,6.797020289356407e-05,3.286969047104146e-09,0.0001044499804529876,3.286969047104146e-09,0.7149828039467478
3.289566142222709e-09,6.899294836005884e-05,3.289566142222709e-09,6.795074995387878e-05,3.289566142222709e-09,6.7969864175845e-05,3.289566142222709e-09,0.0001021819004135202,3.289566142222709e-09,0.7164256345681718
3.291979650847479e-09,6.779765484659972e-05,3.291979650847479e-09,6.7944387109823e-05,3.291979650847479e-09,6.796091619527467e-05,3.291979650847479e-09,3.270454074388899e-05,3.291979650847479e-09,0.7177664726930439
3.294896761394665e-09,6.663235687754395e-05,3.294896761394665e-09,6.794819729173831e-05,3.294896761394665e-09,6.793290723338871e-05,3.294896761394665e-09,-0.0002635319530729062,3.294896761394665e-09,0.7193870896637029
3.29819719619368e-09,6.10089454900261e-05,3.29819719619368e-09,6.796173155103185e-05,3.29819719619368e-09,6.791765686118223e-05,3.29819719619368e-09,-0.0009385030251152939,3.29819719619368e-09,0.7212206645520444
3.302169200938944e-09,4.97993861893657e-05,3.302169200938944e-09,6.797830687084334e-05,3.302169200938944e-09,6.79470571254692e-05,3.302169200938944e-09,-0.001207731787114413,3.302169200938944e-09,0.7234273338549689
3.304962673437166e-09,4.928142904533296e-05,3.304962673437166e-09,6.796212060813685e-05,3.304962673437166e-09,6.795575333056189e-05,3.304962673437166e-09,-0.0009151069281021656,3.304962673437166e-09,0.7249792630206475
3.307666108879338e-09,5.964289568028012e-05,3.307666108879338e-09,6.794717546581582e-05,3.307666108879338e-09,6.794996298913202e-05,3.307666108879338e-09,-0.0005339613712357238,3.307666108879338e-09,0.7264811715996324
3.310466922891196e-09,8.274111334307117e-05,3.310466922891196e-09,6.795514578223335e-05,3.310466922891196e-09,6.794845571094377e-05,3.310466922891196e-09,-0.0002451431228654493,3.310466922891196e-09,0.7280371793839976
3.313075617101911e-09,0.0001225318629467196,3.313075617101911e-09,6.797569118667124e-05,3.313075617101911e-09,6.794764297708796e-05,3.313075617101911e-09,-0.0003158575208606163,3.313075617101911e-09,0.729486453945506
3.315488550151514e-09,0.0001896964673762777,3.315488550151514e-09,6.79918061632602e-05,3.315488550151514e-09,6.795316906500741e-05,3.315488550151514e-09,-0.0007882501957442356,3.315488550151514e-09,0.7308269723063966
3.318235202813334e-09,0.0003533988769458871,3.318235202813334e-09,6.7976933803644e-05,3.318235202813334e-09,6.796255385718427e-05,3.318235202813334e-09,-0.001704605826965784,3.318235202813334e-09,0.7323528904518519
3.321381094214398e-09,0.000406260613189875,3.321381094214398e-09,6.793468162273668e-05,3.321381094214398e-09,6.797704614376951e-05,3.321381094214398e-09,-0.002743867671462522,3.321381094214398e-09,0.734100607896888
3.324145305512679e-09,-0.002795623093938585,3.324145305512679e-09,6.789808095841752e-05,3.324145305512679e-09,6.797928084729864e-05,3.324145305512679e-09,-0.003385753365700113,3.324145305512679e-09,0.735636280840377
3.327048674733834e-09,-0.01073036372234396,3.327048674733834e-09,6.787857293584214e-05,3.327048674733834e-09,6.797561193525929e-05,3.327048674733834e-09,-0.003595160889662521,3.327048674733834e-09,0.7372492637410186
3.329986751806754e-09,-0.01154596000891237,3.329986751806754e-09,6.789235598069793e-05,3.329986751806754e-09,6.797023472334322e-05,3.329986751806754e-09,-0.003168608636492384,3.329986751806754e-09,0.73888152878153
3.332613091520206e-09,0.02122564560256993,3.332613091520206e-09,6.792870657155321e-05,3.332613091520206e-09,6.795974562913544e-05,3.332613091520206e-09,-0.002361690656394676,3.332613091520206e-09,0.7403406064001146
3.335099740936065e-09,0.09846413842914954,3.335099740936065e-09,6.796132766516926e-05,3.335099740936065e-09,6.794361158355917e-05,3.335099740936065e-09,-0.001661230264225294,3.335099740936065e-09,0.741722078297814
3.337226263278182e-09,0.1921447342833695,3.337226263278182e-09,6.799700172094845e-05,3.337226263278182e-09,6.794693583283142e-05,3.337226263278182e-09,-0.0009534626816387137,3.337226263278182e-09,0.7429034795989898
3.339777268849546e-09,0.3204036446156805,3.339777268849546e-09,6.802352391870098e-05,3.339777268849546e-09,6.795600431768302e-05,3.339777268849546e-09,0.0002095343096097899,3.339777268849546e-09,0.7443207049164146
3.342584470224451e-09,0.4721268477765175,3.342584470224451e-09,6.800650084724516e-05,3.342584470224451e-09,6.79465946253016e-05,3.342584470224451e-09,0.001442580009201954,3.342584470224451e-09,0.7458802612358061
3.345277717154113e-09,0.6114460903319197,3.345277717154113e-09,6.79833573645053e-05,3.345277717154113e-09,6.794367366488924e-05,3.345277717154113e-09,0.002379745592647891,3.345277717154113e-09,0.7473765095300626
3.348142813384792e-09,0.7317244609786381,3.348142813384792e-09,6.796453053613225e-05,3.348142813384792e-09,6.794365711675852e-05,3.348142813384792e-09,0.00293274436846297,3.348142813384792e-09,0.748968229658218
3.350663740309029e-09,0.8041834254926399,3.350663740309029e-09,6.795897143102448e-05,3.350663740309029e-09,6.794927323456572e-05,3.350663740309029e-09,0.003061629888250515,3.350663740309029e-09,0.750368744616127
3.353265384777878e-09,0.8681084253771484,3.353265384777878e-09,6.796003202298248e-05,3.353265384777878e-09,6.79567814368516e-05,3.353265384777878e-09,0.002947008845686381,3.353265384777878e-09,0.7518141026543764
3.356105813065272e-09,1.005447850842493,3.356105813065272e-09,6.796085088063e-05,3.356105813065272e-09,6.796165109113769e-05,3.356105813065272e-09,0.002635823310089809,3.356105813065272e-09,0.7533921183695959
3.358737777647228e-09,1.335142541299783,3.358737777647228e-09,6.796133175423945e-05,3.358737777647228e-09,6.796407452900794e-05,3.358737777647228e-09,0.002266565735064844,3.358737777647228e-09,0.7548543209151265
3.360808047479975e-09,1.841854434774124,3.360808047479975e-09,6.796069252938898e-05,3.360808047479975e-09,6.796444607434001e-05,3.360808047479975e-09,0.001982562346138539,3.360808047479975e-09,0.7560044708222083
3.36277910138174e-09,2.522796126236912,3.36277910138174e-09,6.795944991175034e-05,3.36277910138174e-09,6.79637520902016e-05,3.36277910138174e-09,0.001739300485006077,3.36277910138174e-09,0.7570995007676334
3.364022669605246e-09,3.001041299125317,3.364022669605246e-09,6.795770975407748e-05,3.364022669605246e-09,6.796230613904652e-05,3.364022669605246e-09,0.001598142237123335,3.364022669605246e-09,0.7577903720029142
