/net039 X,/net039 Y,/net010 X,/net010 Y,/net09 X,/net09 Y,/net08 X,/net08 Y,/net02 X,/net02 Y
0,6.795643765972278e-05,0,6.795643765967202e-05,0,6.795643765978133e-05,0,6.094256728555158e-05,0,0
1.5e-11,6.795643765976905e-05,1.5e-11,6.795643765973863e-05,1.5e-11,6.795643765982983e-05,1.5e-11,6.094256728549093e-05,1.5e-11,0
4.5e-11,6.795643765968953e-05,4.5e-11,6.795643765967712e-05,4.5e-11,6.795643765981099e-05,4.5e-11,6.094256728575652e-05,4.5e-11,0
1.05e-10,6.795643765698861e-05,1.05e-10,6.795643765703909e-05,1.05e-10,6.795643765993467e-05,1.05e-10,6.09425672858303e-05,1.05e-10,0
2.25e-10,6.795643766244529e-05,2.25e-10,6.795643766247543e-05,2.25e-10,6.795643765955008e-05,2.25e-10,6.094256728550823e-05,2.25e-10,0
4.65e-10,6.79564376573658e-05,4.65e-10,6.795643766034767e-05,4.65e-10,6.79564376571625e-05,4.65e-10,6.094256728539513e-05,4.65e-10,0
7.649999999999999e-10,6.795643766207365e-05,7.649999999999999e-10,6.795643765946276e-05,7.649999999999999e-10,6.795643766260073e-05,7.649999999999999e-10,6.094256728597811e-05,7.649999999999999e-10,0
1.065e-09,6.795643765753506e-05,1.065e-09,6.795643765702877e-05,1.065e-09,6.795643765706525e-05,1.065e-09,6.094256728543479e-05,1.065e-09,0
1.365e-09,6.795643766216715e-05,1.365e-09,6.795643766235785e-05,1.365e-09,6.795643766263295e-05,1.365e-09,6.094256728587331e-05,1.365e-09,0
1.665e-09,6.795643765735353e-05,1.665e-09,6.795643765410799e-05,1.665e-09,6.79564376570726e-05,1.665e-09,6.09425672855199e-05,1.665e-09,0
1.8325e-09,6.79564376592481e-05,1.8325e-09,6.79564376653466e-05,1.8325e-09,6.795643766274688e-05,1.8325e-09,6.094256728588085e-05,1.8325e-09,0
2e-09,6.795643766030029e-05,2e-09,6.795643765426484e-05,2e-09,6.795643765684972e-05,2e-09,6.094256728545301e-05,2e-09,0
2.120144127384571e-09,6.795643765985815e-05,2.120144127384571e-09,6.795643765949011e-05,2.120144127384571e-09,6.795643765956855e-05,2.120144127384571e-09,6.09425672864892e-05,2.120144127384571e-09,0.06674673743587282
2.261585129605973e-09,6.795643765974887e-05,2.261585129605973e-09,6.795643766012174e-05,2.261585129605973e-09,6.795643766021015e-05,2.261585129605973e-09,6.094256725761817e-05,2.261585129605973e-09,0.1453250720033182
2.400273538304042e-09,6.795643765694478e-05,2.400273538304042e-09,6.795643765952774e-05,2.400273538304042e-09,6.795643765957588e-05,2.400273538304042e-09,6.094256740825065e-05,2.400273538304042e-09,0.2223741879466899
2.455693803733447e-09,6.795643766235988e-05,2.455693803733447e-09,6.795643765980066e-05,2.455693803733447e-09,6.795643765951396e-05,2.455693803733447e-09,6.094256661083338e-05,2.455693803733447e-09,0.2531632242963595
2.48340393644815e-09,6.79564376576329e-05,2.48340393644815e-09,6.7956437659775e-05,2.48340393644815e-09,6.795643766642552e-05,2.48340393644815e-09,6.094256951316594e-05,2.48340393644815e-09,0.2685577424711943
2.538824201877555e-09,6.795643766198899e-05,2.538824201877555e-09,6.795643765986011e-05,2.538824201877555e-09,6.795643764851333e-05,2.538824201877555e-09,6.094256446709494e-05,2.538824201877555e-09,0.2993467788208639
2.561274479313825e-09,6.795643765798975e-05,2.561274479313825e-09,6.795643765990406e-05,2.561274479313825e-09,6.795643768294663e-05,2.561274479313825e-09,6.094256995261758e-05,2.561274479313825e-09,0.3118191551743469
2.572499618031959e-09,6.79564376585759e-05,2.572499618031959e-09,6.7956437657243e-05,2.572499618031959e-09,6.79564376392752e-05,2.572499618031959e-09,6.094256782126423e-05,2.572499618031959e-09,0.3180553433510885
2.594949895468229e-09,6.795643766072817e-05,2.594949895468229e-09,6.795643766221812e-05,2.594949895468229e-09,6.795643766373424e-05,2.594949895468229e-09,6.094256537193135e-05,2.594949895468229e-09,0.3305277197045716
2.620191837971943e-09,6.795643765896496e-05,2.620191837971943e-09,6.795643765778581e-05,2.620191837971943e-09,6.795643766980803e-05,2.620191837971943e-09,6.094256962038511e-05,2.620191837971943e-09,0.3445510210955237
2.641152210955019e-09,6.795643766047481e-05,2.641152210955019e-09,6.795643766139665e-05,2.641152210955019e-09,6.79564376382876e-05,2.641152210955019e-09,6.094256506742926e-05,2.641152210955019e-09,0.3561956727527884
2.661831460741618e-09,6.795643765647183e-05,2.661831460741618e-09,6.795643765581722e-05,2.661831460741618e-09,6.795643768477795e-05,2.661831460741618e-09,6.094256908332759e-05,2.661831460741618e-09,0.3676841448564546
2.683150840006485e-09,6.795643766246497e-05,2.683150840006485e-09,6.79564376602256e-05,2.683150840006485e-09,6.795643763773584e-05,2.683150840006485e-09,6.094256594429423e-05,2.683150840006485e-09,0.3795282444480473
2.702706616570727e-09,6.795643765765159e-05,2.702706616570727e-09,6.795643765619928e-05,2.702706616570727e-09,6.795643767976058e-05,2.702706616570727e-09,6.094256818922296e-05,2.702706616570727e-09,0.390392564761515
2.725850249366136e-09,6.795643766159576e-05,2.725850249366136e-09,6.795643765974116e-05,2.725850249366136e-09,6.795643764216709e-05,2.725850249366136e-09,6.094256668007195e-05,2.725850249366136e-09,0.403250138536742
2.754017301166218e-09,6.795643765821295e-05,2.754017301166218e-09,6.795643765700445e-05,2.754017301166218e-09,6.79564376727587e-05,2.754017301166218e-09,6.094256769690329e-05,2.754017301166218e-09,0.4188985006478987
2.784554590449848e-09,6.795643766118642e-05,2.784554590449848e-09,6.795643766248039e-05,2.784554590449848e-09,6.79564376483742e-05,2.784554590449848e-09,6.094256701776641e-05,2.784554590449848e-09,0.4358636613610266
2.813120231789388e-09,6.795643766155512e-05,2.813120231789388e-09,6.79564376600945e-05,2.813120231789388e-09,6.795643766961061e-05,2.813120231789388e-09,6.09425674328154e-05,2.813120231789388e-09,0.4517334621052158
2.842920733339517e-09,6.795643765855276e-05,2.842920733339517e-09,6.795643766253207e-05,2.842920733339517e-09,6.795643765169568e-05,2.842920733339517e-09,6.094256722760971e-05,2.842920733339517e-09,0.4682892962997316
2.867243662813265e-09,6.795643766074772e-05,2.867243662813265e-09,6.795643766027605e-05,2.867243662813265e-09,6.795643766322181e-05,2.867243662813265e-09,6.094256726121143e-05,2.867243662813265e-09,0.4818020348962584
2.895154013063669e-09,6.795643765924736e-05,2.895154013063669e-09,6.795643765958334e-05,2.895154013063669e-09,6.795643765403787e-05,2.895154013063669e-09,6.094256736142444e-05,2.895154013063669e-09,0.4973077850353714
2.921094972943231e-09,6.795643766017267e-05,2.921094972943231e-09,6.795643765976917e-05,2.921094972943231e-09,6.795643766132948e-05,2.921094972943231e-09,6.094256716962749e-05,2.921094972943231e-09,0.5117194294129063
2.972976892702357e-09,6.795643765950198e-05,2.972976892702357e-09,6.795643765698122e-05,2.972976892702357e-09,6.795643765882266e-05,2.972976892702357e-09,6.094256741691853e-05,2.972976892702357e-09,0.5405427181679759
3.015534443808564e-09,6.795643766008352e-05,3.015534443808564e-09,6.795643766238958e-05,3.015534443808564e-09,6.795643766014799e-05,3.015534443808564e-09,6.094256713870878e-05,3.015534443808564e-09,0.5641858021158688
3.058952952512819e-09,6.795643765942394e-05,3.058952952512819e-09,6.795643765442126e-05,3.058952952512819e-09,6.795643765952418e-05,3.058952952512819e-09,6.094256744506811e-05,3.058952952512819e-09,0.5883071958404552
3.070072085180256e-09,6.795643765985177e-05,3.070072085180256e-09,6.795643766067948e-05,3.070072085180256e-09,6.795643765882674e-05,3.070072085180256e-09,6.094256709841941e-05,3.070072085180256e-09,0.594484491766809
3.09231035051513e-09,6.795643765972716e-05,3.09231035051513e-09,6.79564376611671e-05,3.09231035051513e-09,6.79564376583452e-05,3.09231035051513e-09,6.094256747661897e-05,3.09231035051513e-09,0.6068390836195167
3.099638279907982e-09,6.795643765779818e-05,3.099638279907982e-09,6.795643765888034e-05,3.099638279907982e-09,6.795643765979611e-05,3.099638279907982e-09,6.094256710136175e-05,3.099638279907982e-09,0.6109101555044342
3.114294138693684e-09,6.795643766156287e-05,3.114294138693684e-09,6.795643765815039e-05,3.114294138693684e-09,6.795643766029707e-05,3.114294138693684e-09,6.09425674584562e-05,3.114294138693684e-09,0.6190522992742691
3.118522099331993e-09,6.79564376596059e-05,3.118522099331993e-09,6.795643765988729e-05,3.118522099331993e-09,6.795643765671965e-05,3.118522099331993e-09,6.094256709286766e-05,3.118522099331993e-09,0.6214011662955515
3.12697802060861e-09,6.795643765831936e-05,3.12697802060861e-09,6.795643765980422e-05,3.12697802060861e-09,6.79564376599468e-05,3.12697802060861e-09,6.094256740053504e-05,3.12697802060861e-09,0.6260989003381165
3.135236705322801e-09,6.795643766060548e-05,3.135236705322801e-09,6.795643766025459e-05,3.135236705322801e-09,6.795643767114192e-05,3.135236705322801e-09,6.094256741072506e-05,3.135236705322801e-09,0.630687058512667
3.14315341313229e-09,6.795643765953448e-05,3.14315341313229e-09,6.79564376571475e-05,3.14315341313229e-09,6.795643765195147e-05,3.14315341313229e-09,6.094256752921658e-05,3.14315341313229e-09,0.6350852295179389
3.152074375163945e-09,6.795643765983095e-05,3.152074375163945e-09,6.795643766150369e-05,3.152074375163945e-09,6.7956437659592e-05,3.152074375163945e-09,6.094256722103024e-05,3.152074375163945e-09,0.6400413195355249
3.155201714466045e-09,6.795643766490318e-05,3.155201714466045e-09,6.795643766098991e-05,3.155201714466045e-09,6.795643779227549e-05,3.155201714466045e-09,6.094256983700865e-05,3.155201714466045e-09,0.641778730258914
3.161456393070246e-09,6.795643765005193e-05,3.161456393070246e-09,6.795643765930833e-05,3.161456393070246e-09,6.795643743473108e-05,3.161456393070246e-09,6.094256436767361e-05,3.161456393070246e-09,0.6452535517056924
3.169463697505432e-09,6.795643761191762e-05,3.169463697505432e-09,6.795643765673492e-05,3.169463697505432e-09,6.79564356691878e-05,3.169463697505432e-09,6.094250478692001e-05,3.169463697505432e-09,0.6497020541696844
3.178072358013227e-09,6.795643773975385e-05,3.178072358013227e-09,6.795643766368016e-05,3.178072358013227e-09,6.79564387801841e-05,3.178072358013227e-09,6.094252394719977e-05,3.178072358013227e-09,0.6544846433406816
3.186324396059085e-09,6.795643914993683e-05,3.186324396059085e-09,6.795643767478708e-05,3.186324396059085e-09,6.795649361566841e-05,3.186324396059085e-09,6.094419527205493e-05,3.186324396059085e-09,0.6590691089217141
3.197057002090799e-09,6.795643613664034e-05,3.197057002090799e-09,6.795643760898235e-05,3.197057002090799e-09,6.795637357901155e-05,3.197057002090799e-09,6.094267882796544e-05,3.197057002090799e-09,0.6650316678282217
3.20466514415352e-09,6.795642160516802e-05,3.20466514415352e-09,6.795643728964233e-05,3.20466514415352e-09,6.795421425669117e-05,3.20466514415352e-09,6.088063085384244e-05,3.20466514415352e-09,0.6692584134186222
3.212316916465075e-09,6.795642598735659e-05,3.212316916465075e-09,6.795643874222258e-05,3.212316916465075e-09,6.795712317647758e-05,3.212316916465075e-09,6.088580305568876e-05,3.212316916465075e-09,0.6735093980361526
3.219485189422682e-09,6.795651815897337e-05,3.219485189422682e-09,6.795643869943779e-05,3.219485189422682e-09,6.796697124079241e-05,3.219485189422682e-09,6.117044212820598e-05,3.219485189422682e-09,0.67749177190149
3.225448915369126e-09,6.795650962123795e-05,3.225448915369126e-09,6.795643177867649e-05,3.225448915369126e-09,6.7949360954493e-05,3.225448915369126e-09,6.102239649612282e-05,3.225448915369126e-09,0.6808049529828475
3.233703840253063e-09,6.795637202047959e-05,3.233703840253063e-09,6.795644284828876e-05,3.233703840253063e-09,6.795096151810273e-05,3.233703840253063e-09,6.080874055644347e-05,3.233703840253063e-09,0.6853910223628129
3.241677187031774e-09,6.795643763519495e-05,3.241677187031774e-09,6.795643726126391e-05,3.241677187031774e-09,6.796082380739359e-05,3.241677187031774e-09,6.091444821620433e-05,3.241677187031774e-09,0.6898206594620966
3.248880945511497e-09,6.795637026473841e-05,3.248880945511497e-09,6.795643502791205e-05,3.248880945511497e-09,6.795652267776794e-05,3.248880945511497e-09,6.092939370157763e-05,3.248880945511497e-09,0.6938227475063873
3.25609761654642e-09,6.795615828201624e-05,3.25609761654642e-09,6.795643851906096e-05,3.25609761654642e-09,6.79571699898935e-05,3.25609761654642e-09,6.094664477874112e-05,3.25609761654642e-09,0.6978320091924554
3.262547469758102e-09,6.795601221965218e-05,3.262547469758102e-09,6.795643561874085e-05,3.262547469758102e-09,6.795320750871268e-05,3.262547469758102e-09,6.084579545986663e-05,3.262547469758102e-09,0.7014152609767235
3.268229515246767e-09,6.795176603475523e-05,3.268229515246767e-09,6.795641799278426e-05,3.268229515246767e-09,6.795157370974894e-05,3.268229515246767e-09,6.061840838934334e-05,3.268229515246767e-09,0.7045719529148707
3.272394833243737e-09,6.792741103248667e-05,3.272394833243737e-09,6.795629121358448e-05,3.272394833243737e-09,6.79529307190953e-05,3.272394833243737e-09,5.997369746218699e-05,3.272394833243737e-09,0.7068860184687428
3.276425170488286e-09,6.790874759937551e-05,3.276425170488286e-09,6.795634163920016e-05,3.276425170488286e-09,6.796385697771468e-05,3.276425170488286e-09,5.923599789248925e-05,3.276425170488286e-09,0.7091250947157145
3.280090034600422e-09,6.806780046149643e-05,3.280090034600422e-09,6.795752743194408e-05,3.280090034600422e-09,6.797195643782551e-05,3.280090034600422e-09,6.18043753039024e-05,3.280090034600422e-09,0.7111611303335675
3.283575353588619e-09,6.888010580005126e-05,3.283575353588619e-09,6.796188301971522e-05,3.283575353588619e-09,6.79749246479331e-05,3.283575353588619e-09,7.885915076118278e-05,3.283575353588619e-09,0.7130974186603436
3.286969047104204e-09,6.962039751399916e-05,3.286969047104204e-09,6.796109478862872e-05,3.286969047104204e-09,6.797020289252003e-05,3.286969047104204e-09,0.0001044499804550647,3.286969047104204e-09,0.7149828039467799
3.289566142222752e-09,6.899294835855334e-05,3.289566142222752e-09,6.795074995182579e-05,3.289566142222752e-09,6.796986417811286e-05,3.289566142222752e-09,0.0001021819004154488,3.289566142222752e-09,0.7164256345681954
3.291979650847524e-09,6.779765484654492e-05,3.291979650847524e-09,6.794438710864894e-05,3.291979650847524e-09,6.796091619287538e-05,3.291979650847524e-09,3.270454073995346e-05,3.291979650847524e-09,0.7177664726930687
3.294896761394715e-09,6.663235687913944e-05,3.294896761394715e-09,6.794819729353102e-05,3.294896761394715e-09,6.793290723340956e-05,3.294896761394715e-09,-0.0002635319530922258,3.294896761394715e-09,0.7193870896637302
3.298197196193735e-09,6.100894548938975e-05,3.298197196193735e-09,6.796173155337037e-05,3.298197196193735e-09,6.791765685976842e-05,3.298197196193735e-09,-0.0009385030251570529,3.298197196193735e-09,0.7212206645520749
3.302169200938959e-09,4.979938618955024e-05,3.302169200938959e-09,6.797830687074452e-05,3.302169200938959e-09,6.794705712669106e-05,3.302169200938959e-09,-0.001207731787142186,3.302169200938959e-09,0.7234273338549774
3.304962673437179e-09,4.928142904810728e-05,3.304962673437179e-09,6.796212060637199e-05,3.304962673437179e-09,6.795575333069391e-05,3.304962673437179e-09,-0.0009151069281213237,3.304962673437179e-09,0.7249792630206552
3.307666108879349e-09,5.964289567976258e-05,3.307666108879349e-09,6.794717546514716e-05,3.307666108879349e-09,6.794996299064751e-05,3.307666108879349e-09,-0.0005339613712441128,3.307666108879349e-09,0.7264811715996382
3.310466922891209e-09,8.27411133430092e-05,3.310466922891209e-09,6.795514578128775e-05,3.310466922891209e-09,6.794845570913207e-05,3.310466922891209e-09,-0.0002451431228600883,3.310466922891209e-09,0.7280371793840051
3.313075617101923e-09,0.0001225318629487514,3.313075617101923e-09,6.797569118637539e-05,3.313075617101923e-09,6.79476429774516e-05,3.313075617101923e-09,-0.0003158575208548653,3.313075617101923e-09,0.7294864539455127
3.315488550151526e-09,0.0001896964673757015,3.315488550151526e-09,6.799180616107926e-05,3.315488550151526e-09,6.795316906271136e-05,3.315488550151526e-09,-0.0007882501957523771,3.315488550151526e-09,0.7308269723064035
3.318235202813344e-09,0.0003533988769472392,3.318235202813344e-09,6.797693380248494e-05,3.318235202813344e-09,6.796255385741554e-05,3.318235202813344e-09,-0.00170460582699911,3.318235202813344e-09,0.7323528904518579
3.321381094214408e-09,0.0004062606131868603,3.321381094214408e-09,6.79346816238276e-05,3.321381094214408e-09,6.797704614237001e-05,3.321381094214408e-09,-0.002743867671523391,3.321381094214408e-09,0.7341006078968935
3.324145305512688e-09,-0.002795623093938457,3.324145305512688e-09,6.789808096135572e-05,3.324145305512688e-09,6.797928084814808e-05,3.324145305512688e-09,-0.00338575336577179,3.324145305512688e-09,0.7356362808403821
3.327048674733844e-09,-0.01073036372233884,3.327048674733844e-09,6.787857293369183e-05,3.327048674733844e-09,6.797561193401403e-05,3.327048674733844e-09,-0.003595160889737777,3.327048674733844e-09,0.7372492637410246
3.329986751806773e-09,-0.01154596000887445,3.329986751806773e-09,6.78923559836153e-05,3.329986751806773e-09,6.797023472430984e-05,3.329986751806773e-09,-0.003168608636540412,3.329986751806773e-09,0.7388815287815403
3.332613091520229e-09,0.02122564560280804,3.332613091520229e-09,6.792870657123256e-05,3.332613091520229e-09,6.795974562841103e-05,3.332613091520229e-09,-0.002361690656404081,3.332613091520229e-09,0.7403406064001274
3.335099740936085e-09,0.09846413842944242,3.335099740936085e-09,6.796132766593194e-05,3.335099740936085e-09,6.794361158184711e-05,3.335099740936085e-09,-0.001661230264211049,3.335099740936085e-09,0.7417220782978248
3.337226263278205e-09,0.1921447342838988,3.337226263278205e-09,6.799700172019271e-05,3.337226263278205e-09,6.794693583328045e-05,3.337226263278205e-09,-0.0009534626815851303,3.337226263278205e-09,0.7429034795990027
3.339777268849573e-09,0.3204036446164976,3.339777268849573e-09,6.802352392003124e-05,3.339777268849573e-09,6.795600431959901e-05,3.339777268849573e-09,0.0002095343097067024,3.339777268849573e-09,0.7443207049164295
3.342584470224473e-09,0.4721268477773014,3.342584470224473e-09,6.800650084774246e-05,3.342584470224473e-09,6.794659462469286e-05,3.342584470224473e-09,0.001442580009323215,3.342584470224473e-09,0.7458802612358183
3.345277717154118e-09,0.6114460903321435,3.345277717154118e-09,6.798335736401754e-05,3.345277717154118e-09,6.794367366552786e-05,3.345277717154118e-09,0.002379745592779189,3.345277717154118e-09,0.7473765095300654
3.348142813384799e-09,0.7317244609786761,3.348142813384799e-09,6.796453053524397e-05,3.348142813384799e-09,6.794365711645655e-05,3.348142813384799e-09,0.002932744368594501,3.348142813384799e-09,0.7489682296582216
3.350663740309031e-09,0.8041834254925718,3.350663740309031e-09,6.795897143222984e-05,3.350663740309031e-09,6.794927323646086e-05,3.350663740309031e-09,0.003061629888367157,3.350663740309031e-09,0.7503687446161283
3.353265384777883e-09,0.8681084253771205,3.353265384777883e-09,6.796003202383372e-05,3.353265384777883e-09,6.795678143632443e-05,3.353265384777883e-09,0.002947008845779218,3.353265384777883e-09,0.7518141026543796
3.356105813065306e-09,1.005447850844663,3.356105813065306e-09,6.796085088148583e-05,3.356105813065306e-09,6.796165109153157e-05,3.356105813065306e-09,0.002635823310141713,3.356105813065306e-09,0.7533921183696144
3.358737777647257e-09,1.335142541304118,3.358737777647257e-09,6.796133175384496e-05,3.358737777647257e-09,6.796407452926899e-05,3.358737777647257e-09,0.002266565735086322,3.358737777647257e-09,0.7548543209151428
3.360808047480004e-09,1.841854434781159,3.360808047480004e-09,6.796069253093072e-05,3.360808047480004e-09,6.796444607531234e-05,3.360808047480004e-09,0.001982562346139736,3.360808047480004e-09,0.7560044708222244
3.362779101381771e-09,2.522796126246194,3.362779101381771e-09,6.795944991258153e-05,3.362779101381771e-09,6.796375208981001e-05,3.362779101381771e-09,0.001739300484991753,3.362779101381771e-09,0.7570995007676504
3.364022669605276e-09,3.00104129913457,3.364022669605276e-09,6.795770975468117e-05,3.364022669605276e-09,6.796230613929016e-05,3.364022669605276e-09,0.001598142237100696,3.364022669605276e-09,0.757790372002931
