/net039 X,/net039 Y,/net010 X,/net010 Y,/net09 X,/net09 Y,/net08 X,/net08 Y,/net02 X,/net02 Y
0,6.795643765966285e-05,0,6.795643765972964e-05,0,6.795643778519304e-05,0,6.029561556167545e-05,0,0
1.5e-11,6.795643765973302e-05,1.5e-11,6.79564376597718e-05,1.5e-11,6.795643778513273e-05,1.5e-11,6.029561556191708e-05,1.5e-11,0
4.5e-11,6.79564376596704e-05,4.5e-11,6.795643765967693e-05,4.5e-11,6.795643778519491e-05,4.5e-11,6.029561556186638e-05,4.5e-11,0
1.05e-10,6.795643765979766e-05,1.05e-10,6.795643765987186e-05,1.05e-10,6.795643778485543e-05,1.05e-10,6.029561556185275e-05,1.05e-10,0
2.25e-10,6.795643766302297e-05,2.25e-10,6.795643766260352e-05,2.25e-10,6.79564377812877e-05,2.25e-10,6.029561556156252e-05,2.25e-10,0
4.65e-10,6.795643765645891e-05,4.65e-10,6.795643765711023e-05,4.65e-10,6.795643778775499e-05,4.65e-10,6.029561556203954e-05,4.65e-10,0
7.649999999999999e-10,6.795643766317911e-05,7.649999999999999e-10,6.795643765923731e-05,7.649999999999999e-10,6.795643778452937e-05,7.649999999999999e-10,6.029561556177131e-05,7.649999999999999e-10,0
1.065e-09,6.795643765329575e-05,1.065e-09,6.795643766032913e-05,1.065e-09,6.795643778769943e-05,1.065e-09,6.029561556158333e-05,1.065e-09,0
1.365e-09,6.795643766316761e-05,1.365e-09,6.795643765620185e-05,1.365e-09,6.795643778503714e-05,1.365e-09,6.029561556212362e-05,1.365e-09,0
1.665e-09,6.795643765644519e-05,1.665e-09,6.795643766320818e-05,1.665e-09,6.795643778729995e-05,1.665e-09,6.029561556158923e-05,1.665e-09,0
1.8325e-09,6.795643765987102e-05,1.8325e-09,6.795643765658302e-05,1.8325e-09,6.795643778220538e-05,1.8325e-09,6.0295615562039e-05,1.8325e-09,0
2e-09,6.795643766285687e-05,2e-09,6.795643766302529e-05,2e-09,6.79564377866039e-05,2e-09,6.029561556163793e-05,2e-09,0
2.120144127384571e-09,6.79564376598443e-05,2.120144127384571e-09,6.79564376597949e-05,2.120144127384571e-09,6.795643778540935e-05,2.120144127384571e-09,6.029561556258089e-05,2.120144127384571e-09,0.06674673743587282
2.261585129605973e-09,6.795643766284271e-05,2.261585129605973e-09,6.795643766281929e-05,2.261585129605973e-09,6.795643778435313e-05,2.261585129605973e-09,6.029561553644336e-05,2.261585129605973e-09,0.1453250720033182
2.400273538304042e-09,6.795643765686783e-05,2.400273538304042e-09,6.795643765687654e-05,2.400273538304042e-09,6.795643778767472e-05,2.400273538304042e-09,6.029561567082432e-05,2.400273538304042e-09,0.2223741879466899
2.455693803734392e-09,6.795643766261982e-05,2.455693803734392e-09,6.79564376623632e-05,2.455693803734392e-09,6.795643778127324e-05,2.455693803734392e-09,6.029561497698752e-05,2.455693803734392e-09,0.2531632242968843
2.483403936449567e-09,6.795643765754651e-05,2.483403936449567e-09,6.795643765467472e-05,2.483403936449567e-09,6.795643779153925e-05,2.483403936449567e-09,6.029561747133515e-05,2.483403936449567e-09,0.2685577424719815
2.538824201879917e-09,6.79564376620552e-05,2.538824201879917e-09,6.795643766759125e-05,2.538824201879917e-09,6.79564377743733e-05,2.538824201879917e-09,6.029561314229964e-05,2.538824201879917e-09,0.2993467788221759
2.561274479319937e-09,6.795643765812347e-05,2.561274479319937e-09,6.795643765371271e-05,2.561274479319937e-09,6.79564378042461e-05,2.561274479319937e-09,6.029561791628317e-05,2.561274479319937e-09,0.3118191551777426
2.572499618039947e-09,6.795643766112308e-05,2.572499618039947e-09,6.795643766623378e-05,2.572499618039947e-09,6.795643776407042e-05,2.572499618039947e-09,6.029561583546682e-05,2.572499618039947e-09,0.3180553433555259
2.594949895479967e-09,6.795643765847084e-05,2.594949895479967e-09,6.795643765609801e-05,2.594949895479967e-09,6.795643779547785e-05,2.594949895479967e-09,6.029561407319485e-05,2.594949895479967e-09,0.3305277197110925
2.620191837978972e-09,6.795643766109474e-05,2.620191837978972e-09,6.795643766074799e-05,2.620191837978972e-09,6.795643778661471e-05,2.620191837978972e-09,6.029561749443249e-05,2.620191837978972e-09,0.3445510210994286
2.641152210963083e-09,6.795643765868871e-05,2.641152210963083e-09,6.795643766154941e-05,2.641152210963083e-09,6.795643777291744e-05,2.641152210963083e-09,6.029561362759876e-05,2.641152210963083e-09,0.3561956727572685
2.66183146074195e-09,6.795643765836433e-05,2.66183146074195e-09,6.795643765853749e-05,2.66183146074195e-09,6.79564378047268e-05,2.66183146074195e-09,6.029561720495971e-05,2.66183146074195e-09,0.3676841448566388
2.683150840004468e-09,6.795643765825307e-05,2.683150840004468e-09,6.795643766059937e-05,2.683150840004468e-09,6.795643776558684e-05,2.683150840004468e-09,6.029561428017416e-05,2.683150840004468e-09,0.3795282444469265
2.702706616568054e-09,6.795643766375243e-05,2.702706616568054e-09,6.795643765654002e-05,2.702706616568054e-09,6.795643780358727e-05,2.702706616568054e-09,6.029561647149514e-05,2.702706616568054e-09,0.3903925647600297
2.725850249364579e-09,6.795643765656206e-05,2.725850249364579e-09,6.795643766263779e-05,2.725850249364579e-09,6.795643776725764e-05,2.725850249364579e-09,6.029561491793115e-05,2.725850249364579e-09,0.4032501385358772
2.754017301164045e-09,6.795643766279637e-05,2.754017301164045e-09,6.795643766030742e-05,2.754017301164045e-09,6.795643780324679e-05,2.754017301164045e-09,6.029561602576947e-05,2.754017301164045e-09,0.4188985006466916
2.784554590447844e-09,6.795643765425967e-05,2.784554590447844e-09,6.795643765941072e-05,2.784554590447844e-09,6.795643776811616e-05,2.784554590447844e-09,6.029561523247466e-05,2.784554590447844e-09,0.4358636613599131
2.813120231787406e-09,6.795643766194401e-05,2.813120231787406e-09,6.795643765739444e-05,2.813120231787406e-09,6.795643779885653e-05,2.813120231787406e-09,6.029561577391498e-05,2.813120231787406e-09,0.4517334621041145
2.842920733337416e-09,6.795643765790255e-05,2.842920733337416e-09,6.795643766177693e-05,2.842920733337416e-09,6.795643777521796e-05,2.842920733337416e-09,6.029561543843425e-05,2.842920733337416e-09,0.4682892962985645
2.867243662813183e-09,6.795643766157268e-05,2.867243662813183e-09,6.795643766085839e-05,2.867243662813183e-09,6.795643778927471e-05,2.867243662813183e-09,6.029561560100783e-05,2.867243662813183e-09,0.4818020348962126
2.895154013063992e-09,6.795643766104944e-05,2.895154013063992e-09,6.795643766165956e-05,2.895154013063992e-09,6.795643778380298e-05,2.895154013063992e-09,6.029561557732914e-05,2.895154013063992e-09,0.4973077850355511
2.921094972943659e-09,6.795643765896296e-05,2.921094972943659e-09,6.795643765839183e-05,2.921094972943659e-09,6.795643778494634e-05,2.921094972943659e-09,6.029561550230247e-05,2.921094972943659e-09,0.5117194294131439
2.972976892702993e-09,6.795643766356796e-05,2.972976892702993e-09,6.795643766138895e-05,2.972976892702993e-09,6.795643778477341e-05,2.972976892702993e-09,6.029561563866863e-05,2.972976892702993e-09,0.5405427181683292
3.015534443809187e-09,6.795643765622755e-05,3.015534443809187e-09,6.795643765837876e-05,3.015534443809187e-09,6.795643778707898e-05,3.015534443809187e-09,6.029561546713225e-05,3.015534443809187e-09,0.5641858021162151
3.058952952513367e-09,6.795643766279115e-05,3.058952952513367e-09,6.795643766092494e-05,3.058952952513367e-09,6.795643778280031e-05,3.058952952513367e-09,6.029561567126811e-05,3.058952952513367e-09,0.5883071958407594
3.070072085180829e-09,6.7956437658411e-05,3.070072085180829e-09,6.795643765913392e-05,3.070072085180829e-09,6.795643778453802e-05,3.070072085180829e-09,6.029561541534544e-05,3.070072085180829e-09,0.594484491767127
3.092310350515752e-09,6.79564376613596e-05,3.092310350515752e-09,6.795643765784464e-05,3.092310350515752e-09,6.795643778484152e-05,3.092310350515752e-09,6.029561571602618e-05,3.092310350515752e-09,0.6068390836198623
3.099638279908505e-09,6.795643765924878e-05,3.099638279908505e-09,6.795643766074098e-05,3.099638279908505e-09,6.795643778350477e-05,3.099638279908505e-09,6.029561540093361e-05,3.099638279908505e-09,0.610910155504725
3.114294138694011e-09,6.795643766040398e-05,3.114294138694011e-09,6.795643765877996e-05,3.114294138694011e-09,6.795643778887882e-05,3.114294138694011e-09,6.029561571887989e-05,3.114294138694011e-09,0.6190522992744505
3.118522099332315e-09,6.795643765953608e-05,3.118522099332315e-09,6.795643765963913e-05,3.118522099332315e-09,6.795643778250947e-05,3.118522099332315e-09,6.029561540995779e-05,3.118522099332315e-09,0.6214011662957305
3.126978020608923e-09,6.795643765989122e-05,3.126978020608923e-09,6.79564376572228e-05,3.126978020608923e-09,6.79564377892054e-05,3.126978020608923e-09,6.029561570941101e-05,3.126978020608923e-09,0.6260989003382904
3.135236705323236e-09,6.795643765974263e-05,3.135236705323236e-09,6.795643765937104e-05,3.135236705323236e-09,6.795643778856669e-05,3.135236705323236e-09,6.029561546296365e-05,3.135236705323236e-09,0.6306870585129087
3.143153413132676e-09,6.795643766021281e-05,3.143153413132676e-09,6.795643765921048e-05,3.143153413132676e-09,6.795643778338709e-05,3.143153413132676e-09,6.029561565241751e-05,3.143153413132676e-09,0.635085229518153
3.152074375164484e-09,6.795643765932989e-05,3.152074375164484e-09,6.795643766273637e-05,3.152074375164484e-09,6.795643778328617e-05,3.152074375164484e-09,6.029561547526183e-05,3.152074375164484e-09,0.6400413195358244
3.155201714466583e-09,6.795643766285364e-05,3.155201714466583e-09,6.795643766090975e-05,3.155201714466583e-09,6.795643789864799e-05,3.155201714466583e-09,6.029561616651692e-05,3.155201714466583e-09,0.6417787302592125
3.16145639307078e-09,6.795643765062807e-05,3.16145639307078e-09,6.795643765855734e-05,3.16145639307078e-09,6.795643758345921e-05,3.16145639307078e-09,6.029561458779181e-05,3.16145639307078e-09,0.6452535517059886
3.169463697506178e-09,6.795643761110656e-05,3.169463697506178e-09,6.795643765944899e-05,3.169463697506178e-09,6.795643641830479e-05,3.169463697506178e-09,6.02956081143651e-05,3.169463697506178e-09,0.6497020541700986
3.178072358013644e-09,6.795643773902206e-05,3.178072358013644e-09,6.795643766147698e-05,3.178072358013644e-09,6.795643906233529e-05,3.178072358013644e-09,6.029561785583905e-05,3.178072358013644e-09,0.6544846433409135
3.186324396059567e-09,6.795643914421128e-05,3.186324396059567e-09,6.79564376683524e-05,3.186324396059567e-09,6.795647738087261e-05,3.186324396059567e-09,6.029582722208326e-05,3.186324396059567e-09,0.6590691089219816
3.197057002091419e-09,6.795643615582238e-05,3.197057002091419e-09,6.795643763118697e-05,3.197057002091419e-09,6.795638048123888e-05,3.197057002091419e-09,6.029547292339711e-05,3.197057002091419e-09,0.6650316678285664
3.204665144153495e-09,6.795642184910534e-05,3.204665144153495e-09,6.795643753418262e-05,3.204665144153495e-09,6.795484660572255e-05,3.204665144153495e-09,6.028853365792675e-05,3.204665144153495e-09,0.6692584134186085
3.21231691716667e-09,6.795642521746631e-05,3.21231691716667e-09,6.795643797455334e-05,3.21231691716667e-09,6.795748184950711e-05,3.21231691716667e-09,6.029594962923417e-05,3.21231691716667e-09,0.6735093984259278
3.219485190175816e-09,6.79565174609364e-05,3.219485190175816e-09,6.795643800175882e-05,3.219485190175816e-09,6.796396945360131e-05,3.219485190175816e-09,6.032380546256495e-05,3.219485190175816e-09,0.6774917723198977
3.225448919777865e-09,6.795651442718703e-05,3.225448919777865e-09,6.795643658944374e-05,3.225448919777865e-09,6.794853267153005e-05,3.225448919777865e-09,6.027568314009842e-05,3.225448919777865e-09,0.680804955432147
3.233703843854273e-09,6.795636754537709e-05,3.233703843854273e-09,6.795643837044229e-05,3.233703843854273e-09,6.795444114812006e-05,3.233703843854273e-09,6.029772870611299e-05,3.233703843854273e-09,0.6853910243634849
3.241677192696911e-09,6.795643743635577e-05,3.241677192696911e-09,6.795643706632319e-05,3.241677192696911e-09,6.796068956052381e-05,3.241677192696911e-09,6.030137726589148e-05,3.241677192696911e-09,0.689820662609395
3.248880950531643e-09,6.795637346704883e-05,3.248880950531643e-09,6.795643823512569e-05,3.248880950531643e-09,6.795559232597066e-05,3.248880950531643e-09,6.02920955977785e-05,3.248880950531643e-09,0.6938227502953572
3.256097621772403e-09,6.795615617752039e-05,3.256097621772403e-09,6.795643641277184e-05,3.256097621772403e-09,6.795692308380054e-05,3.256097621772403e-09,6.029038776332108e-05,3.256097621772403e-09,0.6978320120957796
3.262547473131611e-09,6.795601365768762e-05,3.262547473131611e-09,6.795643705224524e-05,3.262547473131611e-09,6.795386355726169e-05,3.262547473131611e-09,6.026341735575009e-05,3.262547473131611e-09,0.7014152628508951
3.268229519093313e-09,6.795176496974877e-05,3.268229519093313e-09,6.795641693764727e-05,3.268229519093313e-09,6.795351573699181e-05,3.268229519093313e-09,6.014933611239696e-05,3.268229519093313e-09,0.7045719550518404
3.272394836744981e-09,6.792741025387056e-05,3.272394836744981e-09,6.795629047343213e-05,3.272394836744981e-09,6.795499782417701e-05,3.272394836744981e-09,5.954729488796669e-05,3.272394836744981e-09,0.7068860204138784
3.276425174567485e-09,6.790874521546775e-05,3.276425174567485e-09,6.79563392256307e-05,3.276425174567485e-09,6.79635767791773e-05,3.276425174567485e-09,5.866860433587944e-05,3.276425174567485e-09,0.7091250969819362
3.280090037868615e-09,6.806780270317025e-05,3.280090037868615e-09,6.795752920191265e-05,3.280090037868615e-09,6.796774379779292e-05,3.280090037868615e-09,6.108103123355729e-05,3.280090037868615e-09,0.7111611321492303
3.283575357145132e-09,6.888011690097571e-05,3.283575357145132e-09,6.796189274853926e-05,3.283575357145132e-09,6.79678235721819e-05,3.283575357145132e-09,7.845326214171485e-05,3.283575357145132e-09,0.7130974206361844
3.286969051172212e-09,6.96203963004033e-05,3.286969051172212e-09,6.796109354279909e-05,3.286969051172212e-09,6.796247255862144e-05,3.286969051172212e-09,0.0001044977644819889,3.286969051172212e-09,0.7149828062067843
3.28956614547264e-09,6.899291611066959e-05,3.28956614547264e-09,6.795071981741291e-05,3.28956614547264e-09,6.79625847421724e-05,3.28956614547264e-09,0.0001015551080942244,3.28956614547264e-09,0.7164256363736891
3.291979654426312e-09,6.77975869000108e-05,3.291979654426312e-09,6.794432177329145e-05,3.291979654426312e-09,6.79549264353714e-05,3.291979654426312e-09,2.90963708415898e-05,3.291979654426312e-09,0.7177664746812842
3.294896765273722e-09,6.663222909291305e-05,3.294896765273722e-09,6.794806624451451e-05,3.294896765273722e-09,6.793333717196849e-05,3.294896765273722e-09,-0.0002775442355709288,3.294896765273722e-09,0.7193870918187343
3.298197197406144e-09,6.100896163473501e-05,3.298197197406144e-09,6.796167994087751e-05,3.298197197406144e-09,6.792728467227073e-05,3.298197197406144e-09,-0.0009718761636349587,3.298197197406144e-09,0.7212206652256355
3.302169197075989e-09,4.979997877247643e-05,3.302169197075989e-09,6.797892826517117e-05,3.302169197075989e-09,6.795736305371116e-05,3.302169197075989e-09,-0.001234295024042568,3.302169197075989e-09,0.7234273317088825
3.304962669628285e-09,4.928143813500611e-05,3.304962669628285e-09,6.796234507798197e-05,3.304962669628285e-09,6.796285020005092e-05,3.304962669628285e-09,-0.0009217050157008577,3.304962669628285e-09,0.7249792609046025
3.307666105011359e-09,5.964242561797565e-05,3.307666105011359e-09,6.79468522162121e-05,3.307666105011359e-09,6.79567644074165e-05,3.307666105011359e-09,-0.0005239182557259084,3.307666105011359e-09,0.7264811694507548
3.310466918802635e-09,8.274082707415059e-05,3.310466918802635e-09,6.795469325176399e-05,3.310466918802635e-09,6.795465884413921e-05,3.310466918802635e-09,-0.0002279785404290617,3.310466918802635e-09,0.7280371771125752
3.313075614203391e-09,0.000122531871548139,3.313075614203391e-09,6.797516900712672e-05,3.313075614203391e-09,6.795205270595562e-05,3.313075614203391e-09,-0.0003074133974392492,3.313075614203391e-09,0.7294864523352173
3.315488547380738e-09,0.000189696720204711,3.315488547380738e-09,6.799150360779096e-05,3.315488547380738e-09,6.795499528105003e-05,3.315488547380738e-09,-0.0008012216527160211,3.315488547380738e-09,0.7308269707670764
3.318235198893147e-09,0.0003533984259937428,3.318235198893147e-09,6.797701594541143e-05,3.318235198893147e-09,6.796022192151023e-05,3.318235198893147e-09,-0.0017483227779776,3.318235198893147e-09,0.7323528882739707
3.321381092682001e-09,0.0004062612846007295,3.321381092682001e-09,6.793533822177518e-05,3.321381092682001e-09,6.796996585231959e-05,3.321381092682001e-09,-0.00280955560055889,3.321381092682001e-09,0.7341006070455561
3.324145303995925e-09,-0.002795607841880892,3.324145303995925e-09,6.789867254221722e-05,3.324145303995925e-09,6.797049120552608e-05,3.324145303995925e-09,-0.0034536224824304,3.324145303995925e-09,0.7356362799977362
3.327048674051904e-09,-0.01073034402230398,3.327048674051904e-09,6.787892604183001e-05,3.327048674051904e-09,6.796835998549882e-05,3.327048674051904e-09,-0.003646862646313335,3.327048674051904e-09,0.7372492633621687
3.329986754748927e-09,-0.01154597223299985,3.329986754748927e-09,6.78924443891964e-05,3.329986754748927e-09,6.796552868668807e-05,3.329986754748927e-09,-0.003185701558084241,3.329986754748927e-09,0.7388815304160704
3.332613092193434e-09,0.02122552889263814,3.332613092193434e-09,6.792841120214978e-05,3.332613092193434e-09,6.795797693705446e-05,3.332613092193434e-09,-0.002342509546686202,3.332613092193434e-09,0.7403406067741299
3.335099740029444e-09,0.09846388504380031,3.335099740029444e-09,6.796052830072144e-05,3.335099740029444e-09,6.794572902701791e-05,3.335099740029444e-09,-0.001621658027434051,3.335099740029444e-09,0.7417220777941357
3.337226262597239e-09,0.1921444637452734,3.337226262597239e-09,6.799663453194441e-05,3.337226262597239e-09,6.79501868771444e-05,3.337226262597239e-09,-0.0008960974631959557,3.337226262597239e-09,0.7429034792206883
3.339777267815292e-09,0.320403357898327,3.339777267815292e-09,6.802353609690169e-05,3.339777267815292e-09,6.795700318353163e-05,3.339777267815292e-09,0.0002910363165833263,3.339777267815292e-09,0.744320704341829
3.342584467245927e-09,0.4721264826820081,3.342584467245927e-09,6.80062611557401e-05,3.342584467245927e-09,6.794778156495661e-05,3.342584467245927e-09,0.00154158587143832,3.342584467245927e-09,0.7458802595810708
3.345277719102902e-09,0.6114460208730867,3.345277719102902e-09,6.798311601158353e-05,3.345277719102902e-09,6.794643557119618e-05,3.345277719102902e-09,0.002481498329576396,3.345277719102902e-09,0.7473765106127233
3.348142816676539e-09,0.7317244746654596,3.348142816676539e-09,6.796430336411734e-05,3.348142816676539e-09,6.794619955309408e-05,3.348142816676539e-09,0.003019574554204443,3.348142816676539e-09,0.7489682314869658
3.350663743567141e-09,0.8041834372584414,3.350663743567141e-09,6.795908045505407e-05,3.350663743567141e-09,6.795062407291163e-05,3.350663743567141e-09,0.003126799753883075,3.350663743567141e-09,0.7503687464261897
3.353265387107813e-09,0.868108424712915,3.353265387107813e-09,6.796032799155038e-05,3.353265387107813e-09,6.795608257533594e-05,3.353265387107813e-09,0.002987035193415725,3.353265387107813e-09,0.7518141039487852
3.356105814002947e-09,1.005447785265703,3.356105814002947e-09,6.79612583355415e-05,3.356105814002947e-09,6.795957845085035e-05,3.356105814002947e-09,0.002650720796075981,3.356105814002947e-09,0.7533921188905259
3.358737778264216e-09,1.335142385986677,3.358737778264216e-09,6.796166565802623e-05,3.358737778264216e-09,6.796165620981191e-05,3.358737778264216e-09,0.002262513329785543,3.358737778264216e-09,0.754854321257898
3.360808047864778e-09,1.841854144714217,3.360808047864778e-09,6.796097933566455e-05,3.360808047864778e-09,6.79622199274585e-05,3.360808047864778e-09,0.001968485031414213,3.360808047864778e-09,0.7560044710359879
3.36277910169253e-09,2.522795759587256,3.36277910169253e-09,6.795961562177151e-05,3.36277910169253e-09,6.796196513642012e-05,3.36277910169253e-09,0.001718862994324642,3.36277910169253e-09,0.7570995009402945
3.364022669928532e-09,3.001040941986563,3.364022669928532e-09,6.795780081571356e-05,3.364022669928532e-09,6.79609548633675e-05,3.364022669928532e-09,0.001575215206732263,3.364022669928532e-09,0.7577903721825179
