/net039 X,/net039 Y,/net010 X,/net010 Y,/net09 X,/net09 Y,/net08 X,/net08 Y,/net02 X,/net02 Y
0,6.795643765968182e-05,0,6.795643765966129e-05,0,6.795643672322416e-05,0,6.073202149902812e-05,0,0
1.5e-11,6.795643765975183e-05,1.5e-11,6.795643765972804e-05,1.5e-11,6.795643672360632e-05,1.5e-11,6.073202149900052e-05,1.5e-11,0
4.5e-11,6.795643765969932e-05,4.5e-11,6.795643765966887e-05,4.5e-11,6.795643672326667e-05,4.5e-11,6.07320214989431e-05,4.5e-11,0
1.05e-10,6.795643765702576e-05,1.05e-10,6.795643765697644e-05,1.05e-10,6.795643672359443e-05,1.05e-10,6.073202149878017e-05,1.05e-10,0
2.25e-10,6.795643766260852e-05,2.25e-10,6.795643766248645e-05,2.25e-10,6.795643672351949e-05,2.25e-10,6.073202149946192e-05,2.25e-10,0
4.65e-10,6.795643765715914e-05,4.65e-10,6.795643765702662e-05,4.65e-10,6.795643672042885e-05,4.65e-10,6.073202149882757e-05,4.65e-10,0
7.649999999999999e-10,6.795643766541678e-05,7.649999999999999e-10,6.795643766212003e-05,7.649999999999999e-10,6.795643672670253e-05,7.649999999999999e-10,6.073202149958778e-05,7.649999999999999e-10,0
1.065e-09,6.795643765411878e-05,1.065e-09,6.795643765444377e-05,1.065e-09,6.795643672079993e-05,1.065e-09,6.073202149891781e-05,1.065e-09,0
1.365e-09,6.795643766533512e-05,1.365e-09,6.795643766192052e-05,1.365e-09,6.795643672594515e-05,1.365e-09,6.073202149923565e-05,1.365e-09,0
1.665e-09,6.795643765435413e-05,1.665e-09,6.795643765778574e-05,1.665e-09,6.795643672140874e-05,1.665e-09,6.073202149913028e-05,1.665e-09,0
1.8325e-09,6.795643766184611e-05,1.8325e-09,6.79564376648544e-05,1.8325e-09,6.795643672576464e-05,1.8325e-09,6.073202149878838e-05,1.8325e-09,0
2e-09,6.795643765779752e-05,2e-09,6.795643765480725e-05,2e-09,6.795643672118722e-05,2e-09,6.073202149926637e-05,2e-09,0
2.120144127384571e-09,6.795643765968455e-05,2.120144127384571e-09,6.795643765971905e-05,2.120144127384571e-09,6.79564367231882e-05,2.120144127384571e-09,6.073202149990581e-05,2.120144127384571e-09,0.06674673743587282
2.261585129605973e-09,6.79564376597971e-05,2.261585129605973e-09,6.795643765691881e-05,2.261585129605973e-09,6.795643672401277e-05,2.261585129605973e-09,6.073202147152112e-05,2.261585129605973e-09,0.1453250720033182
2.400273538304042e-09,6.795643766007249e-05,2.400273538304042e-09,6.795643766216055e-05,2.400273538304042e-09,6.795643672294365e-05,2.400273538304042e-09,6.073202161816758e-05,2.400273538304042e-09,0.2223741879466899
2.455693803734388e-09,6.795643765939487e-05,2.455693803734388e-09,6.795643765755591e-05,2.455693803734388e-09,6.795643672366527e-05,2.455693803734388e-09,6.073202084897217e-05,2.455693803734388e-09,0.253163224296882
2.483403936449561e-09,6.79564376598513e-05,2.483403936449561e-09,6.795643765910894e-05,2.483403936449561e-09,6.795643672922779e-05,2.483403936449561e-09,6.073202364995548e-05,2.483403936449561e-09,0.2685577424719781
2.538824201879906e-09,6.795643766283792e-05,2.538824201879906e-09,6.795643766047435e-05,2.538824201879906e-09,6.795643671340009e-05,2.538824201879906e-09,6.073201876463329e-05,2.538824201879906e-09,0.2993467788221701
2.561274479319915e-09,6.795643765746823e-05,2.561274479319915e-09,6.795643765649575e-05,2.561274479319915e-09,6.795643674526361e-05,2.561274479319915e-09,6.073202415024729e-05,2.561274479319915e-09,0.3118191551777303
2.572499618039919e-09,6.795643766138334e-05,2.572499618039919e-09,6.795643766164604e-05,2.572499618039919e-09,6.795643670630122e-05,2.572499618039919e-09,6.073202190492103e-05,2.572499618039919e-09,0.3180553433555104
2.594949895479927e-09,6.795643765830399e-05,2.594949895479927e-09,6.795643766064865e-05,2.594949895479927e-09,6.795643672737738e-05,2.594949895479927e-09,6.073201969913577e-05,2.594949895479927e-09,0.3305277197110707
2.620191837978955e-09,6.795643766123669e-05,2.620191837978955e-09,6.795643765660381e-05,2.620191837978955e-09,6.795643673338906e-05,2.620191837978955e-09,6.073202377859249e-05,2.620191837978955e-09,0.3445510210994195
2.641152210963063e-09,6.795643765845243e-05,2.641152210963063e-09,6.795643766223706e-05,2.641152210963063e-09,6.795643670228562e-05,2.641152210963063e-09,6.073201927070907e-05,2.641152210963063e-09,0.3561956727572572
2.661831460741952e-09,6.795643766099596e-05,2.661831460741952e-09,6.795643765784776e-05,2.661831460741952e-09,6.795643674771442e-05,2.661831460741952e-09,6.073202334477478e-05,2.661831460741952e-09,0.3676841448566397
2.683150840004473e-09,6.795643765867833e-05,2.683150840004473e-09,6.795643766160299e-05,2.683150840004473e-09,6.795643669918475e-05,2.683150840004473e-09,6.073202009932104e-05,2.683150840004473e-09,0.3795282444469293
2.702706616568066e-09,6.795643765816834e-05,2.702706616568066e-09,6.795643765823462e-05,2.702706616568066e-09,6.795643674567843e-05,2.702706616568066e-09,6.073202245603683e-05,2.702706616568066e-09,0.3903925647600366
2.725850249364578e-09,6.795643766359793e-05,2.725850249364578e-09,6.795643766099708e-05,2.725850249364578e-09,6.795643670424134e-05,2.725850249364578e-09,6.073202084996883e-05,2.725850249364578e-09,0.4032501385358765
2.754017301164065e-09,6.795643765950193e-05,2.754017301164065e-09,6.795643765856118e-05,2.754017301164065e-09,6.79564367377299e-05,2.754017301164065e-09,6.073202194436232e-05,2.754017301164065e-09,0.4188985006467028
2.784554590447876e-09,6.795643766008974e-05,2.784554590447876e-09,6.795643766119212e-05,2.784554590447876e-09,6.795643671073832e-05,2.784554590447876e-09,6.073202120481607e-05,2.784554590447876e-09,0.4358636613599312
2.813120231787433e-09,6.795643765685925e-05,2.813120231787433e-09,6.795643765874847e-05,2.813120231787433e-09,6.79564367341055e-05,2.813120231787433e-09,6.073202166544745e-05,2.813120231787433e-09,0.4517334621041294
2.84292073333745e-09,6.79564376595457e-05,2.84292073333745e-09,6.795643766037808e-05,2.84292073333745e-09,6.795643671752396e-05,2.84292073333745e-09,6.073202142823789e-05,2.84292073333745e-09,0.4682892962985831
2.867243662813192e-09,6.795643766003355e-05,2.867243662813192e-09,6.795643765926683e-05,2.867243662813192e-09,6.79564367283555e-05,2.867243662813192e-09,6.073202148134546e-05,2.867243662813192e-09,0.4818020348962174
2.895154013063999e-09,6.795643765975976e-05,2.895154013063999e-09,6.795643766040985e-05,2.895154013063999e-09,6.795643672270177e-05,2.895154013063999e-09,6.073202157274541e-05,2.895154013063999e-09,0.4973077850355548
2.921094972943664e-09,6.795643765983776e-05,2.921094972943664e-09,6.79564376564166e-05,2.921094972943664e-09,6.795643672407366e-05,2.921094972943664e-09,6.073202138184967e-05,2.921094972943664e-09,0.5117194294131464
2.972976892702993e-09,6.795643765979852e-05,2.972976892702993e-09,6.79564376630627e-05,2.972976892702993e-09,6.795643672296733e-05,2.972976892702993e-09,6.073202163301814e-05,2.972976892702993e-09,0.5405427181683296
3.015534443809206e-09,6.795643765984632e-05,3.015534443809206e-09,6.795643765713154e-05,3.015534443809206e-09,6.79564367241206e-05,3.015534443809206e-09,6.073202134823893e-05,3.015534443809206e-09,0.5641858021162254
3.058952952513386e-09,6.7956437659843e-05,3.058952952513386e-09,6.795643766220751e-05,3.058952952513386e-09,6.79564367232079e-05,3.058952952513386e-09,6.073202166302208e-05,3.058952952513386e-09,0.58830719584077
3.070072085180841e-09,6.795643765951776e-05,3.070072085180841e-09,6.795643765812367e-05,3.070072085180841e-09,6.795643672275018e-05,3.070072085180841e-09,6.073202130589174e-05,3.070072085180841e-09,0.5944844917671339
3.092310350515751e-09,6.795643765992542e-05,3.092310350515751e-09,6.795643766174202e-05,3.092310350515751e-09,6.795643672734802e-05,3.092310350515751e-09,6.073202169655281e-05,3.092310350515751e-09,0.6068390836198619
3.099638279908506e-09,6.795643766000012e-05,3.099638279908506e-09,6.795643765874964e-05,3.099638279908506e-09,6.795643672076522e-05,3.099638279908506e-09,6.073202130710496e-05,3.099638279908506e-09,0.6109101555047256
3.114294138694015e-09,6.79564376597657e-05,3.114294138694015e-09,6.795643765846639e-05,3.114294138694015e-09,6.795643672377833e-05,3.114294138694015e-09,6.073202167964528e-05,3.114294138694015e-09,0.6190522992744529
3.118522099332318e-09,6.795643765787017e-05,3.118522099332318e-09,6.795643765969992e-05,3.118522099332318e-09,6.79564367204027e-05,3.118522099332318e-09,6.073202130605818e-05,3.118522099332318e-09,0.6214011662957324
3.126978020608925e-09,6.795643765898639e-05,3.126978020608925e-09,6.795643765748351e-05,3.126978020608925e-09,6.79564367255999e-05,3.126978020608925e-09,6.073202162765017e-05,3.126978020608925e-09,0.6260989003382914
3.135236705323229e-09,6.795643766218295e-05,3.135236705323229e-09,6.795643766118825e-05,3.135236705323229e-09,6.795643673157377e-05,3.135236705323229e-09,6.073202159065717e-05,3.135236705323229e-09,0.6306870585129051
3.143153413132667e-09,6.795643765623554e-05,3.143153413132667e-09,6.795643765837181e-05,3.143153413132667e-09,6.795643671999129e-05,3.143153413132667e-09,6.073202169873703e-05,3.143153413132667e-09,0.6350852295181481
3.152074375164466e-09,6.795643766207799e-05,3.152074375164466e-09,6.795643766088919e-05,3.152074375164466e-09,6.795643671834226e-05,3.152074375164466e-09,6.07320214081485e-05,3.152074375164466e-09,0.6400413195358143
3.155201714466563e-09,6.795643766300929e-05,3.155201714466563e-09,6.795643766091901e-05,3.155201714466563e-09,6.795643685496114e-05,3.155201714466563e-09,6.073202382637006e-05,3.155201714466563e-09,0.6417787302592016
3.161456393070758e-09,6.795643765023442e-05,3.161456393070758e-09,6.795643765876887e-05,3.161456393070758e-09,6.795643650159539e-05,3.161456393070758e-09,6.073201869704252e-05,3.161456393070758e-09,0.6452535517059764
3.169463697506145e-09,6.795643761102282e-05,3.169463697506145e-09,6.795643765688305e-05,3.169463697506145e-09,6.795643477878562e-05,3.169463697506145e-09,6.073196737771207e-05,3.169463697506145e-09,0.6497020541700809
3.178072358013626e-09,6.795643774226955e-05,3.178072358013626e-09,6.795643766339649e-05,3.178072358013626e-09,6.795643784448158e-05,3.178072358013626e-09,6.073199127997474e-05,3.178072358013626e-09,0.6544846433409033
3.18632439605955e-09,6.795643914442868e-05,3.18632439605955e-09,6.795643767643757e-05,3.18632439605955e-09,6.795649152771729e-05,3.18632439605955e-09,6.073344010540637e-05,3.18632439605955e-09,0.6590691089219723
3.197057002091395e-09,6.795643614274316e-05,3.197057002091395e-09,6.795643761470454e-05,3.197057002091395e-09,6.795637334411409e-05,3.197057002091395e-09,6.073193541429284e-05,3.197057002091395e-09,0.6650316678285531
3.204665144154208e-09,6.79564216390626e-05,3.204665144154208e-09,6.795643732870061e-05,3.204665144154208e-09,6.795425819403353e-05,3.204665144154208e-09,6.067815234610433e-05,3.204665144154208e-09,0.6692584134190044
3.212316916491125e-09,6.795642590109205e-05,3.212316916491125e-09,6.795643865660661e-05,3.212316916491125e-09,6.795713670273129e-05,3.212316916491125e-09,6.068950810691384e-05,3.212316916491125e-09,0.6735093980506249
3.219485189450702e-09,6.795651798069474e-05,3.219485189450702e-09,6.795643852605797e-05,3.219485189450702e-09,6.796675640676264e-05,3.219485189450702e-09,6.093852460255456e-05,3.219485189450702e-09,0.6774917719170569
3.225448915532114e-09,6.795651016313434e-05,3.225448915532114e-09,6.795643232066918e-05,3.225448915532114e-09,6.794937186622876e-05,3.225448915532114e-09,6.077901408687486e-05,3.225448915532114e-09,0.6808049530733965
3.233703840386275e-09,6.795637184502647e-05,3.233703840386275e-09,6.795644267650214e-05,3.233703840386275e-09,6.7951184907519e-05,3.233703840386275e-09,6.060233452321548e-05,3.233703840386275e-09,0.6853910224368194
3.241677187239561e-09,6.795643726198099e-05,3.241677187239561e-09,6.795643688799049e-05,3.241677187239561e-09,6.796071145140946e-05,3.241677187239561e-09,6.072838466391544e-05,3.241677187239561e-09,0.6898206595775336
3.248880945695517e-09,6.795637039892526e-05,3.248880945695517e-09,6.795643516570611e-05,3.248880945695517e-09,6.795651702055262e-05,3.248880945695517e-09,6.072384702104426e-05,3.248880945695517e-09,0.6938227476086205
3.256097616737866e-09,6.795615861823402e-05,3.256097616737866e-09,6.795643885272362e-05,3.256097616737866e-09,6.795715819715214e-05,3.256097616737866e-09,6.07379103367966e-05,3.256097616737866e-09,0.6978320092988142
3.262547469881366e-09,6.795601201899494e-05,3.262547469881366e-09,6.795643541977719e-05,3.262547469881366e-09,6.795327452575532e-05,3.262547469881366e-09,6.064223568116082e-05,3.262547469881366e-09,0.7014152610452035
3.26822951538737e-09,6.795176612774104e-05,3.26822951538737e-09,6.795641808298456e-05,3.26822951538737e-09,6.795169777701271e-05,3.26822951538737e-09,6.043549412648218e-05,3.26822951538737e-09,0.7045719529929835
3.272394833371624e-09,6.792741066485313e-05,3.272394833371624e-09,6.795629084720815e-05,3.272394833371624e-09,6.795305191312605e-05,3.272394833371624e-09,5.979052268620605e-05,3.272394833371624e-09,0.7068860185397913
3.276425170637314e-09,6.790874739185475e-05,3.276425170637314e-09,6.795634142728389e-05,3.276425170637314e-09,6.796379868639781e-05,3.276425170637314e-09,5.903042327791623e-05,3.276425170637314e-09,0.7091250947985077
3.280090034719844e-09,6.806780227779647e-05,3.280090034719844e-09,6.795752923230708e-05,3.280090034719844e-09,6.797164762462082e-05,3.280090034719844e-09,6.166494092100781e-05,3.280090034719844e-09,0.7111611303999131
3.283575353718685e-09,6.88801130813789e-05,3.283575353718685e-09,6.796189015445413e-05,3.283575353718685e-09,6.797450578987454e-05,3.283575353718685e-09,7.922834366584908e-05,3.283575353718685e-09,0.7130974187326026
3.286969047253299e-09,6.962039368435168e-05,3.286969047253299e-09,6.796109100766096e-05,3.286969047253299e-09,6.796976983532793e-05,3.286969047253299e-09,0.0001053694763625495,3.286969047253299e-09,0.7149828040296103
3.289566142342964e-09,6.899291777321831e-05,3.289566142342964e-09,6.795071980619136e-05,3.289566142342964e-09,6.796944937651599e-05,3.289566142342964e-09,0.0001025017102617591,3.289566142342964e-09,0.7164256346349802
3.291979650978247e-09,6.779758966560645e-05,3.291979650978247e-09,6.794432271378919e-05,3.291979650978247e-09,6.796051329964042e-05,3.291979650978247e-09,3.012017754669706e-05,3.291979650978247e-09,0.7177664727656929
3.294896761537825e-09,6.663223131245935e-05,3.294896761537825e-09,6.794806628015905e-05,3.294896761537825e-09,6.793295162832246e-05,3.294896761537825e-09,-0.000276439740597779,3.294896761537825e-09,0.7193870897432361
3.298197192995241e-09,6.10089828231716e-05,3.298197192995241e-09,6.796168765568417e-05,3.298197192995241e-09,6.791838912539893e-05,3.298197192995241e-09,-0.0009703054301734221,3.298197192995241e-09,0.7212206627751336
3.302169198946134e-09,4.979997553785694e-05,3.302169198946134e-09,6.797892615339549e-05,3.302169198946134e-09,6.794831452438944e-05,3.302169198946134e-09,-0.001232021140635723,3.302169198946134e-09,0.7234273327478522
3.304962671239783e-09,4.928142692548262e-05,3.304962671239783e-09,6.796233345613998e-05,3.304962671239783e-09,6.795612572141643e-05,3.304962671239783e-09,-0.0009192525945269768,3.304962671239783e-09,0.7249792617998793
3.307666106921746e-09,5.964240856136579e-05,3.307666106921746e-09,6.794682126935629e-05,3.307666106921746e-09,6.794937428638258e-05,3.307666106921746e-09,-0.0005225482530738099,3.307666106921746e-09,0.7264811705120814
3.310466920356543e-09,8.274084725038339e-05,3.310466920356543e-09,6.795469497662457e-05,3.310466920356543e-09,6.794796917188576e-05,3.310466920356543e-09,-0.000227973260149858,3.310466920356543e-09,0.7280371779758571
3.313075615269116e-09,0.0001225318932900099,3.313075615269116e-09,6.797520071586412e-05,3.313075615269116e-09,6.794733269189867e-05,3.313075615269116e-09,-0.0003081137332658458,3.313075615269116e-09,0.7294864529272869
3.315488548339243e-09,0.0001896967143608358,3.315488548339243e-09,6.799153887405322e-05,3.315488548339243e-09,6.795322318779194e-05,3.315488548339243e-09,-0.0008016654415997081,3.315488548339243e-09,0.7308269712995796
3.318235200356005e-09,0.0003533984851403411,3.318235200356005e-09,6.797704719977113e-05,3.318235200356005e-09,6.796296258946788e-05,3.318235200356005e-09,-0.001747260836036543,3.318235200356005e-09,0.7323528890866695
3.321381093475629e-09,0.0004062613269376511,3.321381093475629e-09,6.793533283544968e-05,3.321381093475629e-09,6.79777389718787e-05,3.321381093475629e-09,-0.002805950763676946,3.321381093475629e-09,0.7341006074864608
3.324145304855239e-09,-0.002795609046621231,3.324145304855239e-09,6.789864290789807e-05,3.324145304855239e-09,6.797953212504437e-05,3.324145304855239e-09,-0.003447954403337185,3.324145304855239e-09,0.7356362804751329
3.327048674819246e-09,-0.01073034603182122,3.327048674819246e-09,6.787887253000042e-05,3.327048674819246e-09,6.797526257742222e-05,3.327048674819246e-09,-0.00364044029970712,3.327048674819246e-09,0.7372492637884698
3.329986754842048e-09,-0.0115459729826513,3.329986754842048e-09,6.789240643412077e-05,3.329986754842048e-09,6.796964971708014e-05,3.329986754842048e-09,-0.003180238857643016,3.329986754842048e-09,0.7388815304678046
3.332613092269198e-09,0.02122552983043719,3.332613092269198e-09,6.79283959567438e-05,3.332613092269198e-09,6.795894103892523e-05,3.332613092269198e-09,-0.002339214932744191,3.332613092269198e-09,0.7403406068162213
3.335099739915549e-09,0.09846388075627691,3.335099739915549e-09,6.796054336426154e-05,3.335099739915549e-09,6.794267467489085e-05,3.335099739915549e-09,-0.001620953497375395,3.335099739915549e-09,0.7417220777308607
3.337226262525958e-09,0.1921444616884267,3.337226262525958e-09,6.799665833640432e-05,3.337226262525958e-09,6.794671148562098e-05,3.337226262525958e-09,-0.0008979202547715843,3.337226262525958e-09,0.7429034791810878
3.339777267601757e-09,0.3204033505287012,3.339777267601757e-09,6.802358056956482e-05,3.339777267601757e-09,6.795654578044036e-05,3.339777267601757e-09,0.0002867235040188518,3.339777267601757e-09,0.7443207042231982
3.342584467159186e-09,0.4721264849208717,3.342584467159186e-09,6.800629646828968e-05,3.342584467159186e-09,6.794670858626867e-05,3.342584467159186e-09,0.001535068194891998,3.342584467159186e-09,0.7458802595328808
3.345277718543665e-09,0.6114460025956434,3.345277718543665e-09,6.798312572780638e-05,3.345277718543665e-09,6.794374852584077e-05,3.345277718543665e-09,0.002473122900325358,3.345277718543665e-09,0.7473765103020363
3.348142816065789e-09,0.7317244600482585,3.348142816065789e-09,6.796432888144626e-05,3.348142816065789e-09,6.794385458512521e-05,3.348142816065789e-09,0.00301053485402005,3.348142816065789e-09,0.7489682311476606
3.350663742997807e-09,0.80418342861488,3.350663742997807e-09,6.795909393786702e-05,3.350663742997807e-09,6.794976822447371e-05,3.350663742997807e-09,0.003118271564266156,3.350663742997807e-09,0.750368746109893
3.353265386534084e-09,0.8681084133658752,3.353265386534084e-09,6.796033119841752e-05,3.353265386534084e-09,6.795733401391867e-05,3.353265386534084e-09,0.002980091893825606,3.353265386534084e-09,0.7518141036300467
3.356105813412648e-09,1.005447754603686,3.356105813412648e-09,6.796124051441903e-05,3.356105813412648e-09,6.796199163174965e-05,3.356105813412648e-09,0.002646125300000147,3.356105813412648e-09,0.7533921185625824
3.358737777768897e-09,1.335142327924091,3.358737777768897e-09,6.7961634040258e-05,3.358737777768897e-09,6.796412497954717e-05,3.358737777768897e-09,0.002260183941239813,3.358737777768897e-09,0.7548543209827208
3.360808047430638e-09,1.841854065453679,3.360808047430638e-09,6.796094684078253e-05,3.360808047430638e-09,6.796431650533079e-05,3.360808047430638e-09,0.001967765736925334,3.360808047430638e-09,0.7560044707947986
3.362779101233308e-09,2.522795651656502,3.362779101233308e-09,6.795958461888942e-05,3.362779101233308e-09,6.796348807226052e-05,3.362779101233308e-09,0.001719416670744723,3.362779101233308e-09,0.7570995006851708
3.364022669480736e-09,3.001040836643082,3.364022669480736e-09,6.795777477640342e-05,3.364022669480736e-09,6.796195611718313e-05,3.364022669480736e-09,0.001576420159952143,3.364022669480736e-09,0.7577903719337424
