/net039 X,/net039 Y,/net010 X,/net010 Y,/net09 X,/net09 Y,/net08 X,/net08 Y,/net02 X,/net02 Y
0,6.795643765976499e-05,0,6.795643765975418e-05,0,6.795643766654008e-05,0,6.086725322272149e-05,0,0
1.5e-11,6.795643765981052e-05,1.5e-11,6.795643765979668e-05,1.5e-11,6.795643766655205e-05,1.5e-11,6.086725322276438e-05,1.5e-11,0
4.5e-11,6.795643765973044e-05,4.5e-11,6.795643765971004e-05,4.5e-11,6.7956437666593e-05,4.5e-11,6.086725322272026e-05,4.5e-11,0
1.05e-10,6.795643765703589e-05,1.05e-10,6.795643765699549e-05,1.05e-10,6.795643766441678e-05,1.05e-10,6.086725322283505e-05,1.05e-10,0
2.25e-10,6.795643766252211e-05,2.25e-10,6.795643766262521e-05,2.25e-10,6.795643767036303e-05,2.25e-10,6.086725322242998e-05,2.25e-10,0
4.65e-10,6.795643766007579e-05,4.65e-10,6.795643765697301e-05,4.65e-10,6.795643765848179e-05,4.65e-10,6.086725322305993e-05,4.65e-10,0
7.649999999999999e-10,6.795643765958168e-05,7.649999999999999e-10,6.795643765941518e-05,7.649999999999999e-10,6.795643767623924e-05,7.649999999999999e-10,6.086725322246811e-05,7.649999999999999e-10,0
1.065e-09,6.795643765986836e-05,1.065e-09,6.795643766024676e-05,1.065e-09,6.795643765883162e-05,1.065e-09,6.086725322293656e-05,1.065e-09,0
1.365e-09,6.795643766293448e-05,1.365e-09,6.795643765936753e-05,1.365e-09,6.795643767297855e-05,1.365e-09,6.086725322256106e-05,1.365e-09,0
1.665e-09,6.795643765661018e-05,1.665e-09,6.795643766025497e-05,1.665e-09,6.795643765868234e-05,1.665e-09,6.086725322291499e-05,1.665e-09,0
1.8325e-09,6.795643766278733e-05,1.8325e-09,6.795643765953031e-05,1.8325e-09,6.795643767311598e-05,1.8325e-09,6.086725322257422e-05,1.8325e-09,0
2e-09,6.795643765694595e-05,2e-09,6.795643766019035e-05,2e-09,6.795643766490627e-05,2e-09,6.086725322282443e-05,2e-09,0
2.120144127384571e-09,6.795643765957267e-05,2.120144127384571e-09,6.79564376597268e-05,2.120144127384571e-09,6.795643766673563e-05,2.120144127384571e-09,6.086725322354205e-05,2.120144127384571e-09,0.06674673743587282
2.261585129605973e-09,6.79564376569337e-05,2.261585129605973e-09,6.795643765991224e-05,2.261585129605973e-09,6.795643766415302e-05,2.261585129605973e-09,6.086725319537492e-05,2.261585129605973e-09,0.1453250720033182
2.400273538304042e-09,6.795643766214456e-05,2.400273538304042e-09,6.795643765988308e-05,2.400273538304042e-09,6.795643766469051e-05,2.400273538304042e-09,6.086725334146744e-05,2.400273538304042e-09,0.2223741879466899
2.455693803734388e-09,6.795643765771854e-05,2.455693803734388e-09,6.795643765956856e-05,2.455693803734388e-09,6.79564376659458e-05,2.455693803734388e-09,6.086725257350409e-05,2.455693803734388e-09,0.253163224296882
2.483403936449561e-09,6.795643766172342e-05,2.483403936449561e-09,6.795643765976411e-05,2.483403936449561e-09,6.795643767499229e-05,2.483403936449561e-09,6.08672553744252e-05,2.483403936449561e-09,0.2685577424719781
2.538824201879906e-09,6.795643765798686e-05,2.538824201879906e-09,6.795643765693534e-05,2.538824201879906e-09,6.795643765530207e-05,2.538824201879906e-09,6.086725048633924e-05,2.538824201879906e-09,0.2993467788221701
2.561274479319911e-09,6.795643766139418e-05,2.561274479319911e-09,6.7956437661876e-05,2.561274479319911e-09,6.795643768841437e-05,2.561274479319911e-09,6.086725587523342e-05,2.561274479319911e-09,0.3118191551777285
2.572499618039914e-09,6.795643765845113e-05,2.572499618039914e-09,6.795643765842095e-05,2.572499618039914e-09,6.795643764828431e-05,2.572499618039914e-09,6.086725362607659e-05,2.572499618039914e-09,0.3180553433555077
2.594949895479919e-09,6.795643766113242e-05,2.594949895479919e-09,6.79564376614134e-05,2.594949895479919e-09,6.795643767269508e-05,2.594949895479919e-09,6.086725142691084e-05,2.594949895479919e-09,0.3305277197110661
2.620191837978914e-09,6.795643765865327e-05,2.620191837978914e-09,6.795643765845659e-05,2.620191837978914e-09,6.795643767337994e-05,2.620191837978914e-09,6.086725549828228e-05,2.620191837978914e-09,0.3445510210993965
2.641152210963018e-09,6.795643766111395e-05,2.641152210963018e-09,6.795643766107658e-05,2.641152210963018e-09,6.795643764940756e-05,2.641152210963018e-09,6.086725099564585e-05,2.641152210963018e-09,0.3561956727572319
2.661831460741931e-09,6.795643765845812e-05,2.661831460741931e-09,6.795643765607635e-05,2.661831460741931e-09,6.795643768905756e-05,2.661831460741931e-09,6.086725507037621e-05,2.661831460741931e-09,0.3676841448566285
2.683150840004464e-09,6.795643766077273e-05,2.683150840004464e-09,6.795643766016482e-05,2.683150840004464e-09,6.795643764290928e-05,2.683150840004464e-09,6.086725181990783e-05,2.683150840004464e-09,0.3795282444469242
2.70270661656805e-09,6.795643765889995e-05,2.70270661656805e-09,6.795643765912026e-05,2.70270661656805e-09,6.795643768678316e-05,2.70270661656805e-09,6.086725418352222e-05,2.70270661656805e-09,0.3903925647600279
2.725850249364569e-09,6.795643766337041e-05,2.725850249364569e-09,6.795643766331543e-05,2.725850249364569e-09,6.795643765048284e-05,2.725850249364569e-09,6.086725256933406e-05,2.725850249364569e-09,0.4032501385358714
2.754017301164035e-09,6.795643765935617e-05,2.754017301164035e-09,6.795643765381431e-05,2.754017301164035e-09,6.795643768252134e-05,2.754017301164035e-09,6.086725367227532e-05,2.754017301164035e-09,0.4188985006466863
2.78455459044783e-09,6.795643766030952e-05,2.78455459044783e-09,6.795643766251879e-05,2.78455459044783e-09,6.795643765147093e-05,2.78455459044783e-09,6.086725292437744e-05,2.78455459044783e-09,0.4358636613599058
2.813120231787393e-09,6.795643765935645e-05,2.813120231787393e-09,6.795643765723513e-05,2.813120231787393e-09,6.795643767817759e-05,2.813120231787393e-09,6.086725339265318e-05,2.813120231787393e-09,0.4517334621041074
2.842920733337399e-09,6.795643765756485e-05,2.842920733337399e-09,6.795643766218295e-05,2.842920733337399e-09,6.795643765564671e-05,2.842920733337399e-09,6.086725314870681e-05,2.842920733337399e-09,0.4682892962985549
2.867243662813176e-09,6.795643765854554e-05,2.867243662813176e-09,6.795643765746857e-05,2.867243662813176e-09,6.795643767666971e-05,2.867243662813176e-09,6.086725320799582e-05,2.867243662813176e-09,0.4818020348962088
2.895154013063991e-09,6.795643766083432e-05,2.895154013063991e-09,6.795643765923561e-05,2.895154013063991e-09,6.795643765954277e-05,2.895154013063991e-09,6.086725329365286e-05,2.895154013063991e-09,0.4973077850355505
2.921094972943654e-09,6.795643765885631e-05,2.921094972943654e-09,6.795643766017558e-05,2.921094972943654e-09,6.795643767082833e-05,2.921094972943654e-09,6.08672531076777e-05,2.921094972943654e-09,0.5117194294131412
2.97297689270298e-09,6.79564376608692e-05,2.97297689270298e-09,6.795643765963394e-05,2.97297689270298e-09,6.79564376613113e-05,2.97297689270298e-09,6.086725335445982e-05,2.97297689270298e-09,0.5405427181683224
3.015534443809156e-09,6.795643765892391e-05,3.015534443809156e-09,6.795643765995253e-05,3.015534443809156e-09,6.795643766951581e-05,3.015534443809156e-09,6.086725307414328e-05,3.015534443809156e-09,0.5641858021161977
3.058952952513337e-09,6.795643766058237e-05,3.058952952513337e-09,6.795643765974643e-05,3.058952952513337e-09,6.795643766276039e-05,3.058952952513337e-09,6.086725338498403e-05,3.058952952513337e-09,0.5883071958407429
3.070072085180799e-09,6.795643765913552e-05,3.070072085180799e-09,6.795643765992147e-05,3.070072085180799e-09,6.795643766679155e-05,3.070072085180799e-09,6.086725302954813e-05,3.070072085180799e-09,0.5944844917671105
3.092310350515722e-09,6.795643765780481e-05,3.092310350515722e-09,6.795643765971336e-05,3.092310350515722e-09,6.795643766791002e-05,3.092310350515722e-09,6.086725342058345e-05,3.092310350515722e-09,0.6068390836198457
3.09963827990848e-09,6.795643766068536e-05,3.09963827990848e-09,6.795643765999884e-05,3.09963827990848e-09,6.795643766597732e-05,3.09963827990848e-09,6.08672530309086e-05,3.09963827990848e-09,0.6109101555047113
3.114294138693996e-09,6.795643766137784e-05,3.114294138693996e-09,6.795643766240896e-05,3.114294138693996e-09,6.79564376663121e-05,3.114294138693996e-09,6.086725340287515e-05,3.114294138693996e-09,0.6190522992744423
3.1185220993323e-09,6.795643765909184e-05,3.1185220993323e-09,6.795643765918167e-05,3.1185220993323e-09,6.795643766401637e-05,3.1185220993323e-09,6.086725302856781e-05,3.1185220993323e-09,0.6214011662957223
3.126978020608908e-09,6.795643766085864e-05,3.126978020608908e-09,6.795643766111611e-05,3.126978020608908e-09,6.795643766871251e-05,3.126978020608908e-09,6.086725335219359e-05,3.126978020608908e-09,0.6260989003382822
3.135236705323211e-09,6.795643765900987e-05,3.135236705323211e-09,6.795643765887068e-05,3.135236705323211e-09,6.795643767589926e-05,3.135236705323211e-09,6.086725331396939e-05,3.135236705323211e-09,0.630687058512895
3.143153413132648e-09,6.795643766095587e-05,3.143153413132648e-09,6.795643765773382e-05,3.143153413132648e-09,6.795643766352146e-05,3.143153413132648e-09,6.08672534212823e-05,3.143153413132648e-09,0.635085229518138
3.152074375164444e-09,6.795643765848863e-05,3.152074375164444e-09,6.795643766096491e-05,3.152074375164444e-09,6.79564376648759e-05,3.152074375164444e-09,6.086725313236699e-05,3.152074375164444e-09,0.6400413195358021
3.155201714466541e-09,6.795643766374322e-05,3.155201714466541e-09,6.795643766079957e-05,3.155201714466541e-09,6.79564378008655e-05,3.155201714466541e-09,6.086725556896325e-05,3.155201714466541e-09,0.6417787302591893
3.161456393070735e-09,6.795643765226176e-05,3.161456393070735e-09,6.795643766099994e-05,3.161456393070735e-09,6.795643743775267e-05,3.161456393070735e-09,6.08672503707259e-05,3.161456393070735e-09,0.6452535517059635
3.169463697506117e-09,6.795643761034833e-05,3.169463697506117e-09,6.795643765792555e-05,3.169463697506117e-09,6.795643567999277e-05,3.169463697506117e-09,6.086719909026909e-05,3.169463697506117e-09,0.6497020541700649
3.178072358013607e-09,6.795643774016908e-05,3.178072358013607e-09,6.795643766275849e-05,3.178072358013607e-09,6.795643879172176e-05,3.178072358013607e-09,6.086722358223863e-05,3.178072358013607e-09,0.6544846433408925
3.186324396059529e-09,6.795643914566222e-05,3.186324396059529e-09,6.795643767435186e-05,3.186324396059529e-09,6.795649368684178e-05,3.186324396059529e-09,6.086867363763215e-05,3.186324396059529e-09,0.6590691089219604
3.197057002091372e-09,6.79564361385083e-05,3.197057002091372e-09,6.795643761359323e-05,3.197057002091372e-09,6.795637336530875e-05,3.197057002091372e-09,6.086715106102579e-05,3.197057002091372e-09,0.6650316678285398
3.20466514415421e-09,6.795642164157617e-05,3.20466514415421e-09,6.795643732923437e-05,3.20466514415421e-09,6.795421142156631e-05,3.20466514415421e-09,6.081329765049759e-05,3.20466514415421e-09,0.6692584134190057
3.212316916465081e-09,6.795642590327647e-05,3.212316916465081e-09,6.795643865611608e-05,3.212316916465081e-09,6.79571319433553e-05,3.212316916465081e-09,6.082532860080473e-05,3.212316916465081e-09,0.6735093980361562
3.219485189422798e-09,6.79565179742451e-05,3.219485189422798e-09,6.795643851584734e-05,3.219485189422798e-09,6.796697859530895e-05,3.219485189422798e-09,6.107442622945054e-05,3.219485189422798e-09,0.6774917719015543
3.225448915368293e-09,6.795651014562745e-05,3.225448915368293e-09,6.795643230434924e-05,3.225448915368293e-09,6.794930740957406e-05,3.225448915368293e-09,6.091198416395941e-05,3.225448915368293e-09,0.6808049529823851
3.233703840252423e-09,6.795637191435348e-05,3.233703840252423e-09,6.795644274369331e-05,3.233703840252423e-09,6.795101466460529e-05,3.233703840252423e-09,6.073950001527951e-05,3.233703840252423e-09,0.6853910223624573
3.241677187028639e-09,6.795643714498819e-05,3.241677187028639e-09,6.795643677002782e-05,3.241677187028639e-09,6.796081563769453e-05,3.241677187028639e-09,6.08637461789917e-05,3.241677187028639e-09,0.6898206594603548
3.248880945508584e-09,6.795637050072336e-05,3.248880945508584e-09,6.795643526676642e-05,3.248880945508584e-09,6.795650373511483e-05,3.248880945508584e-09,6.085814130155285e-05,3.248880945508584e-09,0.6938227475047689
3.256097616543197e-09,6.79561585760284e-05,3.256097616543197e-09,6.795643881349999e-05,3.256097616543197e-09,6.795717729816337e-05,3.256097616543197e-09,6.087260499690957e-05,3.256097616543197e-09,0.6978320091906649
3.262547469755631e-09,6.79560120149471e-05,3.262547469755631e-09,6.795643541196204e-05,3.262547469755631e-09,6.795320290586113e-05,3.262547469755631e-09,6.07768918676822e-05,3.262547469755631e-09,0.7014152609753506
3.268229515244012e-09,6.795176614438563e-05,3.268229515244012e-09,6.795641810524796e-05,3.268229515244012e-09,6.795157690257623e-05,3.268229515244012e-09,6.057122841536681e-05,3.268229515244012e-09,0.7045719529133403
3.272394833241063e-09,6.792741063784789e-05,3.272394833241063e-09,6.795629081572745e-05,3.272394833241063e-09,6.795294022843699e-05,3.272394833241063e-09,5.992650167875444e-05,3.272394833241063e-09,0.7068860184672573
3.276425170485208e-09,6.790874742770113e-05,3.276425170485208e-09,6.795634146656337e-05,3.276425170485208e-09,6.796388563275836e-05,3.276425170485208e-09,5.916796810056143e-05,3.276425170485208e-09,0.7091250947140045
3.280090034597946e-09,6.80678022001089e-05,3.280090034597946e-09,6.795752916797219e-05,3.280090034597946e-09,6.797195671588958e-05,3.280090034597946e-09,6.18016378584037e-05,3.280090034597946e-09,0.7111611303321923
3.283575353585753e-09,6.8880113091395e-05,3.283575353585753e-09,6.796189021413228e-05,3.283575353585753e-09,6.797490751959693e-05,3.283575353585753e-09,7.936609002580109e-05,3.283575353585753e-09,0.7130974186587518
3.286969047101112e-09,6.962039370898188e-05,3.286969047101112e-09,6.7961091031069e-05,3.286969047101112e-09,6.797015923781959e-05,3.286969047101112e-09,0.0001055101716388384,3.286969047101112e-09,0.714982803945062
3.289566142220314e-09,6.899291783690645e-05,3.289566142220314e-09,6.795071980663435e-05,3.289566142220314e-09,6.796985301568802e-05,3.289566142220314e-09,0.0001026453138265409,3.289566142220314e-09,0.7164256345668409
3.291979650844551e-09,6.779758946417738e-05,3.291979650844551e-09,6.794432244649734e-05,3.291979650844551e-09,6.796087530766785e-05,3.291979650844551e-09,3.025738068852549e-05,3.291979650844551e-09,0.7177664726914171
3.294896761391989e-09,6.66322309948667e-05,3.294896761391989e-09,6.794806586420292e-05,3.294896761391989e-09,6.793284617641235e-05,3.294896761391989e-09,-0.0002763296582173266,3.294896761391989e-09,0.7193870896622161
3.298197192816359e-09,6.100898293200952e-05,3.298197192816359e-09,6.796168690004637e-05,3.298197192816359e-09,6.791777976976327e-05,3.298197192816359e-09,-0.0009702802228774837,3.298197192816359e-09,0.7212206626757552
3.302169199012188e-09,4.979997689871448e-05,3.302169199012188e-09,6.797892723818605e-05,3.302169199012188e-09,6.794737793993238e-05,3.302169199012188e-09,-0.001232082664818679,3.302169199012188e-09,0.7234273327845492
3.304962671293318e-09,4.928143015546801e-05,3.304962671293318e-09,6.796233748183832e-05,3.304962671293318e-09,6.795549945146876e-05,3.304962671293318e-09,-0.000919222703502666,3.304962671293318e-09,0.724979261829621
3.307666106986166e-09,5.964240653748411e-05,3.307666106986166e-09,6.794682036988684e-05,3.307666106986166e-09,6.794936969777457e-05,3.307666106986166e-09,-0.0005224446955261816,3.307666106986166e-09,0.7264811705478702
3.310466920404603e-09,8.27408460963463e-05,3.310466920404603e-09,6.795469356502452e-05,3.310466920404603e-09,6.794828687496078e-05,3.310466920404603e-09,-0.0002277883670923624,3.310466920404603e-09,0.7280371780025572
3.313075615298641e-09,0.0001225318933641688,3.313075615298641e-09,6.797519847039031e-05,3.313075615298641e-09,6.794778131339208e-05,3.313075615298641e-09,-0.0003079143653895922,3.313075615298641e-09,0.7294864529436894
3.3154885483642e-09,0.0001896967160985984,3.3154885483642e-09,6.799153615851436e-05,3.3154885483642e-09,6.795362072819224e-05,3.3154885483642e-09,-0.0008015160308108116,3.3154885483642e-09,0.7308269713134441
3.318235200398398e-09,0.0003533984892900895,3.318235200398398e-09,6.797704616754287e-05,3.318235200398398e-09,6.796310530424051e-05,3.318235200398398e-09,-0.001747250129769828,3.318235200398398e-09,0.7323528891102212
3.321381093498449e-09,0.0004062613210548732,3.321381093498449e-09,6.79353339339714e-05,3.321381093498449e-09,6.797742133263262e-05,3.321381093498449e-09,-0.002806110237765396,3.321381093498449e-09,0.7341006074991382
3.324145304880563e-09,-0.002795609056110382,3.324145304880563e-09,6.789864681560046e-05,3.324145304880563e-09,6.797909250048855e-05,3.324145304880563e-09,-0.003448189726924954,3.324145304880563e-09,0.7356362804892017
3.32704867484824e-09,-0.01073034602413299,3.32704867484824e-09,6.787887453562292e-05,3.32704867484824e-09,6.79750089620255e-05,3.32704867484824e-09,-0.003640680748060622,3.32704867484824e-09,0.737249263804578
3.329986754887473e-09,-0.01154597288757577,3.329986754887473e-09,6.789240852245554e-05,3.329986754887473e-09,6.7969635768661e-05,3.329986754887473e-09,-0.003180373553574917,3.329986754887473e-09,0.7388815304930405
3.332613092314092e-09,0.02122553014762596,3.332613092314092e-09,6.792839620027789e-05,3.332613092314092e-09,6.795921881218628e-05,3.332613092314092e-09,-0.002339172087128804,3.332613092314092e-09,0.7403406068411624
3.335099739948178e-09,0.09846388087567105,3.335099739948178e-09,6.796054173821826e-05,3.335099739948178e-09,6.794330771256455e-05,3.335099739948178e-09,-0.001620730223387152,3.335099739948178e-09,0.7417220777489879
3.337226262557175e-09,0.1921444617635287,3.337226262557175e-09,6.79966534775181e-05,3.337226262557175e-09,6.794724425398094e-05,3.337226262557175e-09,-0.0008976225368995024,3.337226262557175e-09,0.7429034791984304
3.33977726764103e-09,0.3204033510386037,3.33977726764103e-09,6.802358669519633e-05,3.33977726764103e-09,6.795666098880339e-05,3.33977726764103e-09,0.0002874219019092253,3.33977726764103e-09,0.7443207042450166
3.342584467170001e-09,0.472126483880912,3.342584467170001e-09,6.800628741621545e-05,3.342584467170001e-09,6.794686423655979e-05,3.342584467170001e-09,0.00153586388814763,3.342584467170001e-09,0.7458802595388895
3.345277718553672e-09,0.6114460016523239,3.345277718553672e-09,6.798312133681179e-05,3.345277718553672e-09,6.794397799876664e-05,3.345277718553672e-09,0.002473927056403286,3.345277718553672e-09,0.7473765103075957
3.348142816137768e-09,0.7317244614741243,3.348142816137768e-09,6.796433222818221e-05,3.348142816137768e-09,6.794398905022664e-05,3.348142816137768e-09,0.003011343951797017,3.348142816137768e-09,0.748968231187649
3.350663743054912e-09,0.8041834292314802,3.350663743054912e-09,6.795909119627002e-05,3.350663743054912e-09,6.794968257002735e-05,3.350663743054912e-09,0.003118967406335656,3.350663743054912e-09,0.7503687461416179
3.353265386581831e-09,0.8681084139330653,3.353265386581831e-09,6.796033539216129e-05,3.353265386581831e-09,6.795700936171208e-05,3.353265386581831e-09,0.002980685337239541,3.353265386581831e-09,0.7518141036565728
3.356105813469305e-09,1.00544775697781,3.356105813469305e-09,6.79612400966275e-05,3.356105813469305e-09,6.796156897242345e-05,3.356105813469305e-09,0.002646545067915256,3.356105813469305e-09,0.7533921185940581
3.358737777815503e-09,1.335142331948939,3.358737777815503e-09,6.796163781730153e-05,3.358737777815503e-09,6.796373856084399e-05,3.358737777815503e-09,0.002260483647120654,3.358737777815503e-09,0.7548543210086126
3.360808047473505e-09,1.841854071201666,3.360808047473505e-09,6.796094717058082e-05,3.360808047473505e-09,6.796401304252987e-05,3.360808047473505e-09,0.001967954927331791,3.360808047473505e-09,0.7560044708186137
3.362779101277081e-09,2.522795659217435,3.362779101277081e-09,6.795958718511008e-05,3.362779101277081e-09,6.796328630498276e-05,3.362779101277081e-09,0.001719550205030723,3.362779101277081e-09,0.7570995007094893
3.364022669524909e-09,3.001040844497868,3.364022669524909e-09,6.795777547288632e-05,3.364022669524909e-09,6.796183637965136e-05,3.364022669524909e-09,0.001576506626905731,3.364022669524909e-09,0.7577903719582828
