/net039 X,/net039 Y,/net010 X,/net010 Y,/net09 X,/net09 Y,/net08 X,/net08 Y,/net02 X,/net02 Y
0,6.795643765966803e-05,0,6.79564376597248e-05,0,6.795643765600746e-05,0,6.086599126704721e-05,0,0
1.5e-11,6.795643765973794e-05,1.5e-11,6.795643765979148e-05,1.5e-11,6.795643765610679e-05,1.5e-11,6.08659912671044e-05,1.5e-11,0
4.5e-11,6.795643765968552e-05,4.5e-11,6.795643765972999e-05,4.5e-11,6.795643765596398e-05,4.5e-11,6.086599126711439e-05,4.5e-11,0
1.05e-10,6.795643765701183e-05,1.05e-10,6.795643765709451e-05,1.05e-10,6.795643765555653e-05,1.05e-10,6.086599126708677e-05,1.05e-10,0
2.25e-10,6.795643765954269e-05,2.25e-10,6.795643766262844e-05,2.25e-10,6.795643765520301e-05,2.25e-10,6.086599126733018e-05,2.25e-10,0
4.65e-10,6.7956437657218e-05,4.65e-10,6.79564376601399e-05,4.65e-10,6.795643765904633e-05,4.65e-10,6.086599126696483e-05,4.65e-10,0
7.649999999999999e-10,6.795643766210314e-05,7.649999999999999e-10,6.795643765926293e-05,7.649999999999999e-10,6.795643765194834e-05,7.649999999999999e-10,6.086599126725735e-05,7.649999999999999e-10,0
1.065e-09,6.795643765758251e-05,1.065e-09,6.795643766037349e-05,1.065e-09,6.795643765899345e-05,1.065e-09,6.086599126709182e-05,1.065e-09,0
1.365e-09,6.795643766506654e-05,1.365e-09,6.795643765608059e-05,1.365e-09,6.795643765510002e-05,1.365e-09,6.0865991267166e-05,1.365e-09,0
1.665e-09,6.795643765455993e-05,1.665e-09,6.795643766022914e-05,1.665e-09,6.795643765898506e-05,1.665e-09,6.086599126716433e-05,1.665e-09,0
1.8325e-09,6.795643766807126e-05,1.8325e-09,6.795643765957846e-05,1.8325e-09,6.795643765216079e-05,1.8325e-09,6.086599126719117e-05,1.8325e-09,0
2e-09,6.79564376514845e-05,2e-09,6.795643765685848e-05,2e-09,6.795643766186844e-05,2e-09,6.086599126714982e-05,2e-09,0
2.120144127384571e-09,6.795643765959322e-05,2.120144127384571e-09,6.795643765976169e-05,2.120144127384571e-09,6.795643765598761e-05,2.120144127384571e-09,6.086599126798357e-05,2.120144127384571e-09,0.06674673743587282
2.261585129605973e-09,6.795643765681643e-05,2.261585129605973e-09,6.795643765993917e-05,2.261585129605973e-09,6.795643765258928e-05,2.261585129605973e-09,6.086599124012076e-05,2.261585129605973e-09,0.1453250720033182
2.400273538304042e-09,6.79564376626356e-05,2.400273538304042e-09,6.795643765658038e-05,2.400273538304042e-09,6.795643765816969e-05,2.400273538304042e-09,6.086599138561413e-05,2.400273538304042e-09,0.2223741879466899
2.455693803734389e-09,6.795643765734489e-05,2.455693803734389e-09,6.795643766014612e-05,2.455693803734389e-09,6.795643765529128e-05,2.455693803734389e-09,6.086599061789366e-05,2.455693803734389e-09,0.2531632242968827
2.483403936449563e-09,6.795643766195694e-05,2.483403936449563e-09,6.795643765928158e-05,2.483403936449563e-09,6.795643766221395e-05,2.483403936449563e-09,6.086599341899064e-05,2.483403936449563e-09,0.2685577424719792
2.53882420187991e-09,6.795643765768938e-05,2.53882420187991e-09,6.795643766032016e-05,2.53882420187991e-09,6.795643764392656e-05,2.53882420187991e-09,6.086598853066785e-05,2.53882420187991e-09,0.2993467788221722
2.561274479319913e-09,6.795643765891506e-05,2.561274479319913e-09,6.795643765665282e-05,2.561274479319913e-09,6.795643767877751e-05,2.561274479319913e-09,6.086599392011189e-05,2.561274479319913e-09,0.3118191551777297
2.572499618039915e-09,6.79564376601728e-05,2.572499618039915e-09,6.795643766161147e-05,2.572499618039915e-09,6.795643763508556e-05,2.572499618039915e-09,6.086599166967376e-05,2.572499618039915e-09,0.3180553433555084
2.594949895479919e-09,6.795643765961635e-05,2.594949895479919e-09,6.795643765814608e-05,2.594949895479919e-09,6.795643766212419e-05,2.594949895479919e-09,6.086598947167677e-05,2.594949895479919e-09,0.3305277197110659
2.620191837978939e-09,6.795643765994481e-05,2.620191837978939e-09,6.795643765860486e-05,2.620191837978939e-09,6.795643766312952e-05,2.620191837978939e-09,6.086599354253124e-05,2.620191837978939e-09,0.3445510210994107
2.641152210963044e-09,6.79564376598119e-05,2.641152210963044e-09,6.795643766062698e-05,2.641152210963044e-09,6.79564376358864e-05,2.641152210963044e-09,6.086598903997901e-05,2.641152210963044e-09,0.3561956727572464
2.661831460741945e-09,6.795643766246918e-05,2.661831460741945e-09,6.795643765653472e-05,2.661831460741945e-09,6.795643768118409e-05,2.661831460741945e-09,6.086599311449144e-05,2.661831460741945e-09,0.3676841448566361
2.683150840004466e-09,6.795643765771555e-05,2.683150840004466e-09,6.79564376627012e-05,2.683150840004466e-09,6.79564376306094e-05,2.683150840004466e-09,6.086598986407975e-05,2.683150840004466e-09,0.3795282444469256
2.702706616568062e-09,6.795643766166889e-05,2.702706616568062e-09,6.795643765730407e-05,2.702706616568062e-09,6.795643767780133e-05,2.702706616568062e-09,6.086599222808538e-05,2.702706616568062e-09,0.3903925647600345
2.725850249364563e-09,6.79564376579506e-05,2.725850249364563e-09,6.795643765927579e-05,2.725850249364563e-09,6.795643763838922e-05,2.725850249364563e-09,6.086599061385025e-05,2.725850249364563e-09,0.4032501385358682
2.754017301164049e-09,6.795643766149235e-05,2.754017301164049e-09,6.79564376602301e-05,2.754017301164049e-09,6.795643766754923e-05,2.754017301164049e-09,6.086599171654076e-05,2.754017301164049e-09,0.4188985006466938
2.78455459044785e-09,6.795643765831487e-05,2.78455459044785e-09,6.795643765947118e-05,2.78455459044785e-09,6.7956437647857e-05,2.78455459044785e-09,6.086599096921025e-05,2.78455459044785e-09,0.4358636613599168
2.813120231787418e-09,6.795643766104457e-05,2.813120231787418e-09,6.795643766012725e-05,2.813120231787418e-09,6.795643766464218e-05,2.813120231787418e-09,6.086599143646214e-05,2.813120231787418e-09,0.4517334621041214
2.842920733337412e-09,6.795643765865552e-05,2.842920733337412e-09,6.795643766244217e-05,2.842920733337412e-09,6.795643765104077e-05,2.842920733337412e-09,6.086599119396674e-05,2.842920733337412e-09,0.4682892962985619
2.867243662813153e-09,6.795643766080881e-05,2.867243662813153e-09,6.795643766051126e-05,2.867243662813153e-09,6.79564376586353e-05,2.867243662813153e-09,6.086599125234753e-05,2.867243662813153e-09,0.4818020348961963
2.895154013063967e-09,6.795643765887987e-05,2.895154013063967e-09,6.795643765968993e-05,2.895154013063967e-09,6.795643765353942e-05,2.895154013063967e-09,6.086599133838564e-05,2.895154013063967e-09,0.4973077850355374
2.921094972943626e-09,6.795643766047488e-05,2.921094972943626e-09,6.795643765725345e-05,2.921094972943626e-09,6.795643765654558e-05,2.921094972943626e-09,6.086599115214156e-05,2.921094972943626e-09,0.5117194294131256
2.972976892702944e-09,6.795643765931024e-05,2.972976892702944e-09,6.795643766522563e-05,2.972976892702944e-09,6.795643765455157e-05,2.972976892702944e-09,6.086599139913126e-05,2.972976892702944e-09,0.5405427181683023
3.015534443809141e-09,6.795643766025083e-05,3.015534443809141e-09,6.795643765792395e-05,3.015534443809141e-09,6.795643765893821e-05,3.015534443809141e-09,6.086599111815259e-05,3.015534443809141e-09,0.5641858021161895
3.058952952513329e-09,6.795643765940219e-05,3.058952952513329e-09,6.79564376617069e-05,3.058952952513329e-09,6.795643765541741e-05,3.058952952513329e-09,6.086599142949789e-05,3.058952952513329e-09,0.5883071958407383
3.070072085180782e-09,6.795643765782804e-05,3.070072085180782e-09,6.795643765836885e-05,3.070072085180782e-09,6.795643765713147e-05,3.070072085180782e-09,6.086599107413873e-05,3.070072085180782e-09,0.5944844917671008
3.092310350515687e-09,6.795643765872759e-05,3.092310350515687e-09,6.7956437661104e-05,3.092310350515687e-09,6.795643765747218e-05,3.092310350515687e-09,6.086599146468985e-05,3.092310350515687e-09,0.6068390836198261
3.09963827990845e-09,6.795643766037966e-05,3.09963827990845e-09,6.795643765919716e-05,3.09963827990845e-09,6.795643765378977e-05,3.09963827990845e-09,6.08659910749008e-05,3.09963827990845e-09,0.6109101555046945
3.114294138693977e-09,6.795643765900973e-05,3.114294138693977e-09,6.79564376608608e-05,3.114294138693977e-09,6.795643765975366e-05,3.114294138693977e-09,6.086599144790851e-05,3.114294138693977e-09,0.6190522992744315
3.118522099332281e-09,6.795643766002626e-05,3.118522099332281e-09,6.795643765935667e-05,3.118522099332281e-09,6.795643764969632e-05,3.118522099332281e-09,6.086599107221181e-05,3.118522099332281e-09,0.6214011662957115
3.126978020608889e-09,6.795643765918812e-05,3.126978020608889e-09,6.795643766057397e-05,3.126978020608889e-09,6.795643766056496e-05,3.126978020608889e-09,6.086599139765059e-05,3.126978020608889e-09,0.6260989003382714
3.13523670532318e-09,6.795643766032161e-05,3.13523670532318e-09,6.795643765916584e-05,3.13523670532318e-09,6.795643766328623e-05,3.13523670532318e-09,6.086599135787111e-05,3.13523670532318e-09,0.6306870585128775
3.14315341313262e-09,6.795643765954593e-05,3.14315341313262e-09,6.795643765983011e-05,3.14315341313262e-09,6.795643764969959e-05,3.14315341313262e-09,6.086599146605006e-05,3.14315341313262e-09,0.6350852295181221
3.152074375164401e-09,6.795643765996404e-05,3.152074375164401e-09,6.79564376596474e-05,3.152074375164401e-09,6.795643765337374e-05,3.152074375164401e-09,6.086599117611307e-05,3.152074375164401e-09,0.6400413195357783
3.155201714466497e-09,6.795643766318644e-05,3.155201714466497e-09,6.795643766157728e-05,3.155201714466497e-09,6.79564377889856e-05,3.155201714466497e-09,6.086599361278294e-05,3.155201714466497e-09,0.6417787302591649
3.161456393070689e-09,6.795643765175336e-05,3.161456393070689e-09,6.795643766059262e-05,3.161456393070689e-09,6.795643742938407e-05,3.161456393070689e-09,6.086598841570471e-05,3.161456393070689e-09,0.6452535517059383
3.169463697506052e-09,6.795643760787955e-05,3.169463697506052e-09,6.795643765582902e-05,3.169463697506052e-09,6.79564356639106e-05,3.169463697506052e-09,6.086593714462042e-05,3.169463697506052e-09,0.649702054170029
3.178072358013574e-09,6.795643774194412e-05,3.178072358013574e-09,6.795643766418106e-05,3.178072358013574e-09,6.795643878236553e-05,3.178072358013574e-09,6.08659616381154e-05,3.178072358013574e-09,0.6544846433408743
3.18632439605949e-09,6.795643914479583e-05,3.18632439605949e-09,6.795643767110553e-05,3.18632439605949e-09,6.795649367300211e-05,3.18632439605949e-09,6.08674114182255e-05,3.18632439605949e-09,0.6590691089219389
3.197057002091321e-09,6.795643614044513e-05,3.197057002091321e-09,6.79564376157327e-05,3.197057002091321e-09,6.795637335322427e-05,3.197057002091321e-09,6.086588898383912e-05,3.197057002091321e-09,0.6650316678285114
3.204665144154147e-09,6.795642164237116e-05,3.204665144154147e-09,6.795643732766799e-05,3.204665144154147e-09,6.795421151430516e-05,3.204665144154147e-09,6.081204571980624e-05,3.204665144154147e-09,0.6692584134189707
3.212316916465232e-09,6.79564259029884e-05,3.212316916465232e-09,6.79564386593585e-05,3.212316916465232e-09,6.795713209503969e-05,3.212316916465232e-09,6.082408137252182e-05,3.212316916465232e-09,0.6735093980362398
3.21948518942295e-09,6.795651797596263e-05,3.21948518942295e-09,6.795643851597081e-05,3.21948518942295e-09,6.796697825934417e-05,3.21948518942295e-09,6.10731267996655e-05,3.21948518942295e-09,0.6774917719016391
3.225448915369485e-09,6.795651014554145e-05,3.225448915369485e-09,6.795643230329383e-05,3.225448915369485e-09,6.794930696026926e-05,3.225448915369485e-09,6.09106735798183e-05,3.225448915369485e-09,0.680804952983047
3.233703840253417e-09,6.795637191463583e-05,3.233703840253417e-09,6.795644274437927e-05,3.233703840253417e-09,6.795101489114955e-05,3.233703840253417e-09,6.073826198709798e-05,3.233703840253417e-09,0.6853910223630092
3.24167718703018e-09,6.795643714217361e-05,3.24167718703018e-09,6.795643676912965e-05,3.24167718703018e-09,6.796081582919311e-05,3.24167718703018e-09,6.086251765624744e-05,3.24167718703018e-09,0.6898206594612114
3.248880945509952e-09,6.795637050210839e-05,3.248880945509952e-09,6.795643526739482e-05,3.248880945509952e-09,6.79565038284931e-05,3.248880945509952e-09,6.085688930857211e-05,3.248880945509952e-09,0.6938227475055289
3.256097616544599e-09,6.795615857766142e-05,3.256097616544599e-09,6.7956438813704e-05,3.256097616544599e-09,6.795717730173285e-05,3.256097616544599e-09,6.087134357368226e-05,3.256097616544599e-09,0.6978320091914437
3.26254746975653e-09,6.79560120143287e-05,3.26254746975653e-09,6.795643541380961e-05,3.26254746975653e-09,6.795320299305187e-05,3.26254746975653e-09,6.077563905482753e-05,3.26254746975653e-09,0.7014152609758499
3.268229515245036e-09,6.795176614481846e-05,3.268229515245036e-09,6.795641810468791e-05,3.268229515245036e-09,6.795157725355798e-05,3.268229515245036e-09,6.057000046497899e-05,3.268229515245036e-09,0.7045719529139086
3.272394833241992e-09,6.792741063674226e-05,3.272394833241992e-09,6.795629081442504e-05,3.272394833241992e-09,6.795294075798127e-05,3.272394833241992e-09,5.992529115671121e-05,3.272394833241992e-09,0.7068860184677735
3.276425170486291e-09,6.790874742752371e-05,3.276425170486291e-09,6.795634146534898e-05,3.276425170486291e-09,6.796388606069208e-05,3.276425170486291e-09,5.916674173816315e-05,3.276425170486291e-09,0.7091250947146061
3.280090034598814e-09,6.80678021974508e-05,3.280090034598814e-09,6.795752916957158e-05,3.280090034598814e-09,6.797195659806362e-05,3.280090034598814e-09,6.180035494590279e-05,3.280090034598814e-09,0.7111611303326741
3.283575353586701e-09,6.888011309463793e-05,3.283575353586701e-09,6.796189021554085e-05,3.283575353586701e-09,6.797490674439526e-05,3.283575353586701e-09,7.936473349250668e-05,3.283575353586701e-09,0.7130974186592782
3.286969047102198e-09,6.962039370908392e-05,3.286969047102198e-09,6.796109103120521e-05,3.286969047102198e-09,6.79701577799304e-05,3.286969047102198e-09,0.0001055087154256363,3.286969047102198e-09,0.7149828039456653
3.289566142221191e-09,6.899291783855687e-05,3.289566142221191e-09,6.795071980685828e-05,3.289566142221191e-09,6.796985111620216e-05,3.289566142221191e-09,0.0001026437563331089,3.289566142221191e-09,0.7164256345673282
3.291979650845509e-09,6.779758946286737e-05,3.291979650845509e-09,6.794432244650123e-05,3.291979650845509e-09,6.796087300173889e-05,3.291979650845509e-09,3.025572388160721e-05,3.291979650845509e-09,0.7177664726919496
3.294896761393026e-09,6.663223099494191e-05,3.294896761393026e-09,6.794806586512449e-05,3.294896761393026e-09,6.793284404789855e-05,3.294896761393026e-09,-0.0002763313990440579,3.294896761393026e-09,0.7193870896627923
3.298197192817571e-09,6.100898293621569e-05,3.298197192817571e-09,6.796168690816679e-05,3.298197192817571e-09,6.791777899851467e-05,3.298197192817571e-09,-0.0009702814533576815,3.298197192817571e-09,0.7212206626764285
3.302169199011633e-09,4.979997690437119e-05,3.302169199011633e-09,6.797892725091512e-05,3.302169199011633e-09,6.794737999912688e-05,3.302169199011633e-09,-0.001232081948965876,3.302169199011633e-09,0.7234273327842407
3.304962671292855e-09,4.928143010610741e-05,3.304962671292855e-09,6.796233743112967e-05,3.304962671292855e-09,6.795550127454975e-05,3.304962671292855e-09,-0.0009192220298386886,3.304962671292855e-09,0.7249792618293638
3.307666106985628e-09,5.964240652884914e-05,3.307666106985628e-09,6.794682034385035e-05,3.307666106985628e-09,6.794937046384668e-05,3.307666106985628e-09,-0.0005224448614453745,3.307666106985628e-09,0.7264811705475709
3.310466920404174e-09,8.274084611579502e-05,3.310466920404174e-09,6.795469357040371e-05,3.310466920404174e-09,6.794828748338674e-05,3.310466920404174e-09,-0.0002277897699281866,3.310466920404174e-09,0.7280371780023186
3.313075615298369e-09,0.0001225318933710469,3.313075615298369e-09,6.7975198492526e-05,3.313075615298369e-09,6.794778190597677e-05,3.313075615298369e-09,-0.0003079166031380332,3.313075615298369e-09,0.7294864529435382
3.315488548363963e-09,0.0001896967160788425,3.315488548363963e-09,6.799153619335776e-05,3.315488548363963e-09,6.795362163685759e-05,3.315488548363963e-09,-0.0008015185057677633,3.315488548363963e-09,0.730826971313313
3.318235200398013e-09,0.0003533984892255041,3.318235200398013e-09,6.797704619532834e-05,3.318235200398013e-09,6.79631066322621e-05,3.318235200398013e-09,-0.001747251775998437,3.318235200398013e-09,0.7323528891100071
3.321381093498268e-09,0.0004062613211844187,3.321381093498268e-09,6.793533394824742e-05,3.321381093498268e-09,6.797742335082575e-05,3.321381093498268e-09,-0.002806109958596874,3.321381093498268e-09,0.7341006074990375
3.32414530488036e-09,-0.002795609055562052,3.32414530488036e-09,6.789864678173805e-05,3.32414530488036e-09,6.797909390714628e-05,3.32414530488036e-09,-0.003448188110206132,3.32414530488036e-09,0.7356362804890888
3.327048674848009e-09,-0.01073034602385789,3.327048674848009e-09,6.787887450423056e-05,3.327048674848009e-09,6.797500944548977e-05,3.327048674848009e-09,-0.003640678506971945,3.327048674848009e-09,0.7372492638044493
3.329986754886999e-09,-0.01154597288968973,3.329986754886999e-09,6.789240849654976e-05,3.329986754886999e-09,6.796963548132524e-05,3.329986754886999e-09,-0.003180371647433097,3.329986754886999e-09,0.7388815304927772
3.332613092313526e-09,0.02122553013814215,3.332613092313526e-09,6.792839618406618e-05,3.332613092313526e-09,6.795921776266638e-05,3.332613092313526e-09,-0.002339171536412213,3.332613092313526e-09,0.7403406068408479
3.335099739947697e-09,0.09846388086268194,3.335099739947697e-09,6.796054173199812e-05,3.335099739947697e-09,6.794330563334341e-05,3.335099739947697e-09,-0.001620731803807606,3.335099739947697e-09,0.7417220777487205
3.337226262556729e-09,0.192144461750928,3.337226262556729e-09,6.799665353398841e-05,3.337226262556729e-09,6.794724310832449e-05,3.337226262556729e-09,-0.0008976248451940626,3.337226262556729e-09,0.7429034791981826
3.339777267640432e-09,0.3204033510183183,3.339777267640432e-09,6.802358672742425e-05,3.339777267640432e-09,6.795666099341813e-05,3.339777267640432e-09,0.0002874188280754209,3.339777267640432e-09,0.7443207042446842
3.342584467169674e-09,0.4721264838768414,3.342584467169674e-09,6.800628740268117e-05,3.342584467169674e-09,6.794686345470875e-05,3.342584467169674e-09,0.001535859325113882,3.342584467169674e-09,0.7458802595387076
3.34527771855367e-09,0.6114460016650828,3.34527771855367e-09,6.798312134755701e-05,3.34527771855367e-09,6.794397705677201e-05,3.34527771855367e-09,0.002473921375456199,3.34527771855367e-09,0.7473765103075946
3.348142816137927e-09,0.7317244614893443,3.348142816137927e-09,6.796433224065803e-05,3.348142816137927e-09,6.794398831830072e-05,3.348142816137927e-09,0.003011337699691169,3.348142816137927e-09,0.7489682311877369
3.350663743055052e-09,0.8041834292414245,3.350663743055052e-09,6.795909121738825e-05,3.350663743055052e-09,6.794968254921689e-05,3.350663743055052e-09,0.003118961577725985,3.350663743055052e-09,0.7503687461416956
3.353265386581985e-09,0.868108413946296,3.353265386581985e-09,6.796033539523642e-05,3.353265386581985e-09,6.795700982212413e-05,3.353265386581985e-09,0.002980680494266845,3.353265386581985e-09,0.7518141036566581
3.356105813469545e-09,1.005447757017253,3.356105813469545e-09,6.796124008459373e-05,3.356105813469545e-09,6.796156956271173e-05,3.356105813469545e-09,0.002646541610538039,3.356105813469545e-09,0.7533921185941914
3.358737777815639e-09,1.335142332023189,3.358737777815639e-09,6.796163779358747e-05,3.358737777815639e-09,6.796373896454238e-05,3.358737777815639e-09,0.002260481416974345,3.358737777815639e-09,0.7548543210086882
3.36080804747358e-09,1.841854071306262,3.36080804747358e-09,6.796094715256496e-05,3.36080804747358e-09,6.79640133030694e-05,3.36080804747358e-09,0.001967953565269193,3.36080804747358e-09,0.7560044708186556
3.362779101277188e-09,2.522795659358211,3.362779101277188e-09,6.79595871660893e-05,3.362779101277188e-09,6.796328636680993e-05,3.362779101277188e-09,0.001719549433529862,3.362779101277188e-09,0.757099500709549
3.364022669525e-09,3.001040844634098,3.364022669525e-09,6.795777545678471e-05,3.364022669525e-09,6.796183629251927e-05,3.364022669525e-09,0.00157650613252359,3.364022669525e-09,0.7577903719583333
