/net039 X,/net039 Y,/net010 X,/net010 Y,/net09 X,/net09 Y,/net08 X,/net08 Y,/net02 X,/net02 Y
0,6.795643765966205e-05,0,6.79564376596583e-05,0,6.795643765979821e-05,0,6.094256728551534e-05,0,0
1.5e-11,6.795643765973259e-05,1.5e-11,6.795643765972529e-05,1.5e-11,6.795643765984871e-05,1.5e-11,6.094256728546136e-05,1.5e-11,0
4.5e-11,6.795643765968121e-05,4.5e-11,6.795643765966385e-05,4.5e-11,6.795643765983285e-05,4.5e-11,6.094256728565839e-05,4.5e-11,0
1.05e-10,6.795643765702318e-05,1.05e-10,6.795643765702564e-05,1.05e-10,6.795643765954245e-05,1.05e-10,6.094256728585904e-05,1.05e-10,0
2.25e-10,6.795643766247053e-05,2.25e-10,6.795643765940654e-05,2.25e-10,6.79564376601164e-05,2.25e-10,6.094256728554437e-05,2.25e-10,0
4.65e-10,6.795643765742865e-05,4.65e-10,6.795643766015085e-05,4.65e-10,6.7956437659613e-05,4.65e-10,6.094256728552905e-05,4.65e-10,0
7.649999999999999e-10,6.795643766198778e-05,7.649999999999999e-10,6.795643765933077e-05,7.649999999999999e-10,6.795643766035476e-05,7.649999999999999e-10,6.094256728565509e-05,7.649999999999999e-10,0
1.065e-09,6.795643766090871e-05,1.065e-09,6.795643766014163e-05,1.065e-09,6.795643765938429e-05,1.065e-09,6.094256728566419e-05,1.065e-09,0
1.365e-09,6.795643765881721e-05,1.365e-09,6.795643765933629e-05,1.365e-09,6.795643765702492e-05,1.365e-09,6.094256728547435e-05,1.365e-09,0
1.665e-09,6.79564376608018e-05,1.665e-09,6.795643766009593e-05,1.665e-09,6.795643765952429e-05,1.665e-09,6.094256728567263e-05,1.665e-09,0
1.8325e-09,6.795643765878527e-05,1.8325e-09,6.79564376596106e-05,1.8325e-09,6.79564376603658e-05,1.8325e-09,6.09425672855556e-05,1.8325e-09,0
2e-09,6.795643765750824e-05,2e-09,6.795643765673331e-05,2e-09,6.795643765935998e-05,2e-09,6.094256728561276e-05,2e-09,0
2.120144127384571e-09,6.795643765972175e-05,2.120144127384571e-09,6.795643765986763e-05,2.120144127384571e-09,6.795643765979626e-05,2.120144127384571e-09,6.094256728653144e-05,2.120144127384571e-09,0.06674673743587282
2.261585129605973e-09,6.795643765973057e-05,2.261585129605973e-09,6.795643766272968e-05,2.261585129605973e-09,6.795643766282128e-05,2.261585129605973e-09,6.094256725436487e-05,2.261585129605973e-09,0.1453250720033182
2.400273538304042e-09,6.795643765669257e-05,2.400273538304042e-09,6.795643765710806e-05,2.400273538304042e-09,6.795643765700796e-05,2.400273538304042e-09,6.094256742969075e-05,2.400273538304042e-09,0.2223741879466899
2.455693803734353e-09,6.795643766249182e-05,2.455693803734353e-09,6.795643766241674e-05,2.455693803734353e-09,6.795643766168819e-05,2.455693803734353e-09,6.094256648087243e-05,2.455693803734353e-09,0.2531632242968625
2.483403936449508e-09,6.795643765796068e-05,2.483403936449508e-09,6.795643765768392e-05,2.483403936449508e-09,6.795643766472003e-05,2.483403936449508e-09,6.094256986164884e-05,2.483403936449508e-09,0.2685577424719489
2.538824201879819e-09,6.795643765857949e-05,2.538824201879819e-09,6.795643766176542e-05,2.538824201879819e-09,6.795643765009466e-05,2.538824201879819e-09,6.09425640896657e-05,2.538824201879819e-09,0.2993467788221216
2.56127447931966e-09,6.795643766088633e-05,2.56127447931966e-09,6.795643765817633e-05,2.56127447931966e-09,6.795643768533677e-05,2.56127447931966e-09,6.094257014418746e-05,2.56127447931966e-09,0.3118191551775886
2.57249961803958e-09,6.795643765897491e-05,2.57249961803958e-09,6.795643766078176e-05,2.57249961803958e-09,6.795643763702376e-05,2.57249961803958e-09,6.0942568080857e-05,2.57249961803958e-09,0.318055343355322
2.59494989547942e-09,6.795643766053575e-05,2.59494989547942e-09,6.795643766138868e-05,2.59494989547942e-09,6.795643766548127e-05,2.59494989547942e-09,6.094256507315999e-05,2.59494989547942e-09,0.330527719710789
2.62019183797865e-09,6.795643765918127e-05,2.62019183797865e-09,6.795643765844696e-05,2.62019183797865e-09,6.795643766876559e-05,2.62019183797865e-09,6.094256985911794e-05,2.62019183797865e-09,0.3445510210992501
2.641152210962702e-09,6.795643766018707e-05,2.641152210962702e-09,6.79564376583799e-05,2.641152210962702e-09,6.795643763848753e-05,2.641152210962702e-09,6.094256492001834e-05,2.641152210962702e-09,0.3561956727570568
2.66183146074191e-09,6.795643765976506e-05,2.66183146074191e-09,6.795643766095896e-05,2.66183146074191e-09,6.79564376850281e-05,2.66183146074191e-09,6.094256915721368e-05,2.66183146074191e-09,0.3676841448566168
2.683150840004538e-09,6.79564376598457e-05,2.683150840004538e-09,6.795643766148743e-05,2.683150840004538e-09,6.795643763427789e-05,2.683150840004538e-09,6.094256591489672e-05,2.683150840004538e-09,0.3795282444469654
2.702706616568159e-09,6.795643765993463e-05,2.702706616568159e-09,6.795643765596694e-05,2.702706616568159e-09,6.79564376834263e-05,2.702706616568159e-09,6.094256819215912e-05,2.702706616568159e-09,0.3903925647600881
2.725850249364618e-09,6.795643765946612e-05,2.725850249364618e-09,6.795643766043511e-05,2.725850249364618e-09,6.795643763903945e-05,2.725850249364618e-09,6.094256668759261e-05,2.725850249364618e-09,0.4032501385358988
2.75401730116415e-09,6.795643766023352e-05,2.75401730116415e-09,6.795643765913735e-05,2.75401730116415e-09,6.795643767536815e-05,2.75401730116415e-09,6.09425676841682e-05,2.75401730116415e-09,0.4188985006467497
2.784554590447968e-09,6.795643765929347e-05,2.784554590447968e-09,6.795643766040553e-05,2.784554590447968e-09,6.795643764878619e-05,2.784554590447968e-09,6.094256703123472e-05,2.784554590447968e-09,0.4358636613599823
2.813120231787523e-09,6.795643766035765e-05,2.813120231787523e-09,6.795643765940009e-05,2.813120231787523e-09,6.795643766933484e-05,2.813120231787523e-09,6.094256741845807e-05,2.813120231787523e-09,0.4517334621041793
2.842920733337541e-09,6.795643765932864e-05,2.842920733337541e-09,6.795643766313648e-05,2.842920733337541e-09,6.795643765235904e-05,2.842920733337541e-09,6.094256724120152e-05,2.842920733337541e-09,0.4682892962986339
2.867243662813186e-09,6.795643765736274e-05,2.867243662813186e-09,6.795643765695516e-05,2.867243662813186e-09,6.795643766552624e-05,2.867243662813186e-09,6.094256724848285e-05,2.867243662813186e-09,0.4818020348962143
2.895154013063984e-09,6.795643766177356e-05,2.895154013063984e-09,6.795643766239282e-05,2.895154013063984e-09,6.795643765550747e-05,2.895154013063984e-09,6.094256737334947e-05,2.895154013063984e-09,0.4973077850355466
2.92109497294363e-09,6.795643765817794e-05,2.92109497294363e-09,6.795643765465386e-05,2.92109497294363e-09,6.795643766283211e-05,2.92109497294363e-09,6.094256715867095e-05,2.92109497294363e-09,0.511719429413128
2.972976892702924e-09,6.795643766155259e-05,2.972976892702924e-09,6.795643766460941e-05,2.972976892702924e-09,6.795643765723189e-05,2.972976892702924e-09,6.094256742712394e-05,2.972976892702924e-09,0.5405427181682909
3.015534443809153e-09,6.795643765818008e-05,3.015534443809153e-09,6.795643765571685e-05,3.015534443809153e-09,6.795643766207375e-05,3.015534443809153e-09,6.094256712883986e-05,3.015534443809153e-09,0.5641858021161962
3.058952952513357e-09,6.795643766146669e-05,3.058952952513357e-09,6.79564376637002e-05,3.058952952513357e-09,6.795643765513759e-05,3.058952952513357e-09,6.094256745422263e-05,3.058952952513357e-09,0.588307195840754
3.070072085180809e-09,6.795643765881021e-05,3.070072085180809e-09,6.795643765733267e-05,3.070072085180809e-09,6.795643766160879e-05,3.070072085180809e-09,6.094256709067814e-05,3.070072085180809e-09,0.5944844917671159
3.092310350515713e-09,6.79564376580289e-05,3.092310350515713e-09,6.795643766254547e-05,3.092310350515713e-09,6.795643766094629e-05,3.092310350515713e-09,6.094256748340013e-05,3.092310350515713e-09,0.6068390836198402
3.09963827990847e-09,6.795643766029232e-05,3.09963827990847e-09,6.795643765828903e-05,3.09963827990847e-09,6.795643765823586e-05,3.09963827990847e-09,6.094256709508833e-05,3.09963827990847e-09,0.6109101555047057
3.114294138693986e-09,6.795643765927663e-05,3.114294138693986e-09,6.795643766147755e-05,3.114294138693986e-09,6.795643766139615e-05,3.114294138693986e-09,6.094256746420938e-05,3.114294138693986e-09,0.6190522992744367
3.118522099332289e-09,6.795643766002901e-05,3.118522099332289e-09,6.795643765893234e-05,3.118522099332289e-09,6.795643765660701e-05,3.118522099332289e-09,6.094256708676073e-05,3.118522099332289e-09,0.6214011662957164
3.126978020608896e-09,6.795643765933103e-05,3.126978020608896e-09,6.795643766074446e-05,3.126978020608896e-09,6.795643766255135e-05,3.126978020608896e-09,6.094256740716422e-05,3.126978020608896e-09,0.6260989003382754
3.135236705323189e-09,6.795643766009417e-05,3.135236705323189e-09,6.79564376591045e-05,3.135236705323189e-09,6.795643766790617e-05,3.135236705323189e-09,6.094256740478411e-05,3.135236705323189e-09,0.6306870585128829
3.143153413132623e-09,6.795643766019865e-05,3.143153413132623e-09,6.795643765989044e-05,3.143153413132623e-09,6.795643765647948e-05,3.143153413132623e-09,6.094256753327718e-05,3.143153413132623e-09,0.6350852295181239
3.152074375164408e-09,6.795643765956329e-05,3.152074375164408e-09,6.795643766212647e-05,3.152074375164408e-09,6.79564376566952e-05,3.152074375164408e-09,6.09425672164433e-05,3.152074375164408e-09,0.6400413195357822
3.155201714466504e-09,6.795643766319746e-05,3.155201714466504e-09,6.795643766107815e-05,3.155201714466504e-09,6.795643779283962e-05,3.155201714466504e-09,6.094256984078197e-05,3.155201714466504e-09,0.6417787302591685
3.161456393070695e-09,6.795643764883035e-05,3.161456393070695e-09,6.795643765897248e-05,3.161456393070695e-09,6.795643743265207e-05,3.161456393070695e-09,6.094256436248197e-05,3.161456393070695e-09,0.6452535517059415
3.169463697506059e-09,6.795643760987986e-05,3.169463697506059e-09,6.795643765691801e-05,3.169463697506059e-09,6.795643567087105e-05,3.169463697506059e-09,6.094250478947013e-05,3.169463697506059e-09,0.6497020541700325
3.178072358013571e-09,6.795643774034907e-05,3.178072358013571e-09,6.795643766106975e-05,3.178072358013571e-09,6.795643877659267e-05,3.178072358013571e-09,6.094252394395318e-05,3.178072358013571e-09,0.6544846433408724
3.186324396059488e-09,6.795643914658884e-05,3.186324396059488e-09,6.795643767622568e-05,3.186324396059488e-09,6.795649361795399e-05,3.186324396059488e-09,6.094419527486764e-05,3.186324396059488e-09,0.6590691089219376
3.197057002091317e-09,6.7956436136353e-05,3.197057002091317e-09,6.795643761020573e-05,3.197057002091317e-09,6.795637357685886e-05,3.197057002091317e-09,6.094267882133328e-05,3.197057002091317e-09,0.6650316678285095
3.204665144154144e-09,6.795642160287639e-05,3.204665144154144e-09,6.795643729116808e-05,3.204665144154144e-09,6.795421426058682e-05,3.204665144154144e-09,6.088063085788473e-05,3.204665144154144e-09,0.6692584134189687
3.212316916465545e-09,6.79564259865157e-05,3.212316916465545e-09,6.795643873876026e-05,3.212316916465545e-09,6.795712317573021e-05,3.212316916465545e-09,6.088580305843817e-05,3.212316916465545e-09,0.673509398036414
3.219485189423276e-09,6.795651815922195e-05,3.219485189423276e-09,6.795643870352789e-05,3.219485189423276e-09,6.796697124189718e-05,3.219485189423276e-09,6.117044213296274e-05,3.219485189423276e-09,0.6774917719018196
3.225448915369662e-09,6.795650962113265e-05,3.225448915369662e-09,6.79564317783973e-05,3.225448915369662e-09,6.794936095288318e-05,3.225448915369662e-09,6.102239648971141e-05,3.225448915369662e-09,0.6808049529831454
3.233703840253332e-09,6.795637201810602e-05,3.233703840253332e-09,6.79564428474507e-05,3.233703840253332e-09,6.795096151703708e-05,3.233703840253332e-09,6.080874055894346e-05,3.233703840253332e-09,0.6853910223629623
3.241677187031612e-09,6.795643763493141e-05,3.241677187031612e-09,6.795643726166061e-05,3.241677187031612e-09,6.796082380501321e-05,3.241677187031612e-09,6.091444821056631e-05,3.241677187031612e-09,0.6898206594620065
3.24888094551128e-09,6.795637026458861e-05,3.24888094551128e-09,6.79564350276512e-05,3.24888094551128e-09,6.795652267547591e-05,3.24888094551128e-09,6.092939370401882e-05,3.24888094551128e-09,0.6938227475062669
3.256097616546117e-09,6.795615828247889e-05,3.256097616546117e-09,6.795643852093197e-05,3.256097616546117e-09,6.795716999045091e-05,3.256097616546117e-09,6.094664477743439e-05,3.256097616546117e-09,0.6978320091922869
3.26254746975778e-09,6.795601222165936e-05,3.26254746975778e-09,6.795643561742471e-05,3.26254746975778e-09,6.795320751101495e-05,3.26254746975778e-09,6.084579545685706e-05,3.26254746975778e-09,0.7014152609765443
3.268229515246421e-09,6.795176603576961e-05,3.268229515246421e-09,6.795641799361942e-05,3.268229515246421e-09,6.795157370618189e-05,3.268229515246421e-09,6.061840838491017e-05,3.268229515246421e-09,0.7045719529146782
3.272394833243398e-09,6.792741103040641e-05,3.272394833243398e-09,6.795629121324977e-05,3.272394833243398e-09,6.795293072076022e-05,3.272394833243398e-09,5.997369745156444e-05,3.272394833243398e-09,0.7068860184685545
3.2764251704879e-09,6.790874760023396e-05,3.2764251704879e-09,6.795634163563386e-05,3.2764251704879e-09,6.796385697804719e-05,3.2764251704879e-09,5.923599788944176e-05,3.2764251704879e-09,0.7091250947155002
3.280090034600099e-09,6.806780046110038e-05,3.280090034600099e-09,6.795752743084676e-05,3.280090034600099e-09,6.79719564351736e-05,3.280090034600099e-09,6.180437532299292e-05,3.280090034600099e-09,0.7111611303333885
3.28357535358827e-09,6.888010579979761e-05,3.28357535358827e-09,6.796188301934652e-05,3.28357535358827e-09,6.797492464869035e-05,3.28357535358827e-09,7.885915080992611e-05,3.28357535358827e-09,0.7130974186601499
3.28696904710382e-09,6.962039751207118e-05,3.28696904710382e-09,6.79610947887964e-05,3.28696904710382e-09,6.797020289294936e-05,3.28696904710382e-09,0.000104449980399416,3.28696904710382e-09,0.7149828039465665
3.289566142222465e-09,6.899294836031307e-05,3.289566142222465e-09,6.795074995466584e-05,3.289566142222465e-09,6.796986417672944e-05,3.289566142222465e-09,0.0001021819002325815,3.289566142222465e-09,0.7164256345680362
3.291979650847208e-09,6.779765484777535e-05,3.291979650847208e-09,6.794438710892689e-05,3.291979650847208e-09,6.796091619274959e-05,3.291979650847208e-09,3.270454052226119e-05,3.291979650847208e-09,0.7177664726928935
3.294896761394359e-09,6.663235687670577e-05,3.294896761394359e-09,6.794819729372023e-05,3.294896761394359e-09,6.7932907232895e-05,3.294896761394359e-09,-0.0002635319533310546,3.294896761394359e-09,0.7193870896635326
3.298197196193327e-09,6.100894549167419e-05,3.298197196193327e-09,6.796173154999287e-05,3.298197196193327e-09,6.79176568645706e-05,3.298197196193327e-09,-0.0009385030244400112,3.298197196193327e-09,0.7212206645518484
3.302169200938908e-09,4.979938619104884e-05,3.302169200938908e-09,6.797830687264046e-05,3.302169200938908e-09,6.794705713653416e-05,3.302169200938908e-09,-0.001207731783531282,3.302169200938908e-09,0.7234273338549487
3.304962673437143e-09,4.928142904631966e-05,3.304962673437143e-09,6.796212060827797e-05,3.304962673437143e-09,6.795575327607304e-05,3.304962673437143e-09,-0.0009151069312893372,3.304962673437143e-09,0.724979263020635
3.307666108879348e-09,5.964289568005106e-05,3.307666108879348e-09,6.794717546689148e-05,3.307666108879348e-09,6.794996300281505e-05,3.307666108879348e-09,-0.0005339613777871042,3.307666108879348e-09,0.7264811715996375
3.310466922891182e-09,8.274111334374319e-05,3.310466922891182e-09,6.795514578327056e-05,3.310466922891182e-09,6.794845576341684e-05,3.310466922891182e-09,-0.000245143122148017,3.310466922891182e-09,0.7280371793839899
3.31307561710191e-09,0.0001225318629479019,3.31307561710191e-09,6.797569118683179e-05,3.31307561710191e-09,6.794764296277509e-05,3.31307561710191e-09,-0.0003158575190570732,3.31307561710191e-09,0.7294864539455056
3.315488550151511e-09,0.0001896964673769695,3.315488550151511e-09,6.799180616182616e-05,3.315488550151511e-09,6.795316907090969e-05,3.315488550151511e-09,-0.0007882501930751583,3.315488550151511e-09,0.730826972306395
3.318235202813336e-09,0.0003533988769490397,3.318235202813336e-09,6.797693380549619e-05,3.318235202813336e-09,6.796255384808412e-05,3.318235202813336e-09,-0.001704605823697604,3.318235202813336e-09,0.7323528904518536
3.321381094214408e-09,0.000406260613183464,3.321381094214408e-09,6.793468162309338e-05,3.321381094214408e-09,6.797704613574307e-05,3.321381094214408e-09,-0.002743867669325183,3.321381094214408e-09,0.734100607896893
3.324145305512685e-09,-0.002795623093973872,3.324145305512685e-09,6.78980809620466e-05,3.324145305512685e-09,6.797928081932613e-05,3.324145305512685e-09,-0.003385753367899412,3.324145305512685e-09,0.7356362808403805
3.327048674733844e-09,-0.01073036372239968,3.327048674733844e-09,6.787857293462771e-05,3.327048674733844e-09,6.797561194487055e-05,3.327048674733844e-09,-0.003595160894041789,3.327048674733844e-09,0.7372492637410246
3.32998675180676e-09,-0.01154596000884357,3.32998675180676e-09,6.789235598363701e-05,3.32998675180676e-09,6.797023474662489e-05,3.32998675180676e-09,-0.003168608637968074,3.32998675180676e-09,0.7388815287815335
3.332613091520215e-09,0.02122564560301855,3.332613091520215e-09,6.79287065730231e-05,3.332613091520215e-09,6.795974562030647e-05,3.332613091520215e-09,-0.002361690658305322,3.332613091520215e-09,0.7403406064001193
3.335099740936078e-09,0.09846413843017318,3.335099740936078e-09,6.796132766706507e-05,3.335099740936078e-09,6.794361158765451e-05,3.335099740936078e-09,-0.001661230266491325,3.335099740936078e-09,0.7417220782978213
3.337226263278197e-09,0.1921447342846872,3.337226263278197e-09,6.799700171969346e-05,3.337226263278197e-09,6.794693588308712e-05,3.337226263278197e-09,-0.0009534626775657122,3.337226263278197e-09,0.7429034795989981
3.339777268849569e-09,0.3204036446175509,3.339777268849569e-09,6.802352391948394e-05,3.339777268849569e-09,6.795600430620791e-05,3.339777268849569e-09,0.0002095343163805611,3.339777268849569e-09,0.744320704916427
3.342584470224471e-09,0.4721268477785142,3.342584470224471e-09,6.800650084688119e-05,3.342584470224471e-09,6.794659454825411e-05,3.342584470224471e-09,0.001442580005625939,3.342584470224471e-09,0.7458802612358174
3.3452777171541e-09,0.611446090332481,3.3452777171541e-09,6.798335736412458e-05,3.3452777171541e-09,6.794367372151054e-05,3.3452777171541e-09,0.002379745591189393,3.3452777171541e-09,0.7473765095300553
3.348142813384778e-09,0.7317244609790963,3.348142813384778e-09,6.796453053641966e-05,3.348142813384778e-09,6.794365711551712e-05,3.348142813384778e-09,0.002932744370460687,3.348142813384778e-09,0.7489682296582101
3.350663740309008e-09,0.8041834254927036,3.350663740309008e-09,6.795897143224712e-05,3.350663740309008e-09,6.794927323846619e-05,3.350663740309008e-09,0.003061629890186983,3.350663740309008e-09,0.7503687446161157
3.35326538477786e-09,0.8681084253772605,3.35326538477786e-09,6.796003202409635e-05,3.35326538477786e-09,6.795678142775409e-05,3.35326538477786e-09,0.002947008847587302,3.35326538477786e-09,0.7518141026543664
3.35610581306526e-09,1.005447850843102,3.35610581306526e-09,6.796085087966227e-05,3.35610581306526e-09,6.796165107702229e-05,3.35610581306526e-09,0.002635823309059005,3.35610581306526e-09,0.7533921183695889
3.358737777647216e-09,1.335142541301253,3.358737777647216e-09,6.796133175511586e-05,3.358737777647216e-09,6.796407453515976e-05,3.358737777647216e-09,0.002266565733756031,3.358737777647216e-09,0.7548543209151198
3.360808047479963e-09,1.841854434776304,3.360808047479963e-09,6.796069253012765e-05,3.360808047479963e-09,6.796444607602136e-05,3.360808047479963e-09,0.001982562344716898,3.360808047479963e-09,0.7560044708222015
3.362779101381729e-09,2.522796126240002,3.362779101381729e-09,6.795944991249209e-05,3.362779101381729e-09,6.79637520964952e-05,3.362779101381729e-09,0.001739300483952461,3.362779101381729e-09,0.7570995007676272
3.364022669605235e-09,3.001041299128567,3.364022669605235e-09,6.795770975421116e-05,3.364022669605235e-09,6.796230613643971e-05,3.364022669605235e-09,0.001598142235948103,3.364022669605235e-09,0.7577903720029082
3.365722882368685e-09,3.608907663070053,3.365722882368685e-09,6.795579990991133e-05,3.365722882368685e-09,6.796067427139033e-05,3.365722882368685e-09,0.001421124931595456,3.365722882368685e-09,0.7587349346492693
