/net039 X,/net039 Y,/net010 X,/net010 Y,/net09 X,/net09 Y,/net08 X,/net08 Y,/net02 X,/net02 Y
0,6.795643765980472e-05,0,6.795643765978761e-05,0,6.79564376597343e-05,0,6.094256728530583e-05,0,0
1.5e-11,6.79564376598261e-05,1.5e-11,6.795643765982991e-05,1.5e-11,6.795643765962517e-05,1.5e-11,6.094256728537068e-05,1.5e-11,0
4.5e-11,6.795643765973273e-05,4.5e-11,6.79564376597536e-05,4.5e-11,6.795643765970071e-05,4.5e-11,6.094256728518646e-05,4.5e-11,0
1.05e-10,6.795643765703911e-05,1.05e-10,6.795643765691873e-05,1.05e-10,6.795643765986103e-05,1.05e-10,6.094256728540592e-05,1.05e-10,0
2.25e-10,6.795643765949985e-05,2.25e-10,6.795643765964056e-05,2.25e-10,6.79564376595885e-05,2.25e-10,6.094256728488493e-05,2.25e-10,0
4.65e-10,6.79564376573337e-05,4.65e-10,6.795643766006715e-05,4.65e-10,6.795643765724993e-05,4.65e-10,6.094256728547427e-05,4.65e-10,0
7.649999999999999e-10,6.795643766214825e-05,7.649999999999999e-10,6.795643765911309e-05,7.649999999999999e-10,6.795643766551804e-05,7.649999999999999e-10,6.094256728505822e-05,7.649999999999999e-10,0
1.065e-09,6.795643765430464e-05,1.065e-09,6.795643766012771e-05,1.065e-09,6.795643765428378e-05,1.065e-09,6.094256728545843e-05,1.065e-09,0
1.365e-09,6.795643766217893e-05,1.365e-09,6.795643765932843e-05,1.365e-09,6.79564376652486e-05,1.365e-09,6.094256728500753e-05,1.365e-09,0
1.665e-09,6.795643765743559e-05,1.665e-09,6.795643766022509e-05,1.665e-09,6.795643765457932e-05,1.665e-09,6.094256728517051e-05,1.665e-09,0
1.8325e-09,6.795643766185494e-05,1.8325e-09,6.795643765936095e-05,1.8325e-09,6.795643766494516e-05,1.8325e-09,6.094256728540735e-05,1.8325e-09,0
2e-09,6.795643765773865e-05,2e-09,6.795643765980422e-05,2e-09,6.795643765489515e-05,2e-09,6.094256728514992e-05,2e-09,0
2.120144127384571e-09,6.795643765972267e-05,2.120144127384571e-09,6.795643765988114e-05,2.120144127384571e-09,6.795643765945035e-05,2.120144127384571e-09,6.094256728610031e-05,2.120144127384571e-09,0.06674673743587282
2.261585129605973e-09,6.795643765670478e-05,2.261585129605973e-09,6.795643765967162e-05,2.261585129605973e-09,6.795643765686637e-05,2.261585129605973e-09,6.094256725704214e-05,2.261585129605973e-09,0.1453250720033182
2.400273538304042e-09,6.795643766288977e-05,2.400273538304042e-09,6.795643765982578e-05,2.400273538304042e-09,6.795643766291273e-05,2.400273538304042e-09,6.094256740826219e-05,2.400273538304042e-09,0.2223741879466899
2.455693803734329e-09,6.795643765712019e-05,2.455693803734329e-09,6.795643765671768e-05,2.455693803734329e-09,6.79564376565666e-05,2.455693803734329e-09,6.094256660834596e-05,2.455693803734329e-09,0.2531632242968492
2.483403936449472e-09,6.795643766494323e-05,2.483403936449472e-09,6.795643766221666e-05,2.483403936449472e-09,6.795643766922126e-05,2.483403936449472e-09,6.09425695313325e-05,2.483403936449472e-09,0.2685577424719287
2.538824201879758e-09,6.795643765503428e-05,2.538824201879758e-09,6.795643765726558e-05,2.538824201879758e-09,6.795643764267509e-05,2.538824201879758e-09,6.094256443177937e-05,2.538824201879758e-09,0.2993467788220877
2.561274479319691e-09,6.795643766390659e-05,2.561274479319691e-09,6.795643766177916e-05,2.561274479319691e-09,6.795643768760603e-05,2.561274479319691e-09,6.094257002966477e-05,2.561274479319691e-09,0.3118191551776061
2.572499618039658e-09,6.795643765681892e-05,2.572499618039658e-09,6.795643765857645e-05,2.572499618039658e-09,6.795643763618494e-05,2.572499618039658e-09,6.094256774541034e-05,2.572499618039658e-09,0.3180553433553652
2.594949895479591e-09,6.795643766270599e-05,2.594949895479591e-09,6.79564376611782e-05,2.594949895479591e-09,6.795643766444048e-05,2.594949895479591e-09,6.094256539555886e-05,2.594949895479591e-09,0.3305277197108837
2.620191837978989e-09,6.795643765740138e-05,2.620191837978989e-09,6.795643765839588e-05,2.620191837978989e-09,6.795643766897005e-05,2.620191837978989e-09,6.094256964482274e-05,2.620191837978989e-09,0.3445510210994383
2.641152210963239e-09,6.795643766182866e-05,2.641152210963239e-09,6.795643765849764e-05,2.641152210963239e-09,6.795643764185517e-05,2.641152210963239e-09,6.094256500339999e-05,2.641152210963239e-09,0.3561956727573551
2.661831460742312e-09,6.795643766049531e-05,2.661831460742312e-09,6.79564376607619e-05,2.661831460742312e-09,6.795643768178636e-05,2.661831460742312e-09,6.094256916137183e-05,2.661831460742312e-09,0.3676841448568399
2.683150840005019e-09,6.795643765951427e-05,2.683150840005019e-09,6.795643765901881e-05,2.683150840005019e-09,6.795643763783766e-05,2.683150840005019e-09,6.094256586915167e-05,2.683150840005019e-09,0.3795282444472328
2.702706616568793e-09,6.795643766012134e-05,2.702706616568793e-09,6.795643766060398e-05,2.702706616568793e-09,6.795643768022146e-05,2.702706616568793e-09,6.094256825108876e-05,2.702706616568793e-09,0.3903925647604403
2.725850249365645e-09,6.795643765939019e-05,2.725850249365645e-09,6.795643765618814e-05,2.725850249365645e-09,6.795643764468469e-05,2.725850249365645e-09,6.094256663040037e-05,2.725850249365645e-09,0.4032501385364693
2.754017301165072e-09,6.795643765982148e-05,2.754017301165072e-09,6.795643766019701e-05,2.754017301165072e-09,6.795643767329563e-05,2.754017301165072e-09,6.094256773565304e-05,2.754017301165072e-09,0.4188985006472624
2.784554590448977e-09,6.795643765990971e-05,2.784554590448977e-09,6.795643765947086e-05,2.784554590448977e-09,6.795643764792227e-05,2.784554590448977e-09,6.094256698639013e-05,2.784554590448977e-09,0.4358636613605427
2.813120231788735e-09,6.795643765976953e-05,2.813120231788735e-09,6.795643765980767e-05,2.813120231788735e-09,6.795643766982874e-05,2.813120231788735e-09,6.094256745569656e-05,2.813120231788735e-09,0.4517334621048525
2.842920733339106e-09,6.795643765985885e-05,2.842920733339106e-09,6.795643765979058e-05,2.842920733339106e-09,6.795643765161365e-05,2.842920733339106e-09,6.094256721015813e-05,2.842920733339106e-09,0.4682892962995033
2.867243662813818e-09,6.795643766233548e-05,2.867243662813818e-09,6.795643766005841e-05,2.867243662813818e-09,6.795643766673051e-05,2.867243662813818e-09,6.094256727269254e-05,2.867243662813818e-09,0.4818020348965656
2.895154013064586e-09,6.795643765778752e-05,2.895154013064586e-09,6.79564376624287e-05,2.895154013064586e-09,6.795643765419356e-05,2.895154013064586e-09,6.094256735372469e-05,2.895154013064586e-09,0.4973077850358814
2.921094972944499e-09,6.79564376612399e-05,2.921094972944499e-09,6.795643765753056e-05,2.921094972944499e-09,6.795643766439474e-05,2.921094972944499e-09,6.094256717321487e-05,2.921094972944499e-09,0.5117194294136108
2.972976892704325e-09,6.795643765545768e-05,2.972976892704325e-09,6.795643766205914e-05,2.972976892704325e-09,6.795643765572013e-05,2.972976892704325e-09,6.094256741412467e-05,2.972976892704325e-09,0.5405427181690696
3.015534443811015e-09,6.795643766343953e-05,3.015534443811015e-09,6.795643765760968e-05,3.015534443811015e-09,6.795643766344692e-05,3.015534443811015e-09,6.094256713951034e-05,3.015534443811015e-09,0.5641858021172307
3.058952952515446e-09,6.795643765638405e-05,3.058952952515446e-09,6.795643766200871e-05,3.058952952515446e-09,6.795643765963943e-05,3.058952952515446e-09,6.094256744444024e-05,3.058952952515446e-09,0.5883071958419145
3.070072085182976e-09,6.795643766198338e-05,3.070072085182976e-09,6.795643765827615e-05,3.070072085182976e-09,6.795643765636233e-05,3.070072085182976e-09,6.094256709455198e-05,3.070072085182976e-09,0.5944844917683202
3.092310350518037e-09,6.795643765772497e-05,3.092310350518037e-09,6.795643766159369e-05,3.092310350518037e-09,6.795643766582387e-05,3.092310350518037e-09,6.094256747989746e-05,3.092310350518037e-09,0.6068390836211318
3.099638279910434e-09,6.795643766068064e-05,3.099638279910434e-09,6.795643766119637e-05,3.099638279910434e-09,6.795643765370888e-05,3.099638279910434e-09,6.094256709588413e-05,3.099638279910434e-09,0.6109101555057965
3.114294138695227e-09,6.795643765886153e-05,3.114294138695227e-09,6.795643766172371e-05,3.114294138695227e-09,6.795643766624493e-05,3.114294138695227e-09,6.09425674628718e-05,3.114294138695227e-09,0.6190522992751258
3.118522099333515e-09,6.795643765805259e-05,3.118522099333515e-09,6.795643765945007e-05,3.118522099333515e-09,6.795643765521476e-05,3.118522099333515e-09,6.094256708758138e-05,3.118522099333515e-09,0.6214011662963971
3.126978020610091e-09,6.795643766294753e-05,3.126978020610091e-09,6.795643766094427e-05,3.126978020610091e-09,6.795643766094177e-05,3.126978020610091e-09,6.094256740521172e-05,3.126978020610091e-09,0.6260989003389396
3.135236705324839e-09,6.795643765796252e-05,3.135236705324839e-09,6.795643765899818e-05,3.135236705324839e-09,6.795643767007259e-05,3.135236705324839e-09,6.094256740440025e-05,3.135236705324839e-09,0.6306870585137991
3.143153413134082e-09,6.795643766121529e-05,3.143153413134082e-09,6.795643766200647e-05,3.143153413134082e-09,6.795643765300674e-05,3.143153413134082e-09,6.094256753345652e-05,3.143153413134082e-09,0.6350852295189343
3.152074375166443e-09,6.795643765836261e-05,3.152074375166443e-09,6.795643765856684e-05,3.152074375166443e-09,6.795643765842853e-05,3.152074375166443e-09,6.09425672164776e-05,3.152074375166443e-09,0.6400413195369129
3.155201714468527e-09,6.795643766381599e-05,3.155201714468527e-09,6.79564376615004e-05,3.155201714468527e-09,6.795643779376108e-05,3.155201714468527e-09,6.094256984029597e-05,3.155201714468527e-09,0.6417787302602929
3.161456393072695e-09,6.79564376504204e-05,3.161456393072695e-09,6.795643765784247e-05,3.161456393072695e-09,6.795643743191006e-05,3.161456393072695e-09,6.094256436260438e-05,3.161456393072695e-09,0.6452535517070529
3.16946369750885e-09,6.795643761135214e-05,3.16946369750885e-09,6.795643765993918e-05,3.16946369750885e-09,6.795643567147853e-05,3.16946369750885e-09,6.094250479145117e-05,3.16946369750885e-09,0.6497020541715836
3.178072358015151e-09,6.795643773972125e-05,3.178072358015151e-09,6.79564376635677e-05,3.178072358015151e-09,6.795643877799632e-05,3.178072358015151e-09,6.094252394361336e-05,3.178072358015151e-09,0.6544846433417507
3.186324396061327e-09,6.795643914989237e-05,3.186324396061327e-09,6.795643767524403e-05,3.186324396061327e-09,6.795649361575149e-05,3.186324396061327e-09,6.094419527515462e-05,3.186324396061327e-09,0.6590691089229591
3.197057002093675e-09,6.795643613681881e-05,3.197057002093675e-09,6.795643761358878e-05,3.197057002093675e-09,6.795637357838456e-05,3.197057002093675e-09,6.094267882433768e-05,3.197057002093675e-09,0.6650316678298195
3.204665144156975e-09,6.795642160266384e-05,3.204665144156975e-09,6.795643728733782e-05,3.204665144156975e-09,6.795421425971589e-05,3.204665144156975e-09,6.088063085813927e-05,3.204665144156975e-09,0.6692584134205417
3.212316916467695e-09,6.795642598629653e-05,3.212316916467695e-09,6.795643874314977e-05,3.212316916467695e-09,6.79571231765392e-05,3.212316916467695e-09,6.088580305285089e-05,3.212316916467695e-09,0.6735093980376085
3.219485189425931e-09,6.795651815710724e-05,3.219485189425931e-09,6.795643870074957e-05,3.219485189425931e-09,6.796697124167635e-05,3.219485189425931e-09,6.117044212851593e-05,3.219485189425931e-09,0.677491771903295
3.225448915372061e-09,6.795650961989684e-05,3.225448915372061e-09,6.795643178235619e-05,3.225448915372061e-09,6.794936095299869e-05,3.225448915372061e-09,6.102239648975966e-05,3.225448915372061e-09,0.680804952984478
3.233703840254434e-09,6.795637201846844e-05,3.233703840254434e-09,6.79564428463941e-05,3.233703840254434e-09,6.795096151718861e-05,3.233703840254434e-09,6.08087405638729e-05,3.233703840254434e-09,0.6853910223635746
3.241677187033537e-09,6.795643763410617e-05,3.241677187033537e-09,6.795643726285116e-05,3.241677187033537e-09,6.796082380699069e-05,3.241677187033537e-09,6.091444821019557e-05,3.241677187033537e-09,0.689820659463076
3.248880945512851e-09,6.795637026443527e-05,3.248880945512851e-09,6.795643502650704e-05,3.248880945512851e-09,6.795652267855687e-05,3.248880945512851e-09,6.092939370116894e-05,3.248880945512851e-09,0.6938227475071392
3.256097616547818e-09,6.795615828443234e-05,3.256097616547818e-09,6.795643852205797e-05,3.256097616547818e-09,6.795716998903361e-05,3.256097616547818e-09,6.094664478004632e-05,3.256097616547818e-09,0.6978320091932322
3.262547469758877e-09,6.795601222040624e-05,3.262547469758877e-09,6.795643561663076e-05,3.262547469758877e-09,6.795320750945449e-05,3.262547469758877e-09,6.08457954563243e-05,3.262547469758877e-09,0.7014152609771541
3.268229515247688e-09,6.795176603269249e-05,3.268229515247688e-09,6.795641799231825e-05,3.268229515247688e-09,6.795157370853135e-05,3.268229515247688e-09,6.061840838865679e-05,3.268229515247688e-09,0.7045719529153822
3.272394833244558e-09,6.792741103285013e-05,3.272394833244558e-09,6.795629121322095e-05,3.272394833244558e-09,6.795293071815058e-05,3.272394833244558e-09,5.997369745995653e-05,3.272394833244558e-09,0.7068860184691991
3.276425170489254e-09,6.790874760035284e-05,3.276425170489254e-09,6.795634163583149e-05,3.276425170489254e-09,6.796385697760378e-05,3.276425170489254e-09,5.923599789809672e-05,3.276425170489254e-09,0.709125094716252
3.280090034601202e-09,6.806780045813428e-05,3.280090034601202e-09,6.795752743128695e-05,3.280090034601202e-09,6.797195643677398e-05,3.280090034601202e-09,6.18043753347971e-05,3.280090034601202e-09,0.7111611303340009
3.283575353589471e-09,6.88801058010246e-05,3.283575353589471e-09,6.796188301762115e-05,3.283575353589471e-09,6.797492464826568e-05,3.283575353589471e-09,7.885915083755578e-05,3.283575353589471e-09,0.7130974186608171
3.286969047105142e-09,6.962039751337478e-05,3.286969047105142e-09,6.796109478735161e-05,3.286969047105142e-09,6.797020289194377e-05,3.286969047105142e-09,0.0001044499803287511,3.286969047105142e-09,0.714982803947301
3.289566142223442e-09,6.899294836103097e-05,3.289566142223442e-09,6.795074995265496e-05,3.289566142223442e-09,6.796986417603989e-05,3.289566142223442e-09,0.0001021818999015365,3.289566142223442e-09,0.7164256345685789
3.291979650848295e-09,6.779765484443434e-05,3.291979650848295e-09,6.794438710887332e-05,3.291979650848295e-09,6.796091619257797e-05,3.291979650848295e-09,3.270453987275504e-05,3.291979650848295e-09,0.717766472693497
3.294896761395592e-09,6.663235687602917e-05,3.294896761395592e-09,6.794819729442759e-05,3.294896761395592e-09,6.793290723272753e-05,3.294896761395592e-09,-0.0002635319543403931,3.294896761395592e-09,0.7193870896642178
3.298197196194752e-09,6.100894548626252e-05,3.298197196194752e-09,6.796173155127082e-05,3.298197196194752e-09,6.791765686971832e-05,3.298197196194752e-09,-0.0009385030243046137,3.298197196194752e-09,0.72122066455264
3.302169200939e-09,4.979938618862537e-05,3.302169200939e-09,6.797830687056976e-05,3.302169200939e-09,6.794705716182685e-05,3.302169200939e-09,-0.00120773177692966,3.302169200939e-09,0.7234273338550001
3.304962673437177e-09,4.928142904789551e-05,3.304962673437177e-09,6.796212060885531e-05,3.304962673437177e-09,6.795575325388519e-05,3.304962673437177e-09,-0.0009151069253674033,3.304962673437177e-09,0.7249792630206537
3.307666108879248e-09,5.964289567874405e-05,3.307666108879248e-09,6.794717546387938e-05,3.307666108879248e-09,6.794996294099903e-05,3.307666108879248e-09,-0.0005339613821778638,3.307666108879248e-09,0.7264811715995824
3.310466922891188e-09,8.274111334476286e-05,3.310466922891188e-09,6.795514578340561e-05,3.310466922891188e-09,6.794845577181082e-05,3.310466922891188e-09,-0.0002451431316377737,3.310466922891188e-09,0.7280371793839931
3.313075617101868e-09,0.0001225318629479044,3.313075617101868e-09,6.797569118651201e-05,3.313075617101868e-09,6.794764299729806e-05,3.313075617101868e-09,-0.0003158575252461605,3.313075617101868e-09,0.7294864539454824
3.315488550151477e-09,0.0001896964673747466,3.315488550151477e-09,6.799180616337817e-05,3.315488550151477e-09,6.795316909908217e-05,3.315488550151477e-09,-0.0007882501946461003,3.315488550151477e-09,0.7308269723063764
3.31823520281327e-09,0.0003533988769454275,3.31823520281327e-09,6.797693380278621e-05,3.31823520281327e-09,6.796255386997346e-05,3.31823520281327e-09,-0.001704605818710781,3.31823520281327e-09,0.7323528904518165
3.321381094214324e-09,0.0004062606131992314,3.321381094214324e-09,6.793468162298161e-05,3.321381094214324e-09,6.797704614202868e-05,3.321381094214324e-09,-0.002743867658086648,3.321381094214324e-09,0.7341006078968466
3.324145305512607e-09,-0.002795623093836103,3.324145305512607e-09,6.789808096063874e-05,3.324145305512607e-09,6.797928079010542e-05,3.324145305512607e-09,-0.003385753357177654,3.324145305512607e-09,0.7356362808403371
3.327048674733755e-09,-0.01073036372218972,3.327048674733755e-09,6.787857293242069e-05,3.327048674733755e-09,6.797561190095619e-05,3.327048674733755e-09,-0.003595160890633642,3.327048674733755e-09,0.7372492637409751
3.329986751806703e-09,-0.01154596000902683,3.329986751806703e-09,6.789235598222419e-05,3.329986751806703e-09,6.797023474033176e-05,3.329986751806703e-09,-0.003168608640788561,3.329986751806703e-09,0.7388815287815015
3.332613091520152e-09,0.02122564560184784,3.332613091520152e-09,6.792870657191127e-05,3.332613091520152e-09,6.795974562255124e-05,3.332613091520152e-09,-0.002361690664623933,3.332613091520152e-09,0.7403406064000844
3.335099740936035e-09,0.09846413842880584,3.335099740936035e-09,6.796132766536349e-05,3.335099740936035e-09,6.794361158009746e-05,3.335099740936035e-09,-0.001661230276739465,3.335099740936035e-09,0.7417220782977975
3.337226263278155e-09,0.1921447342831623,3.337226263278155e-09,6.799700171946617e-05,3.337226263278155e-09,6.794693592106381e-05,3.337226263278155e-09,-0.0009534626864632493,3.337226263278155e-09,0.7429034795989748
3.339777268849528e-09,0.3204036446159196,3.339777268849528e-09,6.802352392018809e-05,3.339777268849528e-09,6.795600437093775e-05,3.339777268849528e-09,0.0002095343167598733,3.339777268849528e-09,0.7443207049164042
3.342584470224421e-09,0.4721268477763411,3.342584470224421e-09,6.800650084709843e-05,3.342584470224421e-09,6.794659451576575e-05,3.342584470224421e-09,0.001442580006747457,3.342584470224421e-09,0.7458802612357893
3.345277717154087e-09,0.6114460903323179,3.345277717154087e-09,6.79833573635743e-05,3.345277717154087e-09,6.794367367860248e-05,3.345277717154087e-09,0.002379745586031284,3.345277717154087e-09,0.7473765095300482
3.348142813384776e-09,0.7317244609793656,3.348142813384776e-09,6.796453053500903e-05,3.348142813384776e-09,6.794365712949112e-05,3.348142813384776e-09,0.002932744365805587,3.348142813384776e-09,0.7489682296582088
3.350663740309008e-09,0.8041834254929138,3.350663740309008e-09,6.795897143247907e-05,3.350663740309008e-09,6.794927325522534e-05,3.350663740309008e-09,0.003061629889166526,3.350663740309008e-09,0.7503687446161156
3.353265384777864e-09,0.8681084253777253,3.353265384777864e-09,6.796003202219623e-05,3.353265384777864e-09,6.795678143822826e-05,3.353265384777864e-09,0.00294700885028767,3.353265384777864e-09,0.751814102654369
3.356105813065273e-09,1.005447850844878,3.356105813065273e-09,6.796085088012326e-05,3.356105813065273e-09,6.796165106331404e-05,3.356105813065273e-09,0.002635823312653228,3.356105813065273e-09,0.7533921183695961
3.358737777647227e-09,1.335142541305259,3.358737777647227e-09,6.796133175360661e-05,3.358737777647227e-09,6.79640745200081e-05,3.358737777647227e-09,0.002266565735543279,3.358737777647227e-09,0.7548543209151258
3.36080804747997e-09,1.841854434781966,3.36080804747997e-09,6.796069252966001e-05,3.36080804747997e-09,6.796444606481344e-05,3.36080804747997e-09,0.001982562344981038,3.36080804747997e-09,0.7560044708222056
3.362779101381739e-09,2.522796126247941,3.362779101381739e-09,6.795944991188523e-05,3.362779101381739e-09,6.796375209380527e-05,3.362779101381739e-09,0.001739300483078779,3.362779101381739e-09,0.7570995007676327
3.364022669605244e-09,3.001041299136306,3.364022669605244e-09,6.795770975421025e-05,3.364022669605244e-09,6.796230613595259e-05,3.364022669605244e-09,0.001598142234443256,3.364022669605244e-09,0.7577903720029133
