/net010 X,/net010 Y,/net09 X,/net09 Y,/net08 X,/net08 Y,/net02 X,/net02 Y,/net039 X,/net039 Y
0,6.795643765970348e-05,0,6.795643765957525e-05,0,6.094256728532752e-05,0,0,0,6.795643765982337e-05
1.5e-11,6.795643765974598e-05,1.5e-11,6.795643765984734e-05,1.5e-11,6.094256728536611e-05,1.5e-11,0,1.5e-11,6.79564376596411e-05
4.5e-11,6.795643765965686e-05,4.5e-11,6.795643765979091e-05,4.5e-11,6.094256728512003e-05,4.5e-11,0,4.5e-11,6.795643765980512e-05
1.05e-10,6.795643765699783e-05,1.05e-10,6.795643766281023e-05,1.05e-10,6.094256728537793e-05,1.05e-10,0,1.05e-10,6.795643766289383e-05
2.25e-10,6.795643766254825e-05,2.25e-10,6.795643765666235e-05,2.25e-10,6.094256728495697e-05,2.25e-10,0,2.25e-10,6.795643765675515e-05
4.65e-10,6.795643765693768e-05,4.65e-10,6.795643766321898e-05,4.65e-10,6.094256728558736e-05,4.65e-10,0,4.65e-10,6.795643766266215e-05
7.649999999999999e-10,6.795643765975238e-05,7.649999999999999e-10,6.795643765656806e-05,7.649999999999999e-10,6.094256728512035e-05,7.649999999999999e-10,0,7.649999999999999e-10,6.795643765691951e-05
1.065e-09,6.795643765935865e-05,1.065e-09,6.795643766607199e-05,1.065e-09,6.094256728525737e-05,1.065e-09,0,1.065e-09,6.79564376654963e-05
1.365e-09,6.795643766034804e-05,1.365e-09,6.795643765358935e-05,1.365e-09,6.094256728543843e-05,1.365e-09,0,1.365e-09,6.795643765424979e-05
1.665e-09,6.795643765911038e-05,1.665e-09,6.795643766920516e-05,1.665e-09,6.094256728520233e-05,1.665e-09,0,1.665e-09,6.795643766229661e-05
1.8325e-09,6.795643766046781e-05,1.8325e-09,6.795643765083437e-05,1.8325e-09,6.094256728542562e-05,1.8325e-09,0,1.8325e-09,6.795643765732334e-05
2e-09,6.795643765581735e-05,2e-09,6.795643766577044e-05,2e-09,6.09425672849066e-05,2e-09,0,2e-09,6.795643766204788e-05
2.120144127384571e-09,6.79564376595222e-05,2.120144127384571e-09,6.795643765975871e-05,2.120144127384571e-09,6.094256728608972e-05,2.120144127384571e-09,0.06674673743587282,2.120144127384571e-09,6.795643765954287e-05
2.261585129605973e-09,6.795643766000611e-05,2.261585129605973e-09,6.795643765658201e-05,2.261585129605973e-09,6.094256725714106e-05,2.261585129605973e-09,0.1453250720033182,2.261585129605973e-09,6.795643766001912e-05
2.400273538304042e-09,6.795643765968834e-05,2.400273538304042e-09,6.795643766321621e-05,2.400273538304042e-09,6.094256740797252e-05,2.400273538304042e-09,0.2223741879466899,2.400273538304042e-09,6.795643765934862e-05
2.455693803734343e-09,6.795643765973629e-05,2.455693803734343e-09,6.795643765632456e-05,2.455693803734343e-09,6.094256660853124e-05,2.455693803734343e-09,0.2531632242968572,2.455693803734343e-09,6.795643765996545e-05
2.483403936449494e-09,6.795643765980404e-05,2.483403936449494e-09,6.795643766909661e-05,2.483403936449494e-09,6.094256953056565e-05,2.483403936449494e-09,0.2685577424719408,2.483403936449494e-09,6.795643765966464e-05
2.538824201879795e-09,6.795643765986919e-05,2.538824201879795e-09,6.795643764597034e-05,2.538824201879795e-09,6.094256443266706e-05,2.538824201879795e-09,0.2993467788221081,2.538824201879795e-09,6.795643765693641e-05
2.561274479319849e-09,6.795643765983718e-05,2.561274479319849e-09,6.795643768502516e-05,2.561274479319849e-09,6.094257002884756e-05,2.561274479319849e-09,0.3118191551776938,2.561274479319849e-09,6.795643766205499e-05
2.572499618039876e-09,6.795643766002368e-05,2.572499618039876e-09,6.795643764016677e-05,2.572499618039876e-09,6.09425677454096e-05,2.572499618039876e-09,0.3180553433554868,2.572499618039876e-09,6.795643765854536e-05
2.594949895479931e-09,6.795643765965027e-05,2.594949895479931e-09,6.795643766348095e-05,2.594949895479931e-09,6.094256539648907e-05,2.594949895479931e-09,0.3305277197110728,2.594949895479931e-09,6.795643766125958e-05
2.620191837979262e-09,6.79564376572787e-05,2.620191837979262e-09,6.79564376700401e-05,2.620191837979262e-09,6.094256964365337e-05,2.620191837979262e-09,0.3445510210995902,2.620191837979262e-09,6.795643765838657e-05
2.64115221096359e-09,6.795643766198413e-05,2.64115221096359e-09,6.795643763822308e-05,2.64115221096359e-09,6.094256500437003e-05,2.64115221096359e-09,0.3561956727575497,2.64115221096359e-09,6.795643766113843e-05
2.661831460742429e-09,6.795643765529053e-05,2.661831460742429e-09,6.795643768498062e-05,2.661831460742429e-09,6.09425691608199e-05,2.661831460742429e-09,0.3676841448569049,2.661831460742429e-09,6.795643765862924e-05
2.683150840005116e-09,6.795643766060173e-05,2.683150840005116e-09,6.795643763465967e-05,2.683150840005116e-09,6.094256586946197e-05,2.683150840005116e-09,0.3795282444472866,2.683150840005116e-09,6.795643766096624e-05
2.702706616568928e-09,6.795643765897874e-05,2.702706616568928e-09,6.795643768269339e-05,2.702706616568928e-09,6.094256825078789e-05,2.702706616568928e-09,0.3903925647605153,2.702706616568928e-09,6.795643765871046e-05
2.725850249365936e-09,6.79564376603609e-05,2.725850249365936e-09,6.795643763951123e-05,2.725850249365936e-09,6.094256663081311e-05,2.725850249365936e-09,0.4032501385366311,2.725850249365936e-09,6.79564376607316e-05
2.754017301165352e-09,6.795643765935747e-05,2.754017301165352e-09,6.795643767787047e-05,2.754017301165352e-09,6.09425677347369e-05,2.754017301165352e-09,0.4188985006474178,2.754017301165352e-09,6.795643766189999e-05
2.784554590449327e-09,6.795643766045884e-05,2.784554590449327e-09,6.795643764387609e-05,2.784554590449327e-09,6.09425669871656e-05,2.784554590449327e-09,0.4358636613607373,2.784554590449327e-09,6.795643765790563e-05
2.813120231789143e-09,6.795643765918084e-05,2.813120231789143e-09,6.795643767031066e-05,2.813120231789143e-09,6.0942567455594e-05,2.813120231789143e-09,0.4517334621050795,2.813120231789143e-09,6.795643766160369e-05
2.842920733339648e-09,6.795643766018324e-05,2.842920733339648e-09,6.795643764842835e-05,2.842920733339648e-09,6.094256721017265e-05,2.842920733339648e-09,0.4682892962998044,2.842920733339648e-09,6.795643765831266e-05
2.86724366281406e-09,6.795643765947437e-05,2.86724366281406e-09,6.795643766875601e-05,2.86724366281406e-09,6.094256727249853e-05,2.86724366281406e-09,0.4818020348966999,2.86724366281406e-09,6.795643765844269e-05
2.895154013064824e-09,6.795643765729636e-05,2.895154013064824e-09,6.795643765491702e-05,2.895154013064824e-09,6.094256735374423e-05,2.895154013064824e-09,0.4973077850360134,2.895154013064824e-09,6.795643765816699e-05
2.921094972944821e-09,6.795643766199116e-05,2.921094972944821e-09,6.795643766379607e-05,2.921094972944821e-09,6.09425671731627e-05,2.921094972944821e-09,0.5117194294137892,2.921094972944821e-09,6.795643766111896e-05
2.972976892704814e-09,6.795643765778508e-05,2.972976892704814e-09,6.795643765609113e-05,2.972976892704814e-09,6.094256741398641e-05,2.972976892704814e-09,0.540542718169341,2.972976892704814e-09,6.795643765868013e-05
3.015534443811657e-09,6.795643766167055e-05,3.015534443811657e-09,6.795643766269609e-05,3.015534443811657e-09,6.094256713967745e-05,3.015534443811657e-09,0.5641858021175873,3.015534443811657e-09,6.795643765806104e-05
3.058952952516202e-09,6.795643765825371e-05,3.058952952516202e-09,6.795643766045067e-05,3.058952952516202e-09,6.094256744422596e-05,3.058952952516202e-09,0.5883071958423342,3.058952952516202e-09,6.795643766429952e-05
3.070072085183756e-09,6.795643766078868e-05,3.070072085183756e-09,6.795643765874759e-05,3.070072085183756e-09,6.094256709556211e-05,3.070072085183756e-09,0.5944844917687532,3.070072085183756e-09,6.795643765948076e-05
3.092310350518864e-09,6.79564376589358e-05,3.092310350518864e-09,6.795643765850998e-05,3.092310350518864e-09,6.094256747927197e-05,3.092310350518864e-09,0.6068390836215909,3.092310350518864e-09,6.79564376574705e-05
3.099638279911129e-09,6.795643766010522e-05,3.099638279911129e-09,6.795643765939975e-05,3.099638279911129e-09,6.09425670964076e-05,3.099638279911129e-09,0.6109101555061827,3.099638279911129e-09,6.795643766075631e-05
3.11429413869566e-09,6.795643765961184e-05,3.11429413869566e-09,6.795643766034504e-05,3.11429413869566e-09,6.094256746286149e-05,3.11429413869566e-09,0.6190522992753665,3.11429413869566e-09,6.795643765891063e-05
3.118522099333943e-09,6.79564376596752e-05,3.118522099333943e-09,6.795643765653265e-05,3.118522099333943e-09,6.094256708771931e-05,3.118522099333943e-09,0.6214011662966347,3.118522099333943e-09,6.79564376601003e-05
3.126978020610508e-09,6.795643765963639e-05,3.126978020610508e-09,6.795643766182224e-05,3.126978020610508e-09,6.094256740477041e-05,3.126978020610508e-09,0.6260989003391713,3.126978020610508e-09,6.795643765926451e-05
3.135236705325413e-09,6.795643766007055e-05,3.135236705325413e-09,6.795643767010828e-05,3.135236705325413e-09,6.094256740498981e-05,3.135236705325413e-09,0.6306870585141181,3.135236705325413e-09,6.795643765804609e-05
3.143153413134583e-09,6.795643765882133e-05,3.143153413134583e-09,6.795643765255899e-05,3.143153413134583e-09,6.094256753380148e-05,3.143153413134583e-09,0.635085229519213,3.143153413134583e-09,6.795643766090563e-05
3.152074375167148e-09,6.795643765806661e-05,3.152074375167148e-09,6.79564376569241e-05,3.152074375167148e-09,6.094256721637325e-05,3.152074375167148e-09,0.6400413195373044,3.152074375167148e-09,6.795643765874479e-05
3.155201714469227e-09,6.795643766322882e-05,3.155201714469227e-09,6.795643779391458e-05,3.155201714469227e-09,6.094256983829833e-05,3.155201714469227e-09,0.6417787302606817,3.155201714469227e-09,6.795643766359803e-05
3.161456393073385e-09,6.795643765679698e-05,3.161456393073385e-09,6.795643743428889e-05,3.161456393073385e-09,6.094256436259575e-05,3.161456393073385e-09,0.6452535517074363,3.161456393073385e-09,6.795643765276025e-05
3.169463697509816e-09,6.795643766048505e-05,3.169463697509816e-09,6.795643567212671e-05,3.169463697509816e-09,6.094250478993364e-05,3.169463697509816e-09,0.64970205417212,3.169463697509816e-09,6.795643760958767e-05
3.178072358015696e-09,6.795643766063457e-05,3.178072358015696e-09,6.795643877858576e-05,3.178072358015696e-09,6.094252394364941e-05,3.178072358015696e-09,0.6544846433420533,3.178072358015696e-09,6.795643774108691e-05
3.186324396061962e-09,6.795643767714028e-05,3.186324396061962e-09,6.795649361481308e-05,3.186324396061962e-09,6.094419527434755e-05,3.186324396061962e-09,0.6590691089233121,3.186324396061962e-09,6.795643914639588e-05
3.197057002094491e-09,6.795643760940226e-05,3.197057002094491e-09,6.795637357700371e-05,3.197057002094491e-09,6.094267882456499e-05,3.197057002094491e-09,0.6650316678302729,3.197057002094491e-09,6.795643613683486e-05
3.204665144157956e-09,6.795643729231949e-05,3.204665144157956e-09,6.795421425804091e-05,3.204665144157956e-09,6.088063085840863e-05,3.204665144157956e-09,0.6692584134210867,3.204665144157956e-09,6.795642160461861e-05
3.21231691646844e-09,6.79564387420077e-05,3.21231691646844e-09,6.795712317550257e-05,3.21231691646844e-09,6.088580305276945e-05,3.21231691646844e-09,0.6735093980380223,3.21231691646844e-09,6.795642598543921e-05
3.219485189426862e-09,6.795643870189062e-05,3.219485189426862e-09,6.796697124165517e-05,3.219485189426862e-09,6.117044212888222e-05,3.219485189426862e-09,0.677491771903812,3.219485189426862e-09,6.795651815746211e-05
3.225448915372902e-09,6.795643177924719e-05,3.225448915372902e-09,6.794936095349489e-05,3.225448915372902e-09,6.10223964898458e-05,3.225448915372902e-09,0.6808049529849456,3.225448915372902e-09,6.795650962123509e-05
3.233703840254817e-09,6.795644284655089e-05,3.233703840254817e-09,6.795096151922836e-05,3.233703840254817e-09,6.080874056388319e-05,3.233703840254817e-09,0.685391022363787,3.233703840254817e-09,6.795637201766639e-05
3.241677187034164e-09,6.795643726209919e-05,3.241677187034164e-09,6.796082380406004e-05,3.241677187034164e-09,6.091444820989884e-05,3.241677187034164e-09,0.6898206594634245,3.241677187034164e-09,6.795643763723286e-05
3.248880945513353e-09,6.795643502731831e-05,3.248880945513353e-09,6.795652268015838e-05,3.248880945513353e-09,6.092939370173565e-05,3.248880945513353e-09,0.6938227475074185,3.248880945513353e-09,6.795637026038324e-05
3.256097616548331e-09,6.795643852114859e-05,3.256097616548331e-09,6.795716999057642e-05,3.256097616548331e-09,6.094664478044943e-05,3.256097616548331e-09,0.6978320091935174,3.256097616548331e-09,6.795615828509309e-05
3.262547469759193e-09,6.795643561773004e-05,3.262547469759193e-09,6.795320751046936e-05,3.262547469759193e-09,6.084579545722854e-05,3.262547469759193e-09,0.7014152609773296,3.262547469759193e-09,6.795601221730269e-05
3.268229515248054e-09,6.795641799130418e-05,3.268229515248054e-09,6.795157370876153e-05,3.268229515248054e-09,6.061840838980583e-05,3.268229515248054e-09,0.7045719529155854,3.268229515248054e-09,6.795176603787085e-05
3.272394833244891e-09,6.795629121396041e-05,3.272394833244891e-09,6.795293072007522e-05,3.272394833244891e-09,5.997369746002549e-05,3.272394833244891e-09,0.706886018469384,3.272394833244891e-09,6.7927411031211e-05
3.276425170489643e-09,6.79563416360942e-05,3.276425170489643e-09,6.796385697729058e-05,3.276425170489643e-09,5.923599789758874e-05,3.276425170489643e-09,0.7091250947164683,3.276425170489643e-09,6.790874759936792e-05
3.280090034601516e-09,6.795752743138545e-05,3.280090034601516e-09,6.797195643752382e-05,3.280090034601516e-09,6.180437533560666e-05,3.280090034601516e-09,0.7111611303341754,3.280090034601516e-09,6.806780045922681e-05
3.283575353589812e-09,6.796188301712739e-05,3.283575353589812e-09,6.797492464811831e-05,3.283575353589812e-09,7.885915084083692e-05,3.283575353589812e-09,0.7130974186610067,3.283575353589812e-09,6.888010580153972e-05
3.286969047105517e-09,6.796109478789592e-05,3.286969047105517e-09,6.797020289172495e-05,3.286969047105517e-09,0.0001044499803298065,3.286969047105517e-09,0.7149828039475092,3.286969047105517e-09,6.962039751110937e-05
3.289566142223718e-09,6.795074995418749e-05,3.289566142223718e-09,6.796986417542389e-05,3.289566142223718e-09,0.0001021818998974182,3.289566142223718e-09,0.7164256345687319,3.289566142223718e-09,6.899294835928427e-05
3.291979650848602e-09,6.794438710783487e-05,3.291979650848602e-09,6.796091619157898e-05,3.291979650848602e-09,3.270453985832165e-05,3.291979650848602e-09,0.7177664726936676,3.291979650848602e-09,6.779765484627705e-05
3.294896761395941e-09,6.794819729403824e-05,3.294896761395941e-09,6.793290723395192e-05,3.294896761395941e-09,-0.0002635319543840633,3.294896761395941e-09,0.7193870896644114,3.294896761395941e-09,6.663235687841645e-05
3.298197196195156e-09,6.796173155258595e-05,3.298197196195156e-09,6.791765687067814e-05,3.298197196195156e-09,-0.0009385030243413698,3.298197196195156e-09,0.7212206645528644,3.298197196195156e-09,6.10089454840148e-05
3.302169200939008e-09,6.797830687336577e-05,3.302169200939008e-09,6.794705716352704e-05,3.302169200939008e-09,-0.001207731776889389,3.302169200939008e-09,0.7234273338550042,3.302169200939008e-09,4.979938618910777e-05
3.304962673437167e-09,6.796212060754211e-05,3.304962673437167e-09,6.79557532525294e-05,3.304962673437167e-09,-0.0009151069253412102,3.304962673437167e-09,0.7249792630206482,3.304962673437167e-09,4.928142904851927e-05
3.307666108879197e-09,6.794717546603106e-05,3.307666108879197e-09,6.794996293779098e-05,3.307666108879197e-09,-0.0005339613821682361,3.307666108879197e-09,0.7264811715995538,3.307666108879197e-09,5.964289568130225e-05
3.310466922891174e-09,6.795514578049447e-05,3.310466922891174e-09,6.794845577211571e-05,3.310466922891174e-09,-0.0002451431316355351,3.310466922891174e-09,0.7280371793839856,3.310466922891174e-09,8.274111334297861e-05
3.313075617101846e-09,6.797569118593553e-05,3.313075617101846e-09,6.794764299751804e-05,3.313075617101846e-09,-0.0003158575252458914,3.313075617101846e-09,0.7294864539454702,3.313075617101846e-09,0.0001225318629486584
3.315488550151458e-09,6.79918061627519e-05,3.315488550151458e-09,6.795316909890031e-05,3.315488550151458e-09,-0.0007882501946320494,3.315488550151458e-09,0.7308269723063658,3.315488550151458e-09,0.000189696467373801
3.318235202813232e-09,6.797693380380894e-05,3.318235202813232e-09,6.79625538711351e-05,3.318235202813232e-09,-0.001704605818667773,3.318235202813232e-09,0.7323528904517956,3.318235202813232e-09,0.0003533988769426596
3.321381094214292e-09,6.7934681623728e-05,3.321381094214292e-09,6.797704614034165e-05,3.321381094214292e-09,-0.002743867658020786,3.321381094214292e-09,0.7341006078968287,3.321381094214292e-09,0.0004062606132062276
3.324145305512572e-09,6.789808096103469e-05,3.324145305512572e-09,6.797928078906737e-05,3.324145305512572e-09,-0.003385753357102802,3.324145305512572e-09,0.7356362808403177,3.324145305512572e-09,-0.00279562309378671
3.327048674733721e-09,6.787857293525183e-05,3.327048674733721e-09,6.797561190078819e-05,3.327048674733721e-09,-0.003595160890554996,3.327048674733721e-09,0.7372492637409558,3.327048674733721e-09,-0.0107303637221381
3.329986751806666e-09,6.789235598196974e-05,3.329986751806666e-09,6.797023474032665e-05,3.329986751806666e-09,-0.003168608640739559,3.329986751806666e-09,0.7388815287814811,3.329986751806666e-09,-0.01154596000913416
3.33261309152011e-09,6.792870657227773e-05,3.33261309152011e-09,6.795974562439212e-05,3.33261309152011e-09,-0.002361690664614818,3.33261309152011e-09,0.7403406064000613,3.33261309152011e-09,0.02122564560126539
3.33509974093601e-09,6.796132766581092e-05,3.33509974093601e-09,6.794361158260507e-05,3.33509974093601e-09,-0.001661230276750759,3.33509974093601e-09,0.7417220782977831,3.33509974093601e-09,0.0984641384283548
3.337226263278124e-09,6.799700171989325e-05,3.337226263278124e-09,6.794693592095989e-05,3.337226263278124e-09,-0.0009534626865172291,3.337226263278124e-09,0.7429034795989576,3.337226263278124e-09,0.1921447342823867
3.339777268849494e-09,6.802352391948269e-05,3.339777268849494e-09,6.795600437068793e-05,3.339777268849494e-09,0.0002095343166515615,3.339777268849494e-09,0.7443207049163856,3.339777268849494e-09,0.3204036446149156
3.342584470224387e-09,6.800650084545017e-05,3.342584470224387e-09,6.794659451353336e-05,3.342584470224387e-09,0.001442580006608951,3.342584470224387e-09,0.7458802612357706,3.342584470224387e-09,0.4721268477751132
3.34527771715407e-09,6.798335736588763e-05,3.34527771715407e-09,6.794367367747147e-05,3.34527771715407e-09,0.002379745585884426,3.34527771715407e-09,0.7473765095300388,3.34527771715407e-09,0.6114460903316721
3.348142813384758e-09,6.796453053554883e-05,3.348142813384758e-09,6.79436571284859e-05,3.348142813384758e-09,0.002932744365660814,3.348142813384758e-09,0.7489682296581991,3.348142813384758e-09,0.7317244609788005
3.350663740308993e-09,6.795897143201056e-05,3.350663740308993e-09,6.794927325401335e-05,3.350663740308993e-09,0.00306162988903576,3.350663740308993e-09,0.750368744616107,3.350663740308993e-09,0.8041834254926978
3.353265384777843e-09,6.796003202360734e-05,3.353265384777843e-09,6.795678143841688e-05,3.353265384777843e-09,0.002947008850181901,3.353265384777843e-09,0.7518141026543573,3.353265384777843e-09,0.8681084253772824
3.356105813065243e-09,6.796085088002854e-05,3.356105813065243e-09,6.796165106384166e-05,3.356105813065243e-09,0.002635823312587102,3.356105813065243e-09,0.7533921183695793,3.356105813065243e-09,1.005447850843185
3.358737777647197e-09,6.796133175398195e-05,3.358737777647197e-09,6.796407452069336e-05,3.358737777647197e-09,0.002266565735513396,3.358737777647197e-09,0.7548543209151096,3.358737777647197e-09,1.335142541301312
3.360808047479943e-09,6.796069253098433e-05,3.360808047479943e-09,6.796444606558057e-05,3.360808047479943e-09,0.001982562344973221,3.360808047479943e-09,0.7560044708221907,3.360808047479943e-09,1.841854434776292
3.36277910138171e-09,6.795944991189863e-05,3.36277910138171e-09,6.796375209364817e-05,3.36277910138171e-09,0.001739300483093185,3.36277910138171e-09,0.7570995007676165,3.36277910138171e-09,2.522796126240049
3.364022669605214e-09,6.795770975465658e-05,3.364022669605214e-09,6.796230613587374e-05,3.364022669605214e-09,0.001598142234466267,3.364022669605214e-09,0.7577903720028968,3.364022669605214e-09,3.001041299128185
