/net010 X,/net010 Y,/net09 X,/net09 Y,/net08 X,/net08 Y,/net02 X,/net02 Y,/net039 X,/net039 Y
0,6.795643765965912e-05,0,6.795643765980378e-05,0,6.094256728540189e-05,0,0,0,6.79564376597618e-05
1.5e-11,6.79564376597259e-05,1.5e-11,6.79564376596458e-05,1.5e-11,6.094256728561434e-05,1.5e-11,0,1.5e-11,6.795643765980806e-05
4.5e-11,6.795643765966431e-05,4.5e-11,6.795643765966782e-05,4.5e-11,6.09425672857338e-05,4.5e-11,0,4.5e-11,6.795643765972851e-05
1.05e-10,6.795643765702603e-05,1.05e-10,6.795643765973717e-05,1.05e-10,6.094256728540287e-05,1.05e-10,0,1.05e-10,6.795643765703589e-05
2.25e-10,6.795643766246033e-05,2.25e-10,6.795643765681748e-05,2.25e-10,6.094256728540065e-05,2.25e-10,0,2.25e-10,6.795643766247919e-05
4.65e-10,6.795643766030009e-05,4.65e-10,6.795643766251517e-05,4.65e-10,6.094256728578639e-05,4.65e-10,0,4.65e-10,6.795643766012365e-05
7.649999999999999e-10,6.795643765938521e-05,7.649999999999999e-10,6.795643765746783e-05,7.649999999999999e-10,6.094256728538948e-05,7.649999999999999e-10,0,7.649999999999999e-10,6.795643765629221e-05
1.065e-09,6.795643766022899e-05,1.065e-09,6.795643766225926e-05,1.065e-09,6.094256728586757e-05,1.065e-09,0,1.065e-09,6.795643766327364e-05
1.365e-09,6.795643765953527e-05,1.365e-09,6.795643765760093e-05,1.365e-09,6.094256728529569e-05,1.365e-09,0,1.365e-09,6.795643765644701e-05
1.665e-09,6.795643765657954e-05,1.665e-09,6.795643766220746e-05,1.665e-09,6.094256728573116e-05,1.665e-09,0,1.665e-09,6.795643766294569e-05
1.8325e-09,6.795643765967118e-05,1.8325e-09,6.795643765757778e-05,1.8325e-09,6.094256728525439e-05,1.8325e-09,0,1.8325e-09,6.795643765643433e-05
2e-09,6.795643765998086e-05,2e-09,6.795643765889212e-05,2e-09,6.094256728586425e-05,2e-09,0,2e-09,6.795643766316099e-05
2.120144127384571e-09,6.795643765963791e-05,2.120144127384571e-09,6.795643765978874e-05,2.120144127384571e-09,6.094256728640021e-05,2.120144127384571e-09,0.06674673743587282,2.120144127384571e-09,6.795643765967872e-05
2.261585129605973e-09,6.795643765984523e-05,2.261585129605973e-09,6.795643765975347e-05,2.261585129605973e-09,6.09425672556305e-05,2.261585129605973e-09,0.1453250720033182,2.261585129605973e-09,6.795643765675109e-05
2.400273538304042e-09,6.79564376629403e-05,2.400273538304042e-09,6.795643766000734e-05,2.400273538304042e-09,6.094256741413072e-05,2.400273538304042e-09,0.2223741879466899,2.400273538304042e-09,6.795643765960678e-05
2.455693803734323e-09,6.795643765690705e-05,2.455693803734323e-09,6.795643765896937e-05,2.455693803734323e-09,6.094256659450104e-05,2.455693803734323e-09,0.253163224296846,2.455693803734323e-09,6.795643765993786e-05
2.483403936449463e-09,6.795643765923398e-05,2.483403936449463e-09,6.795643766983115e-05,2.483403936449463e-09,6.09425695431192e-05,2.483403936449463e-09,0.268557742471924,2.483403936449463e-09,6.795643765967984e-05
2.538824201879745e-09,6.795643766031487e-05,2.538824201879745e-09,6.795643764227055e-05,2.538824201879745e-09,6.094256442834952e-05,2.538824201879745e-09,0.2993467788220803,2.538824201879745e-09,6.795643765704083e-05
2.561274479319427e-09,6.795643765946143e-05,2.561274479319427e-09,6.795643768781799e-05,2.561274479319427e-09,6.09425700203177e-05,2.561274479319427e-09,0.3118191551774592,2.561274479319427e-09,6.795643766188813e-05
2.572499618039268e-09,6.795643766017898e-05,2.572499618039268e-09,6.795643763808548e-05,2.572499618039268e-09,6.094256775421306e-05,2.572499618039268e-09,0.3180553433551486,2.572499618039268e-09,6.795643765844482e-05
2.594949895478949e-09,6.795643765971348e-05,2.594949895478949e-09,6.795643766560359e-05,2.594949895478949e-09,6.094256539412186e-05,2.594949895478949e-09,0.3305277197105273,2.594949895478949e-09,6.795643766093825e-05
2.620191837978364e-09,6.795643765703886e-05,2.620191837978364e-09,6.795643766800385e-05,2.620191837978364e-09,6.094256964408261e-05,2.620191837978364e-09,0.3445510210990909,2.620191837978364e-09,6.795643765879618e-05
2.641152210962374e-09,6.795643765920174e-05,2.641152210962374e-09,6.795643763984832e-05,2.641152210962374e-09,6.094256500477226e-05,2.641152210962374e-09,0.3561956727568744,2.641152210962374e-09,6.795643766061623e-05
2.6618314607419e-09,6.795643766017199e-05,2.6618314607419e-09,6.795643768324644e-05,2.6618314607419e-09,6.094256916088839e-05,2.6618314607419e-09,0.3676841448566111,2.6618314607419e-09,6.795643765924561e-05
2.683150840004618e-09,6.795643765938964e-05,2.683150840004618e-09,6.795643763621274e-05,2.683150840004618e-09,6.094256586930915e-05,2.683150840004618e-09,0.3795282444470102,2.683150840004618e-09,6.79564376603392e-05
2.702706616568263e-09,6.795643766029255e-05,2.702706616568263e-09,6.795643768129668e-05,2.702706616568263e-09,6.094256825126178e-05,2.702706616568263e-09,0.3903925647601462,2.702706616568263e-09,6.795643765925661e-05
2.725850249364687e-09,6.795643765944587e-05,2.725850249364687e-09,6.795643764348289e-05,2.725850249364687e-09,6.094256663039415e-05,2.725850249364687e-09,0.4032501385359369,2.725850249364687e-09,6.795643765756065e-05
2.754017301164226e-09,6.795643765731573e-05,2.754017301164226e-09,6.795643767172747e-05,2.754017301164226e-09,6.094256773567618e-05,2.754017301164226e-09,0.4188985006467924,2.754017301164226e-09,6.795643766150648e-05
2.784554590448029e-09,6.795643766203332e-05,2.784554590448029e-09,6.795643764962822e-05,2.784554590448029e-09,6.094256698657953e-05,2.784554590448029e-09,0.4358636613600163,2.784554590448029e-09,6.795643765529567e-05
2.81312023178758e-09,6.795643765784277e-05,2.81312023178758e-09,6.795643766840417e-05,2.81312023178758e-09,6.0942567456139e-05,2.81312023178758e-09,0.4517334621042112,2.81312023178758e-09,6.795643766081374e-05
2.842920733337601e-09,6.795643766142433e-05,2.842920733337601e-09,6.795643765277559e-05,2.842920733337601e-09,6.094256721001196e-05,2.842920733337601e-09,0.468289296298667,2.842920733337601e-09,6.7956437658677e-05
2.867243662813179e-09,6.79564376584277e-05,2.867243662813179e-09,6.795643766526809e-05,2.867243662813179e-09,6.094256727326597e-05,2.867243662813179e-09,0.4818020348962103,2.867243662813179e-09,6.795643766075384e-05
2.895154013063962e-09,6.795643766126912e-05,2.895154013063962e-09,6.795643765815207e-05,2.895154013063962e-09,6.094256735398899e-05,2.895154013063962e-09,0.4973077850355341,2.895154013063962e-09,6.795643765876215e-05
2.921094972943611e-09,6.795643765853848e-05,2.921094972943611e-09,6.795643766063713e-05,2.921094972943611e-09,6.09425671735373e-05,2.921094972943611e-09,0.5117194294131172,2.921094972943611e-09,6.795643766068487e-05
2.97297689270291e-09,6.795643765811453e-05,2.97297689270291e-09,6.795643765965773e-05,2.97297689270291e-09,6.094256741402934e-05,2.97297689270291e-09,0.5405427181682833,2.97297689270291e-09,6.795643765876312e-05
3.015534443809117e-09,6.795643766429367e-05,3.015534443809117e-09,6.795643765983704e-05,3.015534443809117e-09,6.094256713955347e-05,3.015534443809117e-09,0.5641858021161763,3.015534443809117e-09,6.795643765782578e-05
3.058952952513294e-09,6.795643765566862e-05,3.058952952513294e-09,6.795643766007994e-05,3.058952952513294e-09,6.094256744456828e-05,3.058952952513294e-09,0.5883071958407187,3.058952952513294e-09,6.795643766138154e-05
3.070072085180753e-09,6.795643766247161e-05,3.070072085180753e-09,6.795643765856938e-05,3.070072085180753e-09,6.094256709613182e-05,3.070072085180753e-09,0.5944844917670853,3.070072085180753e-09,6.795643765894341e-05
3.092310350515673e-09,6.795643765976876e-05,3.092310350515673e-09,6.79564376587038e-05,3.092310350515673e-09,6.094256747961836e-05,3.092310350515673e-09,0.6068390836198182,3.092310350515673e-09,6.795643766074904e-05
3.099638279908439e-09,6.795643766003886e-05,3.099638279908439e-09,6.795643765751968e-05,3.099638279908439e-09,6.094256709621318e-05,3.099638279908439e-09,0.6109101555046883,3.099638279908439e-09,6.795643765976049e-05
3.114294138693971e-09,6.795643765976522e-05,3.114294138693971e-09,6.79564376645453e-05,3.114294138693971e-09,6.094256746265177e-05,3.114294138693971e-09,0.6190522992744285,3.114294138693971e-09,6.795643766014693e-05
3.118522099332275e-09,6.795643765975429e-05,3.118522099332275e-09,6.795643765568929e-05,3.118522099332275e-09,6.094256708724584e-05,3.118522099332275e-09,0.6214011662957084,3.118522099332275e-09,6.795643766017547e-05
3.126978020608883e-09,6.795643765741141e-05,3.126978020608883e-09,6.795643766154665e-05,3.126978020608883e-09,6.09425674053127e-05,3.126978020608883e-09,0.6260989003382684,3.126978020608883e-09,6.795643765948558e-05
3.135236705323175e-09,6.795643765938277e-05,3.135236705323175e-09,6.795643766782726e-05,3.135236705323175e-09,6.094256740445403e-05,3.135236705323175e-09,0.6306870585128752,3.135236705323175e-09,6.795643766013911e-05
3.143153413132615e-09,6.795643765940057e-05,3.143153413132615e-09,6.795643765420522e-05,3.143153413132615e-09,6.094256753416546e-05,3.143153413132615e-09,0.6350852295181193,3.143153413132615e-09,6.795643765988962e-05
3.1520743751644e-09,6.795643766017119e-05,3.1520743751644e-09,6.795643765775553e-05,3.1520743751644e-09,6.09425672160749e-05,3.1520743751644e-09,0.6400413195357776,3.1520743751644e-09,6.795643765965323e-05
3.155201714466496e-09,6.795643766066949e-05,3.155201714466496e-09,6.795643779307492e-05,3.155201714466496e-09,6.094256983916822e-05,3.155201714466496e-09,0.6417787302591645,3.155201714466496e-09,6.795643766314497e-05
3.161456393070689e-09,6.795643766122155e-05,3.161456393070689e-09,6.795643743477343e-05,3.161456393070689e-09,6.094256436302878e-05,3.161456393070689e-09,0.6452535517059383,3.161456393070689e-09,6.795643765113784e-05
3.169463697506052e-09,6.795643765719782e-05,3.169463697506052e-09,6.795643566964459e-05,3.169463697506052e-09,6.094250479023676e-05,3.169463697506052e-09,0.6497020541700286,3.169463697506052e-09,6.795643761052626e-05
3.17807235801357e-09,6.795643766382491e-05,3.17807235801357e-09,6.795643877965459e-05,3.17807235801357e-09,6.094252394320942e-05,3.17807235801357e-09,0.6544846433408721,3.17807235801357e-09,6.795643774035594e-05
3.186324396059486e-09,6.795643767448511e-05,3.186324396059486e-09,6.79564936139338e-05,3.186324396059486e-09,6.094419527481656e-05,3.186324396059486e-09,0.6590691089219365,3.186324396059486e-09,6.795643914653043e-05
3.197057002091316e-09,6.795643761192765e-05,3.197057002091316e-09,6.795637357995373e-05,3.197057002091316e-09,6.094267882423483e-05,3.197057002091316e-09,0.6650316678285086,3.197057002091316e-09,6.795643613653478e-05
3.204665144154141e-09,6.795643728779679e-05,3.204665144154141e-09,6.795421425826325e-05,3.204665144154141e-09,6.088063085750435e-05,3.204665144154141e-09,0.6692584134189673,3.204665144154141e-09,6.795642160273948e-05
3.212316916465546e-09,6.795643874547982e-05,3.212316916465546e-09,6.795712317530467e-05,3.212316916465546e-09,6.088580305290907e-05,3.212316916465546e-09,0.6735093980364142,3.212316916465546e-09,6.795642598648588e-05
3.219485189423268e-09,6.79564386992868e-05,3.219485189423268e-09,6.796697124005222e-05,3.219485189423268e-09,6.117044212967662e-05,3.219485189423268e-09,0.6774917719018156,3.219485189423268e-09,6.795651815878602e-05
3.225448915369655e-09,6.795643178175529e-05,3.225448915369655e-09,6.794936095632879e-05,3.225448915369655e-09,6.102239649035407e-05,3.225448915369655e-09,0.6808049529831415,3.225448915369655e-09,6.7956509619557e-05
3.233703840253333e-09,6.795644284388714e-05,3.233703840253333e-09,6.795096151709145e-05,3.233703840253333e-09,6.080874056438108e-05,3.233703840253333e-09,0.6853910223629629,3.233703840253333e-09,6.795637202161914e-05
3.241677187031644e-09,6.795643726228383e-05,3.241677187031644e-09,6.796082380544101e-05,3.241677187031644e-09,6.091444821046577e-05,3.241677187031644e-09,0.6898206594620245,3.241677187031644e-09,6.795643763475867e-05
3.248880945511313e-09,6.795643502647949e-05,3.248880945511313e-09,6.795652267711894e-05,3.248880945511313e-09,6.092939370238016e-05,3.248880945511313e-09,0.6938227475062853,3.248880945511313e-09,6.795637026229379e-05
3.256097616546159e-09,6.795643852438771e-05,3.256097616546159e-09,6.795716998996916e-05,3.256097616546159e-09,6.094664478120213e-05,3.256097616546159e-09,0.6978320091923104,3.256097616546159e-09,6.795615828556097e-05
3.262547469757813e-09,6.795643561726646e-05,3.262547469757813e-09,6.795320750884135e-05,3.262547469757813e-09,6.084579545698751e-05,3.262547469757813e-09,0.7014152609765627,3.262547469757813e-09,6.795601221713531e-05
3.268229515246458e-09,6.795641799657999e-05,3.268229515246458e-09,6.795157371157476e-05,3.268229515246458e-09,6.061840838842591e-05,3.268229515246458e-09,0.7045719529146991,3.268229515246458e-09,6.795176603588235e-05
3.272394833243433e-09,6.795629121336055e-05,3.272394833243433e-09,6.795293072046113e-05,3.272394833243433e-09,5.99736974591258e-05,3.272394833243433e-09,0.7068860184685741,3.272394833243433e-09,6.792741103139109e-05
3.276425170487941e-09,6.795634163868644e-05,3.276425170487941e-09,6.796385697750205e-05,3.276425170487941e-09,5.923599789666472e-05,3.276425170487941e-09,0.7091250947155227,3.276425170487941e-09,6.790874760027733e-05
3.280090034600133e-09,6.795752742988121e-05,3.280090034600133e-09,6.797195643728474e-05,3.280090034600133e-09,6.180437533319088e-05,3.280090034600133e-09,0.7111611303334073,3.280090034600133e-09,6.806780046046539e-05
3.283575353588307e-09,6.796188301895529e-05,3.283575353588307e-09,6.797492465047466e-05,3.283575353588307e-09,7.885915084189319e-05,3.283575353588307e-09,0.7130974186601704,3.283575353588307e-09,6.888010579854995e-05
3.28696904710386e-09,6.796109478798314e-05,3.28696904710386e-09,6.797020289359349e-05,3.28696904710386e-09,0.0001044499803465003,3.28696904710386e-09,0.714982803946589,3.28696904710386e-09,6.962039751329145e-05
3.289566142222495e-09,6.795074995431483e-05,3.289566142222495e-09,6.796986417620081e-05,3.289566142222495e-09,0.0001021818999284987,3.289566142222495e-09,0.716425634568053,3.289566142222495e-09,6.899294836083706e-05
3.291979650847242e-09,6.794438710707261e-05,3.291979650847242e-09,6.796091619211049e-05,3.291979650847242e-09,3.27045398986946e-05,3.291979650847242e-09,0.7177664726929123,3.291979650847242e-09,6.779765484607822e-05
3.294896761394397e-09,6.794819729520278e-05,3.294896761394397e-09,6.793290723337175e-05,3.294896761394397e-09,-0.0002635319543532639,3.294896761394397e-09,0.7193870896635538,3.294896761394397e-09,6.663235687709805e-05
3.29819719619337e-09,6.796173155046957e-05,3.29819719619337e-09,6.791765687286747e-05,3.29819719619337e-09,-0.0009385030246309638,3.29819719619337e-09,0.7212206645518721,3.29819719619337e-09,6.100894549064239e-05
3.302169200938918e-09,6.797830687309874e-05,3.302169200938918e-09,6.7947057158919e-05,3.302169200938918e-09,-0.001207731777530386,3.302169200938918e-09,0.7234273338549544,3.302169200938918e-09,4.979938618785974e-05
3.304962673437151e-09,6.79621206078127e-05,3.304962673437151e-09,6.795575325072741e-05,3.304962673437151e-09,-0.0009151069258624831,3.304962673437151e-09,0.7249792630206395,3.304962673437151e-09,4.928142904693359e-05
3.307666108879353e-09,6.794717546588391e-05,3.307666108879353e-09,6.794996294011885e-05,3.307666108879353e-09,-0.0005339613824261578,3.307666108879353e-09,0.7264811715996404,3.307666108879353e-09,5.964289567877017e-05
3.310466922891191e-09,6.795514578194447e-05,3.310466922891191e-09,6.794845577283241e-05,3.310466922891191e-09,-0.0002451431315389104,3.310466922891191e-09,0.7280371793839951,3.310466922891191e-09,8.27411133430298e-05
3.313075617101917e-09,6.797569118493437e-05,3.313075617101917e-09,6.79476430002492e-05,3.313075617101917e-09,-0.0003158575250417777,3.313075617101917e-09,0.7294864539455093,3.313075617101917e-09,0.0001225318629495321
3.31548855015152e-09,6.799180616292117e-05,3.31548855015152e-09,6.795316910049376e-05,3.31548855015152e-09,-0.0007882501946539604,3.31548855015152e-09,0.7308269723063999,3.31548855015152e-09,0.0001896964673763017
3.318235202813348e-09,6.797693380324964e-05,3.318235202813348e-09,6.796255387238266e-05,3.318235202813348e-09,-0.001704605819233172,3.318235202813348e-09,0.73235289045186,3.318235202813348e-09,0.0003533988769485655
3.321381094214412e-09,6.793468162382997e-05,3.321381094214412e-09,6.797704613883147e-05,3.321381094214412e-09,-0.00274386765921507,3.321381094214412e-09,0.7341006078968956,3.321381094214412e-09,0.0004062606131842944
3.324145305512692e-09,6.789808095934022e-05,3.324145305512692e-09,6.797928078570703e-05,3.324145305512692e-09,-0.003385753358724328,3.324145305512692e-09,0.7356362808403843,3.324145305512692e-09,-0.002795623093972434
3.327048674733848e-09,6.787857293396838e-05,3.327048674733848e-09,6.797561189933082e-05,3.327048674733848e-09,-0.003595160892211723,3.327048674733848e-09,0.7372492637410268,3.327048674733848e-09,-0.01073036372238275
3.329986751806772e-09,6.789235598366069e-05,3.329986751806772e-09,6.797023473863691e-05,3.329986751806772e-09,-0.003168608641827081,3.329986751806772e-09,0.7388815287815398,3.329986751806772e-09,-0.01154596000883071
3.33261309152023e-09,6.792870657227331e-05,3.33261309152023e-09,6.795974562374975e-05,3.33261309152023e-09,-0.002361690664914211,3.33261309152023e-09,0.7403406064001276,3.33261309152023e-09,0.02122564560307106
3.335099740936085e-09,6.796132766852892e-05,3.335099740936085e-09,6.794361158539392e-05,3.335099740936085e-09,-0.001661230276422211,3.335099740936085e-09,0.7417220782978252,3.335099740936085e-09,0.09846413842993169
3.337226263278205e-09,6.799700172099859e-05,3.337226263278205e-09,6.794693592410578e-05,3.337226263278205e-09,-0.000953462685416795,3.337226263278205e-09,0.7429034795990027,3.337226263278205e-09,0.192144734284427
3.339777268849575e-09,6.802352392034584e-05,3.339777268849575e-09,6.795600437291777e-05,3.339777268849575e-09,0.0002095343185970771,3.339777268849575e-09,0.7443207049164304,3.339777268849575e-09,0.3204036446171454
3.342584470224479e-09,6.800650084538516e-05,3.342584470224479e-09,6.794659451586128e-05,3.342584470224479e-09,0.001442580009051699,3.342584470224479e-09,0.7458802612358214,3.342584470224479e-09,0.4721268477781536
3.345277717154117e-09,6.798335736424277e-05,3.345277717154117e-09,6.794367368072959e-05,3.345277717154117e-09,0.002379745588621494,3.345277717154117e-09,0.747376509530065,3.345277717154117e-09,0.6114460903325675
3.3481428133848e-09,6.796453053437247e-05,3.3481428133848e-09,6.794365713095339e-05,3.3481428133848e-09,0.002932744368381515,3.3481428133848e-09,0.7489682296582221,3.3481428133848e-09,0.7317244609790139
3.350663740309029e-09,6.79589714317777e-05,3.350663740309029e-09,6.79492732535287e-05,3.350663740309029e-09,0.003061629891448813,3.350663740309029e-09,0.7503687446161272,3.350663740309029e-09,0.8041834254927328
3.353265384777885e-09,6.796003202350186e-05,3.353265384777885e-09,6.795678143621092e-05,3.353265384777885e-09,0.002947008852034131,3.353265384777885e-09,0.7518141026543808,3.353265384777885e-09,0.8681084253774572
3.356105813065265e-09,6.796085088125268e-05,3.356105813065265e-09,6.796165105858737e-05,3.356105813065265e-09,0.002635823313687668,3.356105813065265e-09,0.7533921183695914,3.356105813065265e-09,1.005447850842024
3.358737777647218e-09,6.796133175505512e-05,3.358737777647218e-09,6.796407451763688e-05,3.358737777647218e-09,0.002266565735932178,3.358737777647218e-09,0.7548543209151213,3.358737777647218e-09,1.335142541298438
3.360808047479965e-09,6.796069253067684e-05,3.360808047479965e-09,6.796444606438636e-05,3.360808047479965e-09,0.001982562344962305,3.360808047479965e-09,0.7560044708222029,3.360808047479965e-09,1.841854434771795
3.36277910138173e-09,6.795944991254715e-05,3.36277910138173e-09,6.796375209364535e-05,3.36277910138173e-09,0.001739300482753742,3.36277910138173e-09,0.7570995007676278,3.36277910138173e-09,2.522796126233832
3.364022669605236e-09,6.795770975533518e-05,3.364022669605236e-09,6.796230613612189e-05,3.364022669605236e-09,0.001598142233972543,3.364022669605236e-09,0.7577903720029087,3.364022669605236e-09,3.001041299122353
