/out0 X,/out0 Y,/out1 X,/out1 Y,/out2 X,/out2 Y
0,0.1844346640659542,0,0.2476776956766607,0,0.07504185793040703
0.01066666666666667,0.1844346692215361,0.01066666666666667,0.2476776957374034,0.01066666666666667,0.07504186872702723
0.02133333333333334,0.1844346760736571,0.02133333333333334,0.2476776958179676,0.02133333333333334,0.07504186872704395
0.032,0.184434685576799,0.032,0.247677695929697,0.032,0.07504186872706783
0.04266666666666667,0.1844346987466193,0.04266666666666667,0.2476776960845357,0.04266666666666667,0.07504186872710024
0.05333333333333334,0.1844347169817151,0.05333333333333334,0.247677696298933,0.05333333333333334,0.07504186872714608
0.06400000000000002,0.1844347422041826,0.06400000000000002,0.2476776965954742,0.06400000000000002,0.07504186872720807
0.07466666666666669,0.1844347770494438,0.07466666666666669,0.2476776970051568,0.07466666666666669,0.07504186872729615
0.08533333333333336,0.1844348251212482,0.08533333333333336,0.247677697570348,0.08533333333333336,0.07504186872741556
0.09600000000000003,0.1844348913319266,0.09600000000000003,0.2476776983488053,0.09600000000000003,0.07504186872757963
0.1066666666666667,0.1844349823530809,0.1066666666666667,0.2476776994189654,0.1066666666666667,0.07504186872780534
0.1173333333333334,0.1844351072071811,0.1173333333333334,0.2476777008869163,0.1173333333333334,0.07504186872811525
0.128,0.1844352780360443,0.128,0.2476777028954097,0.128,0.07504186872853877
0.1386666666666667,0.1844355110868403,0.1386666666666667,0.2476777056354837,0.1386666666666667,0.07504186872911671
0.1493333333333333,0.1844358279590896,0.1493333333333333,0.2476777093611092,0.1493333333333333,0.07504186872990229
0.16,0.1844362571552176,0.16,0.247677714407439,0.16,0.07504186873096672
0.1706666666666667,0.1844368359707682,0.1706666666666667,0.2476777212130258,0.1706666666666667,0.07504186873240201
0.1813333333333333,0.1844376127460995,0.1813333333333333,0.2476777303463478,0.1813333333333333,0.0750418687343293
0.192,0.1844386494776217,0.192,0.2476777425365292,0.192,0.07504186873690095
0.2026666666666666,0.1844400247533722,0.2026666666666666,0.2476777587079411,0.2026666666666666,0.07504186874031471
0.2133333333333333,0.1844418369373902,0.2133333333333333,0.2476777800177326,0.2133333333333333,0.07504186874480909
0.2239999999999999,0.1844442074864005,0.2239999999999999,0.2476778078950048,0.2239999999999999,0.07504186875068905
0.2346666666666666,0.1844472842504203,0.2346666666666666,0.2476778440799163,0.2346666666666666,0.07504186875832317
0.2453333333333333,0.1844512445985425,0.2453333333333333,0.2476778906608254,0.2453333333333333,0.07504186876814996
0.2559999999999999,0.1844562982319262,0.2559999999999999,0.2476779501080031,0.2559999999999999,0.0750418687806895
0.2666666666666666,0.1844626896013302,0.2666666666666666,0.2476780253029304,0.2666666666666666,0.07504186879655241
0.2773333333333333,0.1844706999273929,0.2773333333333333,0.247678119563348,0.2773333333333333,0.07504186881643848
0.2879999999999999,0.1844806489092252,0.2879999999999999,0.2476782366650402,0.2879999999999999,0.07504186884114031
0.2986666666666666,0.1844928962778151,0.2986666666666666,0.2476783808624806,0.2986666666666666,0.07504186887156056
0.3093333333333332,0.184507843392666,0.3093333333333332,0.247678556910739,0.3093333333333332,0.07504186890869993
0.3199999999999999,0.1845259351043333,0.3199999999999999,0.2476787700914348,0.3199999999999999,0.07504186895367375
0.3306666666666666,0.1845476621538528,0.3306666666666666,0.2476790262463038,0.3306666666666666,0.0750418690077132
0.3413333333333332,0.1845735645191178,0.3413333333333332,0.2476793318233708,0.3413333333333332,0.07504186907217807
0.3519999999999999,0.1846042364247438,0.3519999999999999,0.2476796939446425,0.3519999999999999,0.07504186914857285
0.3626666666666665,0.1846403342773355,0.3626666666666665,0.247680120510781,0.3626666666666665,0.07504186923856543
0.3733333333333332,0.1846825896398652,0.3733333333333332,0.2476806203686271,0.3733333333333332,0.07504186934402028
0.3839999999999998,0.1847318306177517,0.3839999999999998,0.2476812035828029,0.3839999999999998,0.07504186946706151
0.3946666666666665,0.1847890169264944,0.3946666666666665,0.247681881876393,0.3946666666666665,0.07504186961016589
0.4053333333333332,0.1848552970086268,0.4053333333333332,0.2476826693441448,0.4053333333333332,0.07504186977630524
0.4159999999999998,0.1849321011676545,0.4159999999999998,0.2476835836120818,0.4159999999999998,0.07504186996920222
0.4266666666666665,0.1850212957539263,0.4266666666666665,0.247684647756153,0.4266666666666665,0.0750418701937217
0.4373333333333331,0.1851254469735054,0.4373333333333331,0.2476858935882123,0.4373333333333331,0.07504187045658621
0.4479999999999998,0.1852482967381456,0.4479999999999998,0.2476873675948759,0.4479999999999998,0.07504187076760289
0.4586666666666664,0.1853956874638605,0.4586666666666664,0.2476891425104153,0.4586666666666664,0.07504187114212385
0.4693333333333331,0.1855775484591129,0.4693333333333331,0.2476913422595411,0.4693333333333331,0.07504187160631449
0.4799999999999998,0.1858127676763503,0.4799999999999998,0.2476942034131101,0.4799999999999998,0.07504187221010729
0.4906666666666664,0.1861434285753164,0.4906666666666664,0.2476982560459282,0.4906666666666664,0.0750418730654081
0.5013333333333331,0.1866860869078132,0.5013333333333331,0.2477049838686975,0.5013333333333331,0.07504187448548168
0.5119999999999998,0.1878520523694131,0.5119999999999998,0.247719784217253,0.5119999999999998,0.07504187761027008
0.5226666666666665,0.1901535141460522,0.5226666666666665,0.2477503874474707,0.5226666666666665,0.07504188407495321
0.5333333333333332,0.1934975610512221,0.5333333333333332,0.2477983458629427,0.5333333333333332,0.07504189421515875
0.5439999999999999,0.1977076267106621,0.5439999999999999,0.2478650651784071,0.5439999999999999,0.07504190834094156
0.5546666666666666,0.2028968702852873,0.5546666666666666,0.2479581748282418,0.5546666666666666,0.0750419280912336
0.5653333333333334,0.2093907117953556,0.5653333333333334,0.2480938392699799,0.5653333333333334,0.07504195694529589
0.5760000000000001,0.2177485612612727,0.5760000000000001,0.2483050749230504,0.5760000000000001,0.07504200205402918
0.5866666666666668,0.2294504403521785,0.5866666666666668,0.2486849360587383,0.5866666666666668,0.07504208371956521
0.5973333333333335,0.250130362463504,0.5973333333333335,0.2496910996927107,0.5973333333333335,0.07504230368161684
0.6080000000000002,0.313267403484066,0.6080000000000002,0.257974070229372,0.6080000000000002,0.07504432393087264
0.6186666666666669,1.137816883117591,0.6186666666666669,1.480179243992868,0.6186666666666669,0.09653678643359183
0.6293333333333336,1.404182895572434,0.6293333333333336,1.484733477453477,0.6293333333333336,0.09654713641111613
0.6400000000000003,1.434390443794966,0.6400000000000003,1.485104844220851,0.6400000000000003,0.09654797706722339
0.6506666666666671,1.434621596507763,0.6506666666666671,1.48510755852346,0.6506666666666671,0.09654798320970726
0.6613333333333338,1.43464347781836,0.6613333333333338,1.485107815355879,0.6613333333333338,0.09654798379092092
0.6720000000000005,1.434654933887962,0.6720000000000005,1.485107949814437,0.6720000000000005,0.0965479840952
0.6826666666666672,1.434662525717757,0.6826666666666672,1.485108038915797,0.6826666666666672,0.09654798429683592
0.6933333333333339,1.434668169012486,0.6933333333333339,1.485108105146836,0.6933333333333339,0.09654798444671983
0.7040000000000006,1.434672561706167,0.7040000000000006,1.485108156699677,0.7040000000000006,0.09654798456338179
0.7146666666666673,1.434676091770491,0.7146666666666673,1.485108198128119,0.7146666666666673,0.09654798465713414
0.7253333333333341,1.434678993914833,0.7253333333333341,1.485108232186997,0.7253333333333341,0.09654798473420796
0.7360000000000008,1.434681421366508,0.7360000000000008,1.485108260674742,0.7360000000000008,0.09654798479867797
0.7466666666666675,1.434683479840672,0.7466666666666675,1.485108284832114,0.7466666666666675,0.0965479848533464
0.7573333333333342,1.434685245322955,0.7573333333333342,1.485108305550925,0.7573333333333342,0.09654798490023128
0.7680000000000009,1.434686774165265,0.7680000000000009,1.48510832349255,0.7680000000000009,0.09654798494083452
0.7786666666666676,1.434688109197565,0.7786666666666676,1.485108339159656,0.7786666666666676,0.0965479849762871
0.7893333333333343,1.434689283622296,0.7893333333333343,1.485108352941916,0.7893333333333343,0.09654798500747808
0.800000000000001,1.4346903236009,0.800000000000001,1.485108365146361,0.800000000000001,0.09654798503509641
0.8106666666666678,1.434691250030984,0.8106666666666678,1.485108376018245,0.8106666666666678,0.0965479850596979
0.8213333333333345,1.434692079802202,0.8213333333333345,1.485108385755785,0.8213333333333345,0.09654798508173572
0.8320000000000012,1.434692826704949,0.8320000000000012,1.485108394520825,0.8320000000000012,0.09654798510156996
0.8426666666666679,1.434693502100989,0.8426666666666679,1.485108402446701,0.8426666666666679,0.09654798511950465
0.8533333333333346,1.434694115426969,0.8533333333333346,1.485108409644158,0.8533333333333346,0.09654798513579382
0.8640000000000013,1.434694674577971,0.8640000000000013,1.485108416205855,0.8640000000000013,0.0965479851506441
0.874666666666668,1.43469518620348,0.874666666666668,1.485108422209821,0.874666666666668,0.09654798516423306
0.8853333333333347,1.434695655938336,0.8853333333333347,1.48510842772219,0.8853333333333347,0.09654798517670768
0.8960000000000015,1.43469608858477,0.8960000000000015,1.485108432799317,0.8960000000000015,0.0965479851881932
0.9066666666666682,1.434696488257149,0.9066666666666682,1.485108437489484,0.9066666666666682,0.09654798519880831
0.9173333333333349,1.43469685849802,0.9173333333333349,1.485108441834267,0.9173333333333349,0.09654798520864021
0.9280000000000016,1.434697202371843,0.9280000000000016,1.485108445869627,0.9280000000000016,0.09654798521777337
0.9386666666666683,1.434697522541181,0.9386666666666683,1.485108449626811,0.9386666666666683,0.09654798522627742
0.949333333333335,1.434697821329059,0.949333333333335,1.48510845313308,0.949333333333335,0.0965479852342119
0.9600000000000017,1.43469810077025,0.9600000000000017,1.485108456412312,0.9600000000000017,0.09654798524163122
0.9706666666666685,1.434698362653749,0.9706666666666685,1.485108459485503,0.9706666666666685,0.09654798524858538
0.9813333333333352,1.434698608558066,0.9813333333333352,1.485108462371177,0.9813333333333352,0.09654798525511485
0.9920000000000019,1.434698839880725,0.9920000000000019,1.485108465085732,0.9920000000000019,0.09654798526125805
1.002666666666669,1.434699057863035,1.002666666666669,1.48510846764374,1.002666666666669,0.09654798526704787
1.013333333333335,1.434699263610957,1.013333333333335,1.485108470058174,1.013333333333335,0.09654798527251238
1.024000000000002,1.434699458112795,1.024000000000002,1.485108472340637,1.024000000000002,0.09654798527767576
1.034666666666668,1.434699642254197,1.034666666666668,1.485108474501518,1.034666666666668,0.09654798528256943
1.045333333333335,1.434699816830982,1.045333333333335,1.485108476550157,1.045333333333335,0.0965479852872029
1.056000000000002,1.434699982560102,1.056000000000002,1.48510847849497,1.056000000000002,0.09654798529160383
1.066666666666668,1.434700140089068,1.066666666666668,1.485108480343553,1.066666666666668,0.0965479852957857
1.077333333333335,1.434700290004067,1.077333333333335,1.485108482102788,1.077333333333335,0.09654798529976981
1.088000000000001,1.434700432836992,1.088000000000001,1.485108483778915,1.088000000000001,0.09654798530356229
1.098666666666668,1.434700569071527,1.098666666666668,1.485108485377609,1.098666666666668,0.09654798530717976
1.109333333333335,1.434700699148445,1.109333333333335,1.485108486904044,1.109333333333335,0.09654798531063565
1.120000000000001,1.434700823470239,1.120000000000001,1.485108488362941,1.120000000000001,0.09654798531393641
1.130666666666668,1.434700942405144,1.130666666666668,1.485108489758625,1.130666666666668,0.09654798531709398
1.141333333333334,1.434701056290708,1.141333333333334,1.485108491095055,1.141333333333334,0.09654798532011738
1.152000000000001,1.434701165436887,1.152000000000001,1.485108492375867,1.152000000000001,0.09654798532301898
1.162666666666668,1.434701270128814,1.162666666666668,1.48510849360441,1.162666666666668,0.09654798532579931
1.173333333333334,1.434701370629209,1.173333333333334,1.485108494783765,1.173333333333334,0.09654798532846694
1.184000000000001,1.43470146718054,1.184000000000001,1.48510849591678,1.184000000000001,0.0965479853310291
1.194666666666667,1.434701560006935,1.194666666666667,1.485108497006082,1.194666666666667,0.09654798533349412
1.205333333333334,1.434701649315872,1.205333333333334,1.485108498054105,1.205333333333334,0.0965479853358655
1.216000000000001,1.434701735299692,1.216000000000001,1.48510849906311,1.216000000000001,0.0965479853381515
1.226666666666667,1.434701818136965,1.226666666666667,1.48510850003519,1.226666666666667,0.09654798534035137
1.237333333333334,1.434701897993687,1.237333333333334,1.485108500972294,1.237333333333334,0.09654798534247165
1.248,1.434701975024369,1.248,1.485108501876233,1.248,0.09654798534451532
1.258666666666667,1.434702049373015,1.258666666666667,1.485108502748702,1.258666666666667,0.09654798534648934
1.269333333333334,1.434702121173998,1.269333333333334,1.485108503591272,1.269333333333334,0.0965479853483954
1.28,1.434702190552852,1.28,1.48510850440542,1.28,0.09654798535023978
1.290666666666667,1.434702257626987,1.290666666666667,1.48510850519252,1.290666666666667,0.09654798535202055
1.301333333333333,1.434702322506335,1.301333333333333,1.485108505953865,1.301333333333333,0.09654798535374319
1.312,1.434702385293938,1.312,1.485108506690666,1.312,0.09654798535540988
1.322666666666667,1.434702446086474,1.322666666666667,1.485108507404053,1.322666666666667,0.09654798535702593
1.333333333333333,1.434702504974751,1.333333333333333,1.485108508095094,1.333333333333333,0.09654798535858827
1.344,1.434702562044135,1.344,1.485108508764791,1.344,0.09654798536010387
1.354666666666666,1.43470261737496,1.354666666666666,1.485108509414087,1.354666666666666,0.0965479853615729
1.365333333333333,1.43470267104289,1.365333333333333,1.48510851004387,1.365333333333333,0.09654798536299704
1.376,1.434702723119252,1.376,1.485108510654974,1.376,0.09654798536438235
1.386666666666666,1.434702773671347,1.386666666666666,1.485108511248189,1.386666666666666,0.09654798536572362
1.397333333333333,1.43470282276273,1.397333333333333,1.485108511824268,1.397333333333333,0.09654798536702745
1.407999999999999,1.434702870453464,1.407999999999999,1.485108512383906,1.407999999999999,0.09654798536829289
1.418666666666666,1.434702916800356,1.418666666666666,1.485108512927776,1.418666666666666,0.09654798536952346
1.429333333333333,1.434702961857183,1.429333333333333,1.48510851345651,1.429333333333333,0.09654798537072207
1.439999999999999,1.434703005674876,1.439999999999999,1.485108513970699,1.439999999999999,0.09654798537188637
1.450666666666666,1.434703048301728,1.450666666666666,1.485108514470916,1.450666666666666,0.09654798537301705
1.461333333333332,1.434703089783544,1.461333333333332,1.485108514957695,1.461333333333332,0.09654798537411724
1.471999999999999,1.434703130163804,1.471999999999999,1.485108515431549,1.471999999999999,0.09654798537519216
1.482666666666666,1.434703169483814,1.482666666666666,1.485108515892958,1.482666666666666,0.09654798537623518
1.493333333333332,1.434703207782839,1.493333333333332,1.485108516342389,1.493333333333332,0.09654798537725601
1.503999999999999,1.43470324509822,1.503999999999999,1.485108516780276,1.503999999999999,0.09654798537824688
1.514666666666665,1.434703281465503,1.514666666666665,1.485108517207036,1.514666666666665,0.09654798537921123
1.525333333333332,1.434703316918534,1.525333333333332,1.485108517623069,1.525333333333332,0.09654798538015383
1.535999999999999,1.434703351489567,1.535999999999999,1.485108518028752,1.535999999999999,0.09654798538107162
1.546666666666665,1.434703385209353,1.546666666666665,1.485108518424445,1.546666666666665,0.09654798538196535
1.557333333333332,1.434703418107229,1.557333333333332,1.485108518810494,1.557333333333332,0.09654798538283953
1.567999999999999,1.434703450211195,1.567999999999999,1.485108519187226,1.567999999999999,0.09654798538369232
1.578666666666665,1.434703481547995,1.578666666666665,1.485108519554956,1.578666666666665,0.09654798538452357
1.589333333333332,1.434703512143183,1.589333333333332,1.485108519913983,1.589333333333332,0.09654798538533658
1.6,1.434703542021184,1.6,1.485108520264594,1.6,0.09654798538613049
