/Vin X,/Vin Y,/out0 X,/out0 Y,/out1 X,/out1 Y,/out2 X,/out2 Y
-60,0.45,-60,0.1292137297901632,-60,0.1957713833550105,-60,0.06243225385924039
-58.6,0.45,-58.6,0.1301552782560368,-58.6,0.1966579319068135,-58.6,0.06264591146265638
-57.2,0.45,-57.2,0.131095329563614,-57.2,0.1975421556021364,-57.2,0.06285914786918534
-55.8,0.45,-55.8,0.1320338823071777,-55.8,0.1984240883955694,-55.8,0.06307196331359144
-54.40000000000001,0.45,-54.40000000000001,0.1329709354877832,-54.40000000000001,0.1993037511436564,-54.40000000000001,0.06328435903083091
-53.00000000000001,0.45,-53.00000000000001,0.133906488462754,-53.00000000000001,0.2001811647156298,-53.00000000000001,0.06349633625580457
-51.60000000000001,0.45,-51.60000000000001,0.1348405409418512,-51.60000000000001,0.2010563500077235,-51.60000000000001,0.06370789622507823
-50.20000000000001,0.45,-50.20000000000001,0.1357730929689867,-50.20000000000001,0.2019293279615553,-50.20000000000001,0.06391904017853055
-48.80000000000001,0.45,-48.80000000000001,0.136704144906601,-48.80000000000001,0.2028001195835654,-48.80000000000001,0.06412976936086649
-47.40000000000001,0.45,-47.40000000000001,0.1376336974202977,-47.40000000000001,0.2036687459658382,-47.40000000000001,0.06434008502305644
-46.00000000000001,0.45,-46.00000000000001,0.1385617514636935,-46.00000000000001,0.2045352283083387,-46.00000000000001,0.06454998842365528
-44.60000000000002,0.45,-44.60000000000002,0.1394883082635517,-44.60000000000002,0.2053995879427788,-44.60000000000002,0.0647594808300497
-43.20000000000002,0.45,-43.20000000000002,0.1404133693051144,-43.20000000000002,0.2062618463577603,-43.20000000000002,0.06496856351960585
-41.80000000000002,0.45,-41.80000000000002,0.1413369363177321,-41.80000000000002,0.2071220252255944,-41.80000000000002,0.06517723778073621
-40.40000000000002,0.45,-40.40000000000002,0.1422590112607132,-40.40000000000002,0.2079801464304933,-40.40000000000002,0.06538550491390485
-39.00000000000002,0.45,-39.00000000000002,0.1431795963094644,-39.00000000000002,0.2088362320982877,-39.00000000000002,0.06559336623252944
-37.60000000000002,0.45,-37.60000000000002,0.1440986938418903,-37.60000000000002,0.2096903046276398,-37.60000000000002,0.06580082306385066
-36.20000000000002,0.45,-36.20000000000002,0.1450163064250636,-36.20000000000002,0.2105423867227272,-36.20000000000002,0.06600787674969598
-34.80000000000003,0.45,-34.80000000000003,0.1459324368021761,-34.80000000000003,0.2113925014272731,-34.80000000000003,0.06621452864720913
-33.40000000000003,0.45,-33.40000000000003,0.1468470878797861,-33.40000000000003,0.2122406721601672,-33.40000000000003,0.06642078012951
-32.00000000000003,0.45,-32.00000000000003,0.1477602627153459,-32.00000000000003,0.2130869227523117,-32.00000000000003,0.06662663258629348
-30.60000000000003,0.45,-30.60000000000003,0.1486719645050232,-30.60000000000003,0.2139312774849445,-30.60000000000003,0.06683208742437581
-29.20000000000003,0.45,-29.20000000000003,0.1495821965718593,-29.20000000000003,0.2147737611291411,-29.20000000000003,0.06703714606818521
-27.80000000000003,0.45,-27.80000000000003,0.150490962354183,-27.80000000000003,0.215614398986671,-27.80000000000003,0.06724180996022959
-26.40000000000003,0.45,-26.40000000000003,0.1513982653943821,-26.40000000000003,0.2164532169320247,-26.40000000000003,0.06744608056145855
-25.00000000000004,0.45,-25.00000000000004,0.1523041093279766,-25.00000000000004,0.2172902414555063,-25.00000000000004,0.06764995935165384
-23.60000000000004,0.45,-23.60000000000004,0.1532140759723566,-23.60000000000004,0.2181300473304646,-23.60000000000004,0.06785496503375521
-22.20000000000004,0.45,-22.20000000000004,0.1541242172658287,-22.20000000000004,0.218969406868848,-22.20000000000004,0.0680600159522672
-20.80000000000004,0.45,-20.80000000000004,0.1550329684570639,-20.80000000000004,0.2198070658643758,-20.80000000000004,0.06826468599221171
-19.40000000000004,0.45,-19.40000000000004,0.155940333546937,-19.40000000000004,0.2206430540656114,-19.40000000000004,0.06846897672210227
-18.00000000000004,0.45,-18.00000000000004,0.1568463166930479,-18.00000000000004,0.221477402177437,-18.00000000000004,0.06867288978159945
-16.60000000000004,0.45,-16.60000000000004,0.1577509220847825,-16.60000000000004,0.2223101418240848,-16.60000000000004,0.06887642682842897
-15.20000000000004,0.45,-15.20000000000004,0.1586541556677673,-15.20000000000004,0.2231413056006736,-15.20000000000004,0.06907958954214231
-13.80000000000004,0.45,-13.80000000000004,0.1595560228452029,-13.80000000000004,0.2239709271213652,-13.80000000000004,0.06928237962416263
-12.40000000000004,0.45,-12.40000000000004,0.1604565272441182,-12.40000000000004,0.2247990410678088,-12.40000000000004,0.06948479879776197
-11.00000000000004,0.45,-11.00000000000004,0.1613556726640386,-11.00000000000004,0.2256256832415091,-11.00000000000004,0.06968684880803165
-9.600000000000042,0.45,-9.600000000000042,0.1622534630103399,-9.600000000000042,0.2264508906142919,-9.600000000000042,0.06988853142182616
-8.200000000000042,0.45,-8.200000000000042,0.1631499022504134,-8.200000000000042,0.2272747013786685,-8.200000000000042,0.0700898484276811
-6.800000000000042,0.45,-6.800000000000042,0.1640449943831728,-6.800000000000042,0.2280971549979518,-6.800000000000042,0.07029080163572458
-5.400000000000041,0.45,-5.400000000000041,0.1649387434167772,-5.400000000000041,0.2289182922559759,-5.400000000000041,0.07049139287755625
-4.000000000000041,0.45,-4.000000000000041,0.1658311533517309,-4.000000000000041,0.2297381553061943,-4.000000000000041,0.070691624006125
-2.600000000000041,0.45,-2.600000000000041,0.1667222281675256,-2.600000000000041,0.2305567877201323,-2.600000000000041,0.07089149689557879
-1.200000000000041,0.45,-1.200000000000041,0.1676119718117773,-1.200000000000041,0.2313742345348123,-1.200000000000041,0.07109101344111492
0.1999999999999589,0.45,0.1999999999999589,0.1685003881911565,0.1999999999999589,0.2321905422993617,0.1999999999999589,0.07129017555882165
1.599999999999959,0.45,1.599999999999959,0.1693874811636769,1.599999999999959,0.233005759120141,1.599999999999959,0.07148898518550625
2.999999999999959,0.45,2.999999999999959,0.1702732545320427,2.999999999999959,0.2338199347046531,2.999999999999959,0.07168744427851041
4.399999999999959,0.45,4.399999999999959,0.1711577120377818,4.399999999999959,0.2346331204039044,4.399999999999959,0.07188555481554913
5.799999999999958,0.45,5.799999999999958,0.1720408573561326,5.799999999999958,0.2354453692529734,5.799999999999958,0.07208331879451339
7.199999999999958,0.45,7.199999999999958,0.1729226940914882,7.199999999999958,0.2362567360097893,7.199999999999958,0.07228073823329814
8.599999999999959,0.45,8.599999999999959,0.1738032257733612,8.599999999999959,0.237067277191866,8.599999999999959,0.07247781516963477
9.999999999999959,0.45,9.999999999999959,0.1746824558528143,9.999999999999959,0.237877051110807,9.999999999999959,0.07267455166089562
11.39999999999996,0.45,11.39999999999996,0.175560387699279,11.39999999999996,0.2386861179045483,11.39999999999996,0.072870949783945
12.79999999999996,0.45,12.79999999999996,0.1764370245977847,12.79999999999996,0.2394945395670123,12.79999999999996,0.0730670116349792
14.19999999999996,0.45,14.19999999999996,0.1773123697465126,14.19999999999996,0.2403023799752598,14.19999999999996,0.07326273932936879
15.59999999999996,0.45,15.59999999999996,0.1781864262546916,15.59999999999996,0.2411097049137486,15.59999999999996,0.07345813500153064
16.99999999999996,0.45,16.99999999999996,0.1790591971407919,16.99999999999996,0.2419165820957779,16.99999999999996,0.07365320080480356
18.39999999999996,0.45,18.39999999999996,0.1799306853310078,18.39999999999996,0.2427230811818693,18.39999999999996,0.07384793891133323
19.79999999999996,0.45,19.79999999999996,0.1808008936580417,19.79999999999996,0.2435292737950249,19.79999999999996,0.07404235151198954
21.19999999999996,0.45,21.19999999999996,0.1816698248601025,21.19999999999996,0.2443352335327358,21.19999999999996,0.07423644081628905
22.59999999999996,0.45,22.59999999999996,0.1825374815801988,22.59999999999996,0.2451410359756249,22.59999999999996,0.07443020905234411
23.99999999999995,0.45,23.99999999999995,0.1834038663656465,23.99999999999995,0.2459467586926757,23.99999999999995,0.07462365846682699
25.39999999999995,0.45,25.39999999999995,0.1842725186992786,25.39999999999995,0.2467553277658671,25.39999999999995,0.07481773764352562
26.79999999999995,0.45,26.79999999999995,0.1851487980829741,26.79999999999995,0.2475711189641183,26.79999999999995,0.07501387548813813
28.19999999999995,0.45,28.19999999999995,0.1860238928497438,28.19999999999995,0.2483871148417297,28.19999999999995,0.07520971254713525
29.59999999999995,0.45,29.59999999999995,0.1868978051361382,29.59999999999995,0.2492034032880293,29.59999999999995,0.07540525123904308
30.99999999999995,0.45,30.99999999999995,0.1877705369713204,30.99999999999995,0.2500200742517401,30.99999999999995,0.07560049400109572
32.39999999999995,0.45,32.39999999999995,0.1886420902784171,32.39999999999995,0.2508372197269983,32.39999999999995,0.07579544329090712
33.79999999999995,0.45,33.79999999999995,0.1895124668755328,33.79999999999995,0.2516549337346183,33.79999999999995,0.07599010158658873
35.19999999999995,0.45,35.19999999999995,0.1903816684769151,35.19999999999995,0.2524733122993169,35.19999999999995,0.07618447138688678
36.59999999999994,0.45,36.59999999999994,0.1912496966943097,36.59999999999994,0.2532924534231573,36.59999999999994,0.07637855521137317
37.99999999999994,0.45,37.99999999999994,0.1921165530384711,37.99999999999994,0.2541124570550499,37.99999999999994,0.07657235560065051
39.39999999999994,0.45,39.39999999999994,0.1929822389208159,39.39999999999994,0.2549334250563711,39.39999999999994,0.07676587511661628
40.79999999999994,0.45,40.79999999999994,0.1938467556552446,40.79999999999994,0.2557554611627642,40.79999999999994,0.076959116342749
42.19999999999994,0.45,42.19999999999994,0.1947101044600627,42.19999999999994,0.2565786709421179,42.19999999999994,0.07715208188444055
43.59999999999994,0.45,43.59999999999994,0.1955722864600679,43.59999999999994,0.2574031617488483,43.59999999999994,0.0773447743693625
44.99999999999994,0.45,44.99999999999994,0.1964333026886958,44.99999999999994,0.258229042674447,44.99999999999994,0.07753719644787957
46.39999999999993,0.45,46.39999999999993,0.1972931540903412,46.39999999999993,0.2590564244944968,46.39999999999993,0.07772935079348633
47.79999999999993,0.45,47.79999999999993,0.1981518415227,47.79999999999993,0.2598854196121225,47.79999999999993,0.07792124010329378
49.19999999999993,0.45,49.19999999999993,0.1990093657592676,49.19999999999993,0.2607161419980581,49.19999999999993,0.07811286709855464
50.59999999999993,0.45,50.59999999999993,0.1998657274918498,50.59999999999993,0.2615487071273765,50.59999999999993,0.07830423452520846
51.99999999999993,0.45,51.99999999999993,0.2007209273331811,51.99999999999993,0.2623832319130082,51.99999999999993,0.07849534515449796
53.39999999999993,0.45,53.39999999999993,0.2015749658195817,53.39999999999993,0.2632198346362177,53.39999999999993,0.07868620178357508
54.79999999999993,0.45,54.79999999999993,0.2024278434136551,54.79999999999993,0.2640586348740732,54.79999999999993,0.07887680723618158
56.19999999999992,0.45,56.19999999999992,0.2032795605070299,56.19999999999992,0.2648997534240767,56.19999999999992,0.07906716436334454
57.59999999999992,0.45,57.59999999999992,0.2041301174231175,57.59999999999992,0.2657433122261529,57.59999999999992,0.07925727604409837
58.99999999999992,0.45,58.99999999999992,0.2049795144198762,58.99999999999992,0.2665894342820225,58.99999999999992,0.07944714518626768
60.39999999999992,0.45,60.39999999999992,0.2058277516925846,60.39999999999992,0.2674382435722003,60.39999999999992,0.07963677472719496
61.79999999999992,0.45,61.79999999999992,0.2066748293765898,61.79999999999992,0.268289864970705,61.79999999999992,0.07982616763466965
63.19999999999992,0.45,63.19999999999992,0.2075207475500389,63.19999999999992,0.2691444241576836,63.19999999999992,0.08001532690765591
64.59999999999992,0.45,64.59999999999992,0.208365506236574,64.59999999999992,0.2700020475300276,64.59999999999992,0.08020425557721302
65.99999999999993,0.45,65.99999999999993,0.209209105407965,65.99999999999993,0.2708628621102169,65.99999999999993,0.08039295670737134
67.39999999999993,0.45,67.39999999999993,0.2100515449867015,67.39999999999993,0.2717269954535066,67.39999999999993,0.08058143339602231
68.79999999999994,0.45,68.79999999999994,0.2108928248484703,68.79999999999994,0.2725945755535936,68.79999999999994,0.08076968877584062
70.19999999999995,0.45,70.19999999999995,0.2117329448245961,70.19999999999995,0.2734657307468836,70.19999999999995,0.0809577260152026
71.59999999999995,0.45,71.59999999999995,0.2125719047043271,71.59999999999995,0.2743405896157395,71.59999999999995,0.0811455483191237
72.99999999999996,0.45,72.99999999999996,0.2134097042370401,72.99999999999996,0.2752192808904378,72.99999999999996,0.08133315893018893
74.39999999999996,0.45,74.39999999999996,0.2142463431342952,74.39999999999996,0.2761019333504337,74.39999999999996,0.08152056112948065
75.79999999999997,0.45,75.79999999999997,0.2150818210717724,75.79999999999997,0.2769886757247589,75.79999999999997,0.08170775823751954
77.19999999999997,0.45,77.19999999999997,0.2159161376910175,77.19999999999997,0.2778796365918886,77.19999999999997,0.08189475361516871
78.59999999999998,0.45,78.59999999999998,0.2167492926010674,78.59999999999998,0.2787749442791084,78.59999999999998,0.0820815506645424
79.99999999999999,0.45,79.99999999999999,0.2175812853798517,79.99999999999999,0.2796747267615702,79.99999999999999,0.08226815282989502
81.39999999999999,0.45,81.39999999999999,0.218412115575438,81.39999999999999,0.2805791115611984,81.39999999999999,0.08245456359846237
82.8,0.45,82.8,0.2192417827070636,82.8,0.2814882256455175,82.8,0.08264078650130223
84.2,0.45,84.2,0.2200702862659592,84.2,0.2824021953265901,84.2,0.0828268251140695
85.60000000000001,0.45,85.60000000000001,0.2208976257159566,85.60000000000001,0.2833211461601521,85.60000000000001,0.0830126830577627
87.00000000000001,0.45,87.00000000000001,0.2217238004938755,87.00000000000001,0.2842452028451287,87.00000000000001,0.08319836399941435
88.40000000000002,0.45,88.40000000000002,0.2225488100096692,88.40000000000002,0.285174489123565,88.40000000000002,0.08338387165271705
89.80000000000003,0.45,89.80000000000003,0.2233726536463703,89.80000000000003,0.2861091276812003,89.80000000000003,0.08356920977859618
91.20000000000003,0.45,91.20000000000003,0.2241953307597278,91.20000000000003,0.2870492400487262,91.20000000000003,0.08375438218568877
92.60000000000004,0.45,92.60000000000004,0.2250168406776976,92.60000000000004,0.2879949465038437,92.60000000000004,0.08393939273075328
94.00000000000004,0.45,94.00000000000004,0.2258371826995975,94.00000000000004,0.2889463659742946,94.00000000000004,0.08412424531898721
95.40000000000005,0.45,95.40000000000005,0.226656356095107,95.40000000000005,0.2899036159419228,95.40000000000005,0.08430894390423017
96.80000000000005,0.45,96.80000000000005,0.227474360102967,96.80000000000005,0.2908668123478794,96.80000000000005,0.08449349248907424
98.20000000000006,0.45,98.20000000000006,0.2282911939294767,98.20000000000006,0.2918360694990954,98.20000000000006,0.0846778951248381
99.60000000000007,0.45,99.60000000000007,0.2291068567467552,99.60000000000007,0.2928114999761086,99.60000000000007,0.08486215591141924
101.0000000000001,0.45,101.0000000000001,0.2299213476907799,101.0000000000001,0.2937932145423548,101.0000000000001,0.085046278996996
102.4000000000001,0.45,102.4000000000001,0.230734665859193,102.4000000000001,0.2947813220550303,102.4000000000001,0.08523026857759011
103.8000000000001,0.45,103.8000000000001,0.2315468103089249,103.8000000000001,0.2957759293775997,103.8000000000001,0.08541412889644776
105.2000000000001,0.45,105.2000000000001,0.2323577800535801,105.2000000000001,0.2967771412939924,105.2000000000001,0.08559786424326253
106.6000000000001,0.45,106.6000000000001,0.2331675740606601,106.6000000000001,0.2977850604247673,106.6000000000001,0.08578147895319317
108.0000000000001,0.45,108.0000000000001,0.2339761912485513,108.0000000000001,0.2987997871450386,108.0000000000001,0.08596497740569231
109.4000000000001,0.45,109.4000000000001,0.2347836304833907,109.4000000000001,0.2998214195045242,109.4000000000001,0.08614836402312406
110.8000000000001,0.45,110.8000000000001,0.235589890575668,110.8000000000001,0.300850053149619,110.8000000000001,0.08633164326913946
112.2000000000001,0.45,112.2000000000001,0.2363949702767259,112.2000000000001,0.3018857812476238,112.2000000000001,0.08651481964683704
113.6000000000001,0.45,113.6000000000001,0.2371988682750486,113.6000000000001,0.3029286944132104,113.6000000000001,0.08669789769664661
115.0000000000001,0.45,115.0000000000001,0.2380015831923531,115.0000000000001,0.3039788806371735,115.0000000000001,0.0868808819939685
116.4000000000001,0.45,116.4000000000001,0.23880311357955,116.4000000000001,0.3050364252175154,116.4000000000001,0.08706377714651266
117.8000000000001,0.45,117.8000000000001,0.2396034579124531,117.8000000000001,0.3061014106929142,117.8000000000001,0.08724658779135969
119.2000000000001,0.45,119.2000000000001,0.2404026145873491,119.2000000000001,0.3071739167786957,119.2000000000001,0.08742931859170242
120.6000000000002,0.45,120.6000000000002,0.241200581916302,120.6000000000002,0.3082540203052115,120.6000000000002,0.0876119742332791
122.0000000000002,0.45,122.0000000000002,0.2419973581222598,122.0000000000002,0.3093417951587577,122.0000000000002,0.08779455942045154
123.4000000000002,0.45,123.4000000000002,0.2427929413338926,123.4000000000002,0.3104373122250401,123.4000000000002,0.08797707887194404
124.8000000000002,0.45,124.8000000000002,0.2435873295801441,124.8000000000002,0.3115406393351623,124.8000000000002,0.08815953731621809
126.2000000000002,0.45,126.2000000000002,0.2443805207844968,126.2000000000002,0.3126518412141834,126.2000000000002,0.08834193948645798
127.6000000000002,0.45,127.6000000000002,0.2451725127588306,127.6000000000002,0.3137709794321886,127.6000000000002,0.08852429011516941
129.0000000000002,0.45,129.0000000000002,0.2459633031969654,129.0000000000002,0.31489811235792,129.0000000000002,0.08870659392837155
130.4000000000002,0.45,130.4000000000002,0.2467528896676882,130.4000000000002,0.3160332951149033,130.4000000000002,0.08888885563935567
131.8000000000002,0.45,131.8000000000002,0.2475412696073476,131.8000000000002,0.317176579540002,131.8000000000002,0.08907107994202323
133.2000000000002,0.45,133.2000000000002,0.2483284403118436,133.2000000000002,0.3183280141444399,133.2000000000002,0.08925327150375731
134.6000000000002,0.45,134.6000000000002,0.2491143989280518,134.6000000000002,0.3194876440771432,134.6000000000002,0.08943543495784904
136.0000000000002,0.45,136.0000000000002,0.2498991424445111,136.0000000000002,0.3206555110903657,136.0000000000002,0.08961757489543402
137.4000000000002,0.45,137.4000000000002,0.2506826676814047,137.4000000000002,0.3218316535075471,137.4000000000002,0.0897996958569471
138.8000000000002,0.45,138.8000000000002,0.2514649712796319,138.8000000000002,0.3230161061932338,138.8000000000002,0.08998180232308524
140.2000000000002,0.45,140.2000000000002,0.2522460496889834,140.2000000000002,0.3242089005250322,140.2000000000002,0.09016389870523984
141.6000000000002,0.45,141.6000000000002,0.2530258991552882,141.6000000000002,0.3254100643674288,141.6000000000002,0.09034598933543851
143.0000000000002,0.45,143.0000000000002,0.2538045157064051,143.0000000000002,0.3266196220474014,143.0000000000002,0.09052807845573194
144.4000000000002,0.45,144.4000000000002,0.254581895136991,144.4000000000002,0.3278375943315661,144.4000000000002,0.09071017020705981
145.8000000000002,0.45,145.8000000000002,0.2553580329919067,145.8000000000002,0.3290639984048774,145.8000000000002,0.09089226861756122
147.2000000000002,0.45,147.2000000000002,0.256132924548113,147.2000000000002,0.3302988478505902,147.2000000000002,0.09107437759035238
