/vout X,/vout Y,/net06 X,/net06 Y,/net09 X,/net09 Y,/net08 X,/net08 Y,/net07 X,/net07 Y
0,3.596059287680872e-07,0,0,0,0,0,0,0,0
1e-10,3.596059190853854e-07,1e-10,0,1e-10,0,1e-10,0,1e-10,0
3e-10,3.596059150870803e-07,3e-10,0,3e-10,0,3e-10,0,3e-10,0
7e-10,3.5960591421925e-07,7e-10,0,7e-10,0,7e-10,0,7e-10,0
1.5e-09,3.596059146479058e-07,1.5e-09,0,1.5e-09,0,1.5e-09,0,1.5e-09,0
3.1e-09,3.59605914575241e-07,3.1e-09,0,3.1e-09,0,3.1e-09,0,3.1e-09,0
4.675e-09,3.596059146217318e-07,4.675e-09,0,4.675e-09,0,4.675e-09,0,4.675e-09,0
6.25e-09,3.596059145996781e-07,6.25e-09,0,6.25e-09,0,6.25e-09,0,6.25e-09,0
6.312499999999999e-09,0.01717082978981319,6.312499999999999e-09,0,6.312499999999999e-09,0,6.312499999999999e-09,0,6.312499999999999e-09,0.3124999999999987
6.437499999999999e-09,0.05227768800071188,6.437499999999999e-09,0,6.437499999999999e-09,0,6.437499999999999e-09,0,6.437499999999999e-09,0.9374999999999959
6.687499999999998e-09,0.1238783350235872,6.687499999999998e-09,0,6.687499999999998e-09,0,6.687499999999998e-09,0,6.687499999999998e-09,2.187499999999991
6.968749999999999e-09,0.2068607651391989,6.968749999999999e-09,0,6.968749999999999e-09,0,6.968749999999999e-09,0,6.968749999999999e-09,3.593749999999997
7.25e-09,0.2928525168384231,7.25e-09,0,7.25e-09,0,7.25e-09,0,7.25e-09,4.999999999999999
7.380623753882135e-09,0.2931420903651284,7.380623753882135e-09,0,7.380623753882135e-09,0,7.380623753882135e-09,0,7.380623753882135e-09,5
7.599790618508143e-09,0.2931648151227532,7.599790618508143e-09,0,7.599790618508143e-09,0,7.599790618508143e-09,0,7.599790618508143e-09,5
7.813020515648921e-09,0.2931492391489057,7.813020515648921e-09,0,7.813020515648921e-09,0,7.813020515648921e-09,0,7.813020515648921e-09,5
8.239480309930476e-09,0.2931606293722949,8.239480309930476e-09,0,8.239480309930476e-09,0,8.239480309930476e-09,0,8.239480309930476e-09,5
8.84086801871742e-09,0.2931511169627946,8.84086801871742e-09,0,8.84086801871742e-09,0,8.84086801871742e-09,0,8.84086801871742e-09,5
9.832902765494119e-09,0.2931600516667089,9.832902765494119e-09,0,9.832902765494119e-09,0,9.832902765494119e-09,0,9.832902765494119e-09,5
1.116645138274706e-08,0.2931516879417695,1.116645138274706e-08,0,1.116645138274706e-08,0,1.116645138274706e-08,0,1.116645138274706e-08,5
1.25e-08,0.2931597558964442,1.25e-08,0,1.25e-08,0,1.25e-08,0,1.25e-08,5
1.275e-08,0.4528362406538076,1.275e-08,0,1.275e-08,0,1.275e-08,1.249999999999995,1.275e-08,5
1.318872212191807e-08,0.7424300835763343,1.318872212191807e-08,0,1.318872212191807e-08,0,1.318872212191807e-08,3.443610609590328,1.318872212191807e-08,5
1.35e-08,0.9483286257035455,1.35e-08,0,1.35e-08,0,1.35e-08,4.999999999999995,1.35e-08,5
1.361789848653396e-08,0.9100545641422327,1.361789848653396e-08,0,1.361789848653396e-08,0,1.361789848653396e-08,5,1.361789848653396e-08,4.410507567330204
1.378292258342046e-08,0.8554416089049612,1.378292258342046e-08,0,1.378292258342046e-08,0,1.378292258342046e-08,5,1.378292258342046e-08,3.585387082897687
1.392855943868389e-08,0.8072641202054087,1.392855943868389e-08,0,1.392855943868389e-08,0,1.392855943868389e-08,5,1.392855943868389e-08,2.857202806580567
1.421983314921073e-08,0.7109914522164645,1.421983314921073e-08,0,1.421983314921073e-08,0,1.421983314921073e-08,5,1.421983314921073e-08,1.400834253946327
1.45e-08,0.6184526782063317,1.45e-08,0,1.45e-08,0,1.45e-08,5,1.45e-08,0
1.470835956664676e-08,0.6181988088988079,1.470835956664676e-08,0,1.470835956664676e-08,0,1.470835956664676e-08,5,1.470835956664676e-08,0
1.494815867261519e-08,0.6181910008662858,1.494815867261519e-08,0,1.494815867261519e-08,0,1.494815867261519e-08,5,1.494815867261519e-08,0
1.518265959898937e-08,0.6181999595003235,1.518265959898937e-08,0,1.518265959898937e-08,0,1.518265959898937e-08,5,1.518265959898937e-08,0
1.565166145173775e-08,0.6181926222567325,1.565166145173775e-08,0,1.565166145173775e-08,0,1.565166145173775e-08,5,1.565166145173775e-08,0
1.65896651572345e-08,0.6181993227378024,1.65896651572345e-08,0,1.65896651572345e-08,0,1.65896651572345e-08,5,1.65896651572345e-08,0
1.766983257861725e-08,0.618193012255041,1.766983257861725e-08,0,1.766983257861725e-08,0,1.766983257861725e-08,5,1.766983257861725e-08,0
1.875e-08,0.618199047556133,1.875e-08,0,1.875e-08,0,1.875e-08,5,1.875e-08,0
1.907768124179017e-08,0.7262014188871182,1.907768124179017e-08,0,1.907768124179017e-08,0,1.907768124179017e-08,5,1.907768124179017e-08,1.63840620895083
1.941384062089508e-08,0.8373434590821265,1.941384062089508e-08,0,1.941384062089508e-08,0,1.941384062089508e-08,5,1.941384062089508e-08,3.319203104475413
1.975e-08,0.9486000187040659,1.975e-08,0,1.975e-08,0,1.975e-08,5,1.975e-08,4.999999999999995
1.997813574535348e-08,0.9488341415758331,1.997813574535348e-08,0,1.997813574535348e-08,0,1.997813574535348e-08,5,1.997813574535348e-08,5
2.024197290252548e-08,0.9488303681249024,2.024197290252548e-08,0,2.024197290252548e-08,0,2.024197290252548e-08,5,2.024197290252548e-08,5
2.049868990250895e-08,0.9488316552150362,2.049868990250895e-08,0,2.049868990250895e-08,0,2.049868990250895e-08,5,2.049868990250895e-08,5
2.101212390247589e-08,0.9488316122303565,2.101212390247589e-08,0,2.101212390247589e-08,0,2.101212390247589e-08,5,2.101212390247589e-08,5
2.203899190240977e-08,0.948830997987679,2.203899190240977e-08,0,2.203899190240977e-08,0,2.203899190240977e-08,5,2.203899190240977e-08,5
2.351949595120488e-08,0.9488320979332791,2.351949595120488e-08,0,2.351949595120488e-08,0,2.351949595120488e-08,5,2.351949595120488e-08,5
2.5e-08,0.948830831183534,2.5e-08,0,2.5e-08,0,2.5e-08,5,2.5e-08,5
2.514944383739314e-08,1.145867780102807,2.514944383739314e-08,0,2.514944383739314e-08,0.7472191869656952,2.514944383739314e-08,5,2.514944383739314e-08,5
2.542175892053983e-08,1.507047858961519,2.542175892053983e-08,0,2.542175892053983e-08,2.108794602699136,2.542175892053983e-08,5,2.542175892053983e-08,5
2.549792328049144e-08,1.605735296474731,2.549792328049144e-08,0,2.549792328049144e-08,2.489616402457187,2.549792328049144e-08,5,2.549792328049144e-08,5
2.565025200039466e-08,1.736929092216518,2.565025200039466e-08,0,2.565025200039466e-08,3.251260001973289,2.565025200039466e-08,5,2.565025200039466e-08,5
2.568204509584008e-08,1.757045222965798,2.568204509584008e-08,0,2.568204509584008e-08,3.410225479200404,2.568204509584008e-08,5,2.568204509584008e-08,5
2.574563128673093e-08,1.795410426488665,2.574563128673093e-08,0,2.574563128673093e-08,3.728156433654633,2.574563128673093e-08,5,2.574563128673093e-08,5
2.587280366851262e-08,1.867728980938602,2.587280366851262e-08,0,2.587280366851262e-08,4.364018342563091,2.587280366851262e-08,5,2.587280366851262e-08,5
2.6e-08,1.93734552847247,2.6e-08,0,2.6e-08,4.999999999999995,2.6e-08,5,2.6e-08,5
2.604202974305492e-08,1.920370209257143,2.604202974305492e-08,0,2.604202974305492e-08,5,2.604202974305492e-08,4.789851284725414,2.604202974305492e-08,4.78985128472541
2.611086123334489e-08,1.892109581823693,2.611086123334489e-08,0,2.611086123334489e-08,5,2.611086123334489e-08,4.445693833275557,2.611086123334489e-08,4.445693833275554
2.617484767772974e-08,1.865594685734852,2.617484767772974e-08,0,2.617484767772974e-08,5,2.617484767772974e-08,4.125761611351277,2.617484767772974e-08,4.125761611351273
2.630282056649946e-08,1.811346194098558,2.630282056649946e-08,0,2.630282056649946e-08,5,2.630282056649946e-08,3.485897167502717,2.630282056649946e-08,3.485897167502713
2.646588605993745e-08,1.737237258610579,2.646588605993745e-08,0,2.646588605993745e-08,5,2.646588605993745e-08,2.670569700312725,2.646588605993745e-08,2.670569700312721
2.651659580753709e-08,1.711597396917057,2.651659580753709e-08,0,2.651659580753709e-08,5,2.651659580753709e-08,2.417020962314549,2.651659580753709e-08,2.417020962314545
2.661801530273636e-08,1.649415887536952,2.661801530273636e-08,0,2.661801530273636e-08,5,2.661801530273636e-08,1.909923486318197,2.661801530273636e-08,1.909923486318193
2.678938075352403e-08,1.490589683285549,2.678938075352403e-08,0,2.678938075352403e-08,5,2.678938075352403e-08,1.05309623237984,2.678938075352403e-08,1.053096232379836
2.689469037676201e-08,1.385471178142152,2.689469037676201e-08,0,2.689469037676201e-08,5,2.689469037676201e-08,0.526548116189935,2.689469037676201e-08,0.5265481161899306
2.7e-08,1.281024793717649,2.7e-08,0,2.7e-08,5,2.7e-08,1.332267629550188e-14,2.7e-08,8.881784197001252e-15
2.707377924848202e-08,1.280125158521346,2.707377924848202e-08,0,2.707377924848202e-08,5,2.707377924848202e-08,0,2.707377924848202e-08,0
2.715892722081633e-08,1.28014934330097,2.715892722081633e-08,0,2.715892722081633e-08,5,2.715892722081633e-08,0,2.715892722081633e-08,0
2.72421083984151e-08,1.280168731336234,2.72421083984151e-08,0,2.72421083984151e-08,5,2.72421083984151e-08,0,2.72421083984151e-08,0
2.740847075361265e-08,1.280135693614718,2.740847075361265e-08,0,2.740847075361265e-08,5,2.740847075361265e-08,0,2.740847075361265e-08,0
2.766025095082791e-08,1.280170299072674,2.766025095082791e-08,0,2.766025095082791e-08,5,2.766025095082791e-08,0,2.766025095082791e-08,0
2.816381134525842e-08,1.280136307730338,2.816381134525842e-08,0,2.816381134525842e-08,5,2.816381134525842e-08,0,2.816381134525842e-08,0
2.917093213411945e-08,1.280169748445069,2.917093213411945e-08,0,2.917093213411945e-08,5,2.917093213411945e-08,0,2.917093213411945e-08,0
3.021046606705972e-08,1.280136803416035,3.021046606705972e-08,0,3.021046606705972e-08,5,3.021046606705972e-08,0,3.021046606705972e-08,0
3.125e-08,1.280169471971859,3.125e-08,0,3.125e-08,5,3.125e-08,0,3.125e-08,0
3.15e-08,1.362818898703688,3.15e-08,0,3.15e-08,5,3.15e-08,0,3.15e-08,1.249999999999995
3.1875e-08,1.487199617729642,3.1875e-08,0,3.1875e-08,5,3.1875e-08,0,3.1875e-08,3.125000000000003
3.225e-08,1.608808372951433,3.225e-08,0,3.225e-08,5,3.225e-08,0,3.225e-08,5
3.249178962184701e-08,1.609007728477514,3.249178962184701e-08,0,3.249178962184701e-08,5,3.249178962184701e-08,0,3.249178962184701e-08,5
3.277372654213769e-08,1.609001034229997,3.277372654213769e-08,0,3.277372654213769e-08,5,3.277372654213769e-08,0,3.277372654213769e-08,5
3.304607431071575e-08,1.609005160020488,3.304607431071575e-08,0,3.304607431071575e-08,5,3.304607431071575e-08,0,3.304607431071575e-08,5
3.359076984787187e-08,1.609002349411863,3.359076984787187e-08,0,3.359076984787187e-08,5,3.359076984787187e-08,0,3.359076984787187e-08,5
3.468016092218411e-08,1.609004266990027,3.468016092218411e-08,0,3.468016092218411e-08,5,3.468016092218411e-08,0,3.468016092218411e-08,5
3.609008046109206e-08,1.609003060305475,3.609008046109206e-08,0,3.609008046109206e-08,5,3.609008046109206e-08,0,3.609008046109206e-08,5
3.75e-08,1.609004013644386,3.75e-08,0,3.75e-08,5,3.75e-08,0,3.75e-08,5
3.7515625e-08,1.617869923088217,3.7515625e-08,0,3.7515625e-08,5,3.7515625e-08,0.07812500000000587,3.7515625e-08,5
3.7546875e-08,1.635419355758406,3.7546875e-08,0,3.7546875e-08,5,3.7546875e-08,0.2343750000000176,3.7546875e-08,5
3.760937500000001e-08,1.666110163782631,3.760937500000001e-08,0,3.760937500000001e-08,5,3.760937500000001e-08,0.5468750000000411,3.760937500000001e-08,5
3.770527252729627e-08,1.70432440180977,3.770527252729627e-08,0,3.770527252729627e-08,5,3.770527252729627e-08,1.026362636481377,3.770527252729627e-08,5
3.77464302564912e-08,1.718895536245154,3.77464302564912e-08,0,3.77464302564912e-08,5,3.77464302564912e-08,1.232151282456019,3.77464302564912e-08,5
3.782874571488106e-08,1.745976311571694,3.782874571488106e-08,0,3.782874571488106e-08,5,3.782874571488106e-08,1.643728574405305,3.782874571488106e-08,5
3.799337663166077e-08,1.796044655811688,3.799337663166077e-08,0,3.799337663166077e-08,5,3.799337663166077e-08,2.466883158303877,3.799337663166077e-08,5
3.82707186974935e-08,1.874699829519452,3.82707186974935e-08,0,3.82707186974935e-08,5,3.82707186974935e-08,3.853593487467529,3.82707186974935e-08,5
3.85e-08,1.937362774509927,3.85e-08,0,3.85e-08,5,3.85e-08,5,3.85e-08,5
3.861464065125325e-08,1.921858039757796,3.861464065125325e-08,0,3.861464065125325e-08,5,3.861464065125325e-08,5,3.861464065125325e-08,4.426796743733746
3.876262224518953e-08,1.901685920622916,3.876262224518953e-08,0,3.876262224518953e-08,5,3.876262224518953e-08,5,3.876262224518953e-08,3.686888774052349
3.889942393162586e-08,1.88288417012034,3.889942393162586e-08,0,3.889942393162586e-08,5,3.889942393162586e-08,5,3.889942393162586e-08,3.002880341870698
3.917302730449852e-08,1.84484862848881,3.917302730449852e-08,0,3.917302730449852e-08,5,3.917302730449852e-08,5,3.917302730449852e-08,1.634863477507396
3.95e-08,1.797998002207041,3.95e-08,0,3.95e-08,5,3.95e-08,5,3.95e-08,0
3.966348634775074e-08,1.798002421468898,3.966348634775074e-08,0,3.966348634775074e-08,5,3.966348634775074e-08,5,3.966348634775074e-08,0
3.991942271655915e-08,1.79800755960815,3.991942271655915e-08,0,3.991942271655915e-08,5,3.991942271655915e-08,5,3.991942271655915e-08,0
4.017376543399857e-08,1.797989411638235,4.017376543399857e-08,0,4.017376543399857e-08,5,4.017376543399857e-08,5,4.017376543399857e-08,0
4.06824508688774e-08,1.798006533019358,4.06824508688774e-08,0,4.06824508688774e-08,5,4.06824508688774e-08,5,4.06824508688774e-08,0
4.169982173863505e-08,1.797990997464861,4.169982173863505e-08,0,4.169982173863505e-08,5,4.169982173863505e-08,5,4.169982173863505e-08,0
4.272491086931752e-08,1.798005238498348,4.272491086931752e-08,0,4.272491086931752e-08,5,4.272491086931752e-08,5,4.272491086931752e-08,0
4.375e-08,1.797991109362615,4.375e-08,0,4.375e-08,5,4.375e-08,5,4.375e-08,0
4.4e-08,1.833940426982337,4.4e-08,0,4.4e-08,5,4.4e-08,5,4.4e-08,1.249999999999995
4.4375e-08,1.88624554605105,4.4375e-08,0,4.4375e-08,5,4.4375e-08,5,4.4375e-08,3.125000000000003
4.475e-08,1.937372577760403,4.475e-08,0,4.475e-08,5,4.475e-08,5,4.475e-08,5
4.501995176564502e-08,1.937371932488486,4.501995176564502e-08,0,4.501995176564502e-08,5,4.501995176564502e-08,5,4.501995176564502e-08,5
4.533045460721988e-08,1.937368279870738,4.533045460721988e-08,0,4.533045460721988e-08,5,4.533045460721988e-08,5,4.533045460721988e-08,5
4.563391910876859e-08,1.937360645775888,4.563391910876859e-08,0,4.563391910876859e-08,5,4.563391910876859e-08,5,4.563391910876859e-08,5
4.624084811186603e-08,1.937368883808864,4.624084811186603e-08,0,4.624084811186603e-08,5,4.624084811186603e-08,5,4.624084811186603e-08,5
4.74547061180609e-08,1.937360896553277,4.74547061180609e-08,0,4.74547061180609e-08,5,4.74547061180609e-08,5,4.74547061180609e-08,5
4.872735305903045e-08,1.937368595324194,4.872735305903045e-08,0,4.872735305903045e-08,5,4.872735305903045e-08,5,4.872735305903045e-08,5
5e-08,1.937360708946915,5e-08,0,5e-08,5,5e-08,5,5e-08,5
5.00625e-08,2.004285098644169,5.00625e-08,0.3124999999999904,5.00625e-08,5,5.00625e-08,5,5.00625e-08,5
5.018749999999999e-08,2.136264155590864,5.018749999999999e-08,0.9374999999999711,5.018749999999999e-08,5,5.018749999999999e-08,5,5.018749999999999e-08,5
5.040941529349731e-08,2.366823674409406,5.040941529349731e-08,2.047076467486552,5.040941529349731e-08,5,5.040941529349731e-08,5,5.040941529349731e-08,5
5.06088412605443e-08,2.572144477142222,5.06088412605443e-08,3.044206302721492,5.06088412605443e-08,5,5.06088412605443e-08,5,5.06088412605443e-08,5
5.080442063027214e-08,2.772708474594792,5.080442063027214e-08,4.022103151360735,5.080442063027214e-08,5,5.080442063027214e-08,5,5.080442063027214e-08,5
5.099999999999999e-08,2.972608431491031,5.099999999999999e-08,4.999999999999979,5.099999999999999e-08,5,5.099999999999999e-08,5,5.099999999999999e-08,5
5.103580446996674e-08,2.940895035159467,5.103580446996674e-08,5,5.103580446996674e-08,4.820977650166285,5.103580446996674e-08,4.820977650166294,5.103580446996674e-08,4.82097765016629
5.110293866629434e-08,2.880666411088329,5.110293866629434e-08,5,5.110293866629434e-08,4.485306668528291,5.110293866629434e-08,4.485306668528299,5.110293866629434e-08,4.485306668528295
5.116260886432301e-08,2.827290685235729,5.116260886432301e-08,5,5.116260886432301e-08,4.186955678384946,5.116260886432301e-08,4.186955678384954,5.116260886432301e-08,4.186955678384949
5.125371020524639e-08,2.745685947239593,5.125371020524639e-08,5,5.125371020524639e-08,3.731448973768033,5.125371020524639e-08,3.731448973768041,5.125371020524639e-08,3.731448973768037
5.139011408376638e-08,2.623386791792783,5.139011408376638e-08,5,5.139011408376638e-08,3.049429581168088,5.139011408376638e-08,3.049429581168096,5.139011408376638e-08,3.049429581168092
5.161477370775011e-08,2.421221349926296,5.161477370775011e-08,5,5.161477370775011e-08,1.926131461249426,5.161477370775011e-08,1.926131461249434,5.161477370775011e-08,1.92613146124943
5.180738685387505e-08,2.246908575991221,5.180738685387505e-08,5,5.180738685387505e-08,0.9630657306247157,5.180738685387505e-08,0.9630657306247237,5.180738685387505e-08,0.9630657306247201
5.2e-08,2.070619402958961,5.2e-08,5,5.2e-08,0,5.2e-08,1.332267629550188e-14,5.2e-08,8.881784197001252e-15
5.205190206573216e-08,2.070546754680927,5.205190206573216e-08,5,5.205190206573216e-08,0,5.205190206573216e-08,0,5.205190206573216e-08,0
5.214056499269405e-08,2.070643577975172,5.214056499269405e-08,5,5.214056499269405e-08,0,5.214056499269405e-08,0,5.214056499269405e-08,0
5.222163249922492e-08,2.070592998068635,5.222163249922492e-08,5,5.222163249922492e-08,0,5.222163249922492e-08,0,5.222163249922492e-08,0
5.237930324886628e-08,2.07062635491174,5.237930324886628e-08,5,5.237930324886628e-08,0,5.237930324886628e-08,0,5.237930324886628e-08,0
5.25747227300125e-08,2.070598976321236,5.25747227300125e-08,5,5.25747227300125e-08,0,5.25747227300125e-08,0,5.25747227300125e-08,0
5.294354353566134e-08,2.070628577402881,5.294354353566134e-08,5,5.294354353566134e-08,0,5.294354353566134e-08,0,5.294354353566134e-08,0
5.357350939089745e-08,2.070601141606923,5.357350939089745e-08,5,5.357350939089745e-08,0,5.357350939089745e-08,0,5.357350939089745e-08,0
5.462800760543699e-08,2.070626862899414,5.462800760543699e-08,5,5.462800760543699e-08,0,5.462800760543699e-08,0,5.462800760543699e-08,0
5.625e-08,2.070599273029611,5.625e-08,5,5.625e-08,0,5.625e-08,0,5.625e-08,0
5.666358158426961e-08,2.1249224691511,5.666358158426961e-08,5,5.666358158426961e-08,0,5.666358158426961e-08,0,5.666358158426961e-08,2.067907921348054
5.725e-08,2.201580246099446,5.725e-08,5,5.725e-08,0,5.725e-08,0,5.725e-08,5
5.753106909474166e-08,2.20155498784744,5.753106909474166e-08,5,5.753106909474166e-08,0,5.753106909474166e-08,0,5.753106909474166e-08,5
5.790141967509141e-08,2.201535913634744,5.790141967509141e-08,5,5.790141967509141e-08,0,5.790141967509141e-08,0,5.790141967509141e-08,5
5.826747569914652e-08,2.201560015499551,5.826747569914652e-08,5,5.826747569914652e-08,0,5.826747569914652e-08,0,5.826747569914652e-08,5
5.899958774725674e-08,2.201537351015992,5.899958774725674e-08,5,5.899958774725674e-08,0,5.899958774725674e-08,0,5.899958774725674e-08,5
6.046381184347718e-08,2.201561768404614,6.046381184347718e-08,5,6.046381184347718e-08,0,6.046381184347718e-08,0,6.046381184347718e-08,5
6.148190592173859e-08,2.201534939255111,6.148190592173859e-08,5,6.148190592173859e-08,0,6.148190592173859e-08,0,6.148190592173859e-08,5
6.25e-08,2.201561517588222,6.25e-08,5,6.25e-08,0,6.25e-08,0,6.25e-08,5
6.275684397539858e-08,2.268268576339334,6.275684397539858e-08,5,6.275684397539858e-08,0,6.275684397539858e-08,1.2842198769929,6.275684397539858e-08,5
6.316270822910773e-08,2.373350239891288,6.316270822910773e-08,5,6.316270822910773e-08,0,6.316270822910773e-08,3.313541145538658,6.316270822910773e-08,5
6.349999999999999e-08,2.460240438335438,6.349999999999999e-08,5,6.349999999999999e-08,0,6.349999999999999e-08,4.999999999999979,6.349999999999999e-08,5
6.363513347929683e-08,2.44289979228407,6.363513347929683e-08,5,6.363513347929683e-08,0,6.363513347929683e-08,5,6.363513347929683e-08,4.324332603515841
6.382020287489323e-08,2.419030787998707,6.382020287489323e-08,5,6.382020287489323e-08,0,6.382020287489323e-08,5,6.382020287489323e-08,3.398985625533848
6.398826378586929e-08,2.397380882951333,6.398826378586929e-08,5,6.398826378586929e-08,0,6.398826378586929e-08,5,6.398826378586929e-08,2.558681070653559
