/vout X,/vout Y,/net06 X,/net06 Y,/net09 X,/net09 Y,/net08 X,/net08 Y,/net07 X,/net07 Y
0,7.697303587087554e-07,0,0,0,0,0,0,0,0
1e-10,7.698684116749634e-07,1e-10,0,1e-10,0,1e-10,0,1e-10,0
3e-10,7.697457712679134e-07,3e-10,0,3e-10,0,3e-10,0,3e-10,0
7e-10,7.697186258813363e-07,7e-10,0,7e-10,0,7e-10,0,7e-10,0
1.5e-09,7.697406616023934e-07,1.5e-09,0,1.5e-09,0,1.5e-09,0,1.5e-09,0
3.1e-09,7.697207576591072e-07,3.1e-09,0,3.1e-09,0,3.1e-09,0,3.1e-09,0
4.675e-09,7.697393729937149e-07,4.675e-09,0,4.675e-09,0,4.675e-09,0,4.675e-09,0
6.25e-09,7.69721970109004e-07,6.25e-09,0,6.25e-09,0,6.25e-09,0,6.25e-09,0
6.312499999999999e-09,0.01717620745903644,6.312499999999999e-09,0,6.312499999999999e-09,0,6.312499999999999e-09,0,6.312499999999999e-09,0.3124999999999987
6.437499999999999e-09,0.05228373365587659,6.437499999999999e-09,0,6.437499999999999e-09,0,6.437499999999999e-09,0,6.437499999999999e-09,0.9374999999999959
6.687499999999998e-09,0.1238845834265211,6.687499999999998e-09,0,6.687499999999998e-09,0,6.687499999999998e-09,0,6.687499999999998e-09,2.187499999999991
6.968749999999999e-09,0.2068682626344402,6.968749999999999e-09,0,6.968749999999999e-09,0,6.968749999999999e-09,0,6.968749999999999e-09,3.593749999999997
7.25e-09,0.2928606767136623,7.25e-09,0,7.25e-09,0,7.25e-09,0,7.25e-09,4.999999999999999
7.380620657237441e-09,0.2931424750024585,7.380620657237441e-09,0,7.380620657237441e-09,0,7.380620657237441e-09,0,7.380620657237441e-09,5
7.599781950831299e-09,0.293164960423673,7.599781950831299e-09,0,7.599781950831299e-09,0,7.599781950831299e-09,0,7.599781950831299e-09,5
7.813000323463847e-09,0.2931496152644064,7.813000323463847e-09,0,7.813000323463847e-09,0,7.813000323463847e-09,0,7.813000323463847e-09,5
8.239437068728942e-09,0.2931607812211336,8.239437068728942e-09,0,8.239437068728942e-09,0,8.239437068728942e-09,0,8.239437068728942e-09,5
8.840852085517281e-09,0.2931514877260912,8.840852085517281e-09,0,8.840852085517281e-09,0,8.840852085517281e-09,0,8.840852085517281e-09,5
9.832952977938409e-09,0.2931602062472668,9.832952977938409e-09,0,9.832952977938409e-09,0,9.832952977938409e-09,0,9.832952977938409e-09,5
1.11664764889692e-08,0.2931520567116175,1.11664764889692e-08,0,1.11664764889692e-08,0,1.11664764889692e-08,0,1.11664764889692e-08,5
1.25e-08,0.2931599117631551,1.25e-08,0,1.25e-08,0,1.25e-08,0,1.25e-08,5
1.275e-08,0.4528552558275753,1.275e-08,0,1.275e-08,0,1.275e-08,1.249999999999995,1.275e-08,5
1.318871141705733e-08,0.742454597216657,1.318871141705733e-08,0,1.318871141705733e-08,0,1.318871141705733e-08,3.443557085286644,1.318871141705733e-08,5
1.35e-08,0.948366580121374,1.35e-08,0,1.35e-08,0,1.35e-08,4.999999999999995,1.35e-08,5
1.361789612536848e-08,0.910036984129074,1.361789612536848e-08,0,1.361789612536848e-08,0,1.361789612536848e-08,5,1.361789612536848e-08,4.410519373157607
1.378291166212234e-08,0.8554270594236797,1.378291166212234e-08,0,1.378291166212234e-08,0,1.378291166212234e-08,5,1.378291166212234e-08,3.585441689388292
1.392852861540921e-08,0.8072582954239697,1.392852861540921e-08,0,1.392852861540921e-08,0,1.392852861540921e-08,5,1.392852861540921e-08,2.857356922953952
1.421976252198294e-08,0.710999965220683,1.421976252198294e-08,0,1.421976252198294e-08,0,1.421976252198294e-08,5,1.421976252198294e-08,1.401187390085272
1.45e-08,0.6184403502316914,1.45e-08,0,1.45e-08,0,1.45e-08,5,1.45e-08,0
1.47083843885602e-08,0.6181987807794066,1.47083843885602e-08,0,1.47083843885602e-08,0,1.47083843885602e-08,5,1.47083843885602e-08,0
1.494820097579818e-08,0.618191189400687,1.494820097579818e-08,0,1.494820097579818e-08,0,1.494820097579818e-08,5,1.494820097579818e-08,0
1.518271998597235e-08,0.6181999345412365,1.518271998597235e-08,0,1.518271998597235e-08,0,1.518271998597235e-08,5,1.518271998597235e-08,0
1.565175800632067e-08,0.618192804032676,1.565175800632067e-08,0,1.565175800632067e-08,0,1.565175800632067e-08,5,1.565175800632067e-08,0
1.658983404701733e-08,0.6181993013253096,1.658983404701733e-08,0,1.658983404701733e-08,0,1.658983404701733e-08,5,1.658983404701733e-08,0
1.766991702350866e-08,0.6181931919299368,1.766991702350866e-08,0,1.766991702350866e-08,0,1.766991702350866e-08,5,1.766991702350866e-08,0
1.875e-08,0.6181990277263638,1.875e-08,0,1.875e-08,0,1.875e-08,5,1.875e-08,0
1.907767179327073e-08,0.7262120405066824,1.907767179327073e-08,0,1.907767179327073e-08,0,1.907767179327073e-08,5,1.907767179327073e-08,1.638358966353664
1.941383589663536e-08,0.8373374688336064,1.941383589663536e-08,0,1.941383589663536e-08,0,1.941383589663536e-08,5,1.941383589663536e-08,3.319179483176821
1.975e-08,0.948642360403446,1.975e-08,0,1.975e-08,0,1.975e-08,5,1.975e-08,4.999999999999995
1.997811313061654e-08,0.9488157869725359,1.997811313061654e-08,0,1.997811313061654e-08,0,1.997811313061654e-08,5,1.997811313061654e-08,5
2.024189380781905e-08,0.9488287223094438,2.024189380781905e-08,0,2.024189380781905e-08,0,2.024189380781905e-08,5,2.024189380781905e-08,5
2.049852975181398e-08,0.9488353394933413,2.049852975181398e-08,0,2.049852975181398e-08,0,2.049852975181398e-08,5,2.049852975181398e-08,5
2.101180163980383e-08,0.9488274076858719,2.101180163980383e-08,0,2.101180163980383e-08,0,2.101180163980383e-08,5,2.101180163980383e-08,5
2.203834541578355e-08,0.9488356897774611,2.203834541578355e-08,0,2.203834541578355e-08,0,2.203834541578355e-08,5,2.203834541578355e-08,5
2.351917270789177e-08,0.948827273506316,2.351917270789177e-08,0,2.351917270789177e-08,0,2.351917270789177e-08,5,2.351917270789177e-08,5
2.5e-08,0.9488358604733493,2.5e-08,0,2.5e-08,0,2.5e-08,5,2.5e-08,5
2.514945133811318e-08,1.145962386715047,2.514945133811318e-08,0,2.514945133811318e-08,0.7472566905659033,2.514945133811318e-08,5,2.514945133811318e-08,5
2.542176318072088e-08,1.507227087212743,2.542176318072088e-08,0,2.542176318072088e-08,2.108815903604388,2.542176318072088e-08,5,2.542176318072088e-08,5
2.572642335796201e-08,1.911790075550127,2.572642335796201e-08,0,2.572642335796201e-08,3.632116789810074,2.572642335796201e-08,5,2.572642335796201e-08,5
2.579481751847151e-08,2.002679575847428,2.579481751847151e-08,0,2.579481751847151e-08,3.97408759235755,2.579481751847151e-08,5,2.579481751847151e-08,5
2.589740875923575e-08,2.138832786981428,2.589740875923575e-08,0,2.589740875923575e-08,4.487043796178773,2.589740875923575e-08,5,2.589740875923575e-08,5
2.592305656942681e-08,2.172414187367565,2.592305656942681e-08,0,2.592305656942681e-08,4.615282847134074,2.592305656942681e-08,5,2.592305656942681e-08,5
2.596152828471341e-08,2.220125694776166,2.596152828471341e-08,0,2.596152828471341e-08,4.807641423567034,2.596152828471341e-08,5,2.596152828471341e-08,5
2.6e-08,2.260335082066568,2.6e-08,0,2.6e-08,4.999999999999995,2.6e-08,5,2.6e-08,5
2.600188967394812e-08,2.259588526606975,2.600188967394812e-08,0,2.600188967394812e-08,5,2.600188967394812e-08,4.990551630259422,2.600188967394812e-08,4.990551630259418
2.600566902184435e-08,2.257156695908583,2.600566902184435e-08,0,2.600566902184435e-08,5,2.600566902184435e-08,4.97165489077825,2.600566902184435e-08,4.971654890778246
2.601322771763682e-08,2.251636394354373,2.601322771763682e-08,0,2.601322771763682e-08,5,2.601322771763682e-08,4.933861411815906,2.601322771763682e-08,4.933861411815902
2.602834510922176e-08,2.240184764167275,2.602834510922176e-08,0,2.602834510922176e-08,5,2.602834510922176e-08,4.858274453891219,2.602834510922176e-08,4.858274453891214
2.604992528325748e-08,2.222365465789236,2.604992528325748e-08,0,2.604992528325748e-08,5,2.604992528325748e-08,4.750373583712581,2.604992528325748e-08,4.750373583712578
2.608669606888288e-08,2.189093082384489,2.608669606888288e-08,0,2.608669606888288e-08,5,2.608669606888288e-08,4.566519655585584,2.608669606888288e-08,4.566519655585579
2.616023764013368e-08,2.117076100373423,2.616023764013368e-08,0,2.616023764013368e-08,5,2.616023764013368e-08,4.198811799331588,2.616023764013368e-08,4.198811799331584
2.625526782770816e-08,2.022489625467203,2.625526782770816e-08,0,2.625526782770816e-08,5,2.625526782770816e-08,3.723660861459181,2.625526782770816e-08,3.723660861459177
2.639510556280521e-08,1.883072897114392,2.639510556280521e-08,0,2.639510556280521e-08,5,2.639510556280521e-08,3.024472185973941,2.639510556280521e-08,3.024472185973937
2.667478103299931e-08,1.604500138836187,2.667478103299931e-08,0,2.667478103299931e-08,5,2.667478103299931e-08,1.626094835003463,2.667478103299931e-08,1.626094835003459
2.7e-08,1.280768078197347,2.7e-08,0,2.7e-08,5,2.7e-08,1.332267629550188e-14,2.7e-08,8.881784197001252e-15
2.709161438429978e-08,1.28012530300846,2.709161438429978e-08,0,2.709161438429978e-08,5,2.709161438429978e-08,0,2.709161438429978e-08,0
2.724346000919569e-08,1.280164047186272,2.724346000919569e-08,0,2.724346000919569e-08,5,2.724346000919569e-08,0,2.724346000919569e-08,0
2.73855999538389e-08,1.280154687184041,2.73855999538389e-08,0,2.73855999538389e-08,5,2.73855999538389e-08,0,2.73855999538389e-08,0
2.766987984312532e-08,1.280143359659918,2.766987984312532e-08,0,2.766987984312532e-08,5,2.766987984312532e-08,0,2.766987984312532e-08,0
2.80481060555654e-08,1.28016329113202,2.80481060555654e-08,0,2.80481060555654e-08,5,2.80481060555654e-08,0,2.80481060555654e-08,0
2.871623101679271e-08,1.280142315720415,2.871623101679271e-08,0,2.871623101679271e-08,5,2.871623101679271e-08,0,2.871623101679271e-08,0
3.005248093924732e-08,1.28016427156573,3.005248093924732e-08,0,3.005248093924732e-08,5,3.005248093924732e-08,0,3.005248093924732e-08,0
3.125e-08,1.280141947741109,3.125e-08,0,3.125e-08,5,3.125e-08,0,3.125e-08,0
3.158659171299011e-08,1.391567030933603,3.158659171299011e-08,0,3.158659171299011e-08,5,3.158659171299011e-08,0,3.158659171299011e-08,1.682958564950563
3.191829585649505e-08,1.501618950039133,3.191829585649505e-08,0,3.191829585649505e-08,5,3.191829585649505e-08,0,3.191829585649505e-08,3.341479282475271
3.225e-08,1.611704487173322,3.225e-08,0,3.225e-08,5,3.225e-08,0,3.225e-08,5
3.247650769993346e-08,1.611923516245695,3.247650769993346e-08,0,3.247650769993346e-08,5,3.247650769993346e-08,0,3.247650769993346e-08,5
3.273829009828491e-08,1.61191529842358,3.273829009828491e-08,0,3.273829009828491e-08,5,3.273829009828491e-08,0,3.273829009828491e-08,5
3.299314634175099e-08,1.611920215496583,3.299314634175099e-08,0,3.299314634175099e-08,5,3.299314634175099e-08,0,3.299314634175099e-08,5
3.350285882868315e-08,1.611917211501861,3.350285882868315e-08,0,3.350285882868315e-08,5,3.350285882868315e-08,0,3.350285882868315e-08,5
3.452228380254747e-08,1.611919125178935,3.452228380254747e-08,0,3.452228380254747e-08,5,3.452228380254747e-08,0,3.452228380254747e-08,5
3.601114190127373e-08,1.611918034308016,3.601114190127373e-08,0,3.601114190127373e-08,5,3.601114190127373e-08,0,3.601114190127373e-08,5
3.75e-08,1.611918885875136,3.75e-08,0,3.75e-08,5,3.75e-08,0,3.75e-08,5
3.775e-08,1.777490972833887,3.775e-08,0,3.775e-08,5,3.775e-08,1.249999999999995,3.775e-08,5
3.784375e-08,1.839763990434895,3.784375e-08,0,3.784375e-08,5,3.784375e-08,1.718749999999997,3.784375e-08,5
3.803125e-08,1.964335361649861,3.803125e-08,0,3.803125e-08,5,3.803125e-08,2.656250000000001,3.803125e-08,5
3.8265625e-08,2.119964060066343,3.8265625e-08,0,3.8265625e-08,5,3.8265625e-08,3.82812499999999,3.8265625e-08,5
3.85e-08,2.260414095913241,3.85e-08,0,3.85e-08,5,3.85e-08,5,3.85e-08,5
3.860035720212318e-08,2.235748784523116,3.860035720212318e-08,0,3.860035720212318e-08,5,3.860035720212318e-08,5,3.860035720212318e-08,4.498213989384106
3.873535122717793e-08,2.19643076256271,3.873535122717793e-08,0,3.873535122717793e-08,5,3.873535122717793e-08,5,3.873535122717793e-08,3.823243864110354
3.886228610856392e-08,2.155693837599147,3.886228610856392e-08,0,3.886228610856392e-08,5,3.886228610856392e-08,5,3.886228610856392e-08,3.188569457180386
3.911615587133591e-08,2.071752761245965,3.911615587133591e-08,0,3.911615587133591e-08,5,3.911615587133591e-08,5,3.911615587133591e-08,1.91922064332045
3.930807793566796e-08,2.00796289728129,3.930807793566796e-08,0,3.930807793566796e-08,5,3.930807793566796e-08,5,3.930807793566796e-08,0.9596103216602128
3.95e-08,1.944240079246625,3.95e-08,0,3.95e-08,5,3.95e-08,5,3.95e-08,0
3.967230785567e-08,1.943991665897606,3.967230785567e-08,0,3.967230785567e-08,5,3.967230785567e-08,5,3.967230785567e-08,0
3.986648021637002e-08,1.94401041166278,3.986648021637002e-08,0,3.986648021637002e-08,5,3.986648021637002e-08,5,3.986648021637002e-08,0
4.006100551707541e-08,1.943996863677967,4.006100551707541e-08,0,4.006100551707541e-08,5,4.006100551707541e-08,5,4.006100551707541e-08,0
4.045005611848621e-08,1.944006528089016,4.045005611848621e-08,0,4.045005611848621e-08,5,4.045005611848621e-08,5,4.045005611848621e-08,0
4.12281573213078e-08,1.943997890481125,4.12281573213078e-08,0,4.12281573213078e-08,5,4.12281573213078e-08,5,4.12281573213078e-08,0
4.268686432213004e-08,1.944006388332065,4.268686432213004e-08,0,4.268686432213004e-08,5,4.268686432213004e-08,5,4.268686432213004e-08,0
4.375e-08,1.943998616184401,4.375e-08,0,4.375e-08,5,4.375e-08,5,4.375e-08,0
4.4e-08,2.026833559012724,4.4e-08,0,4.4e-08,5,4.4e-08,5,4.4e-08,1.249999999999995
4.4375e-08,2.151115707887069,4.4375e-08,0,4.4375e-08,5,4.4375e-08,5,4.4375e-08,3.125000000000003
4.475e-08,2.260513797385265,4.475e-08,0,4.475e-08,5,4.475e-08,5,4.475e-08,5
4.496954436075606e-08,2.260588115347367,4.496954436075606e-08,0,4.496954436075606e-08,5,4.496954436075606e-08,5,4.496954436075606e-08,5
4.504011074344544e-08,2.260596118416757,4.504011074344544e-08,0,4.504011074344544e-08,5,4.504011074344544e-08,5,4.504011074344544e-08,5
4.518124350882419e-08,2.260570395911297,4.518124350882419e-08,0,4.518124350882419e-08,5,4.518124350882419e-08,5,4.518124350882419e-08,5
4.546350903958169e-08,2.260597707218485,4.546350903958169e-08,0,4.546350903958169e-08,5,4.546350903958169e-08,5,4.546350903958169e-08,5
4.602804010109668e-08,2.260571934826005,4.602804010109668e-08,0,4.602804010109668e-08,5,4.602804010109668e-08,5,4.602804010109668e-08,5
4.715710222412668e-08,2.260597604916294,4.715710222412668e-08,0,4.715710222412668e-08,5,4.715710222412668e-08,5,4.715710222412668e-08,5
4.857855111206334e-08,2.26057023041803,4.857855111206334e-08,0,4.857855111206334e-08,5,4.857855111206334e-08,5,4.857855111206334e-08,5
5e-08,2.26059714161947,5e-08,0,5e-08,5,5e-08,5,5e-08,5
5.0015625e-08,2.286616815355644,5.0015625e-08,0.07812500000000587,5.0015625e-08,5,5.0015625e-08,5,5.0015625e-08,5
5.0046875e-08,2.331576178575332,5.0046875e-08,0.2343750000000176,5.0046875e-08,5,5.0046875e-08,5,5.0046875e-08,5
5.00625e-08,2.35168121293482,5.00625e-08,0.3125000000000235,5.00625e-08,5,5.00625e-08,5,5.00625e-08,5
5.009375e-08,2.389762626103603,5.009375e-08,0.4687500000000352,5.009375e-08,5,5.009375e-08,5,5.009375e-08,5
5.014891935887652e-08,2.453013266871154,5.014891935887652e-08,0.7445967943825915,5.014891935887652e-08,5,5.014891935887652e-08,5,5.014891935887652e-08,5
5.022445291693611e-08,2.536046389711509,5.022445291693611e-08,1.122264584680545,5.022445291693611e-08,5,5.022445291693611e-08,5,5.022445291693611e-08,5
5.036355658823563e-08,2.684199183687435,5.036355658823563e-08,1.817782941178178,5.036355658823563e-08,5,5.036355658823563e-08,5,5.036355658823563e-08,5
5.057658628848225e-08,2.906475756367664,5.057658628848225e-08,2.882931442411245,5.057658628848225e-08,5,5.057658628848225e-08,5,5.057658628848225e-08,5
5.078829314424112e-08,3.124882811985212,5.078829314424112e-08,3.941465721205595,5.078829314424112e-08,5,5.078829314424112e-08,5,5.078829314424112e-08,5
5.099999999999999e-08,3.342225908465962,5.099999999999999e-08,4.999999999999979,5.099999999999999e-08,5,5.099999999999999e-08,5,5.099999999999999e-08,5
5.103723716730312e-08,3.309064728668528,5.103723716730312e-08,5,5.103723716730312e-08,4.813814163484365,5.103723716730312e-08,4.813814163484373,5.103723716730312e-08,4.813814163484369
5.110777444444225e-08,3.245607869961643,5.110777444444225e-08,5,5.110777444444225e-08,4.46112777778871,5.110777444444225e-08,4.461127777788718,5.110777444444225e-08,4.461127777788715
5.117028923342075e-08,3.189386567231818,5.117028923342075e-08,5,5.117028923342075e-08,4.14855383289623,5.117028923342075e-08,4.148553832896238,5.117028923342075e-08,4.148553832896233
5.127566505485988e-08,3.094645155790588,5.127566505485988e-08,5,5.127566505485988e-08,3.621674725700584,5.127566505485988e-08,3.621674725700593,5.127566505485988e-08,3.621674725700588
5.142007695728688e-08,2.964264158076801,5.142007695728688e-08,5,5.142007695728688e-08,2.899615213565571,5.142007695728688e-08,2.899615213565579,5.142007695728688e-08,2.899615213565575
5.163352395559519e-08,2.770415940210704,5.163352395559519e-08,5,5.163352395559519e-08,1.832380222024038,5.163352395559519e-08,1.832380222024046,5.163352395559519e-08,1.832380222024042
5.181676197779759e-08,2.601386691463133,5.181676197779759e-08,5,5.181676197779759e-08,0.9161901110120381,5.181676197779759e-08,0.9161901110120461,5.181676197779759e-08,0.9161901110120425
5.2e-08,2.426247048407467,5.2e-08,5,5.2e-08,0,5.2e-08,1.332267629550188e-14,5.2e-08,8.881784197001252e-15
5.205044313363463e-08,2.426011739332755,5.205044313363463e-08,5,5.205044313363463e-08,0,5.205044313363463e-08,0,5.205044313363463e-08,0
5.213613401858922e-08,2.426051620182273,5.213613401858922e-08,5,5.213613401858922e-08,0,5.213613401858922e-08,0,5.213613401858922e-08,0
5.221471164455117e-08,2.426069305471898,5.221471164455117e-08,5,5.221471164455117e-08,0,5.221471164455117e-08,0,5.221471164455117e-08,0
5.236689107810222e-08,2.42602842450967,5.236689107810222e-08,5,5.236689107810222e-08,0,5.236689107810222e-08,0,5.236689107810222e-08,0
5.255788978970946e-08,2.426075142365506,5.255788978970946e-08,5,5.255788978970946e-08,0,5.255788978970946e-08,0,5.255788978970946e-08,0
5.291050472429381e-08,2.426029310193722,5.291050472429381e-08,5,5.291050472429381e-08,0,5.291050472429381e-08,0,5.291050472429381e-08,0
5.351193496251433e-08,2.426074700235003,5.351193496251433e-08,5,5.351193496251433e-08,0,5.351193496251433e-08,0,5.351193496251433e-08,0
5.451327211585627e-08,2.426029441854357,5.451327211585627e-08,5,5.451327211585627e-08,0,5.451327211585627e-08,0,5.451327211585627e-08,0
5.625e-08,2.426074546322464,5.625e-08,5,5.625e-08,0,5.625e-08,0,5.625e-08,0
5.65e-08,2.461284687246061,5.65e-08,5,5.65e-08,0,5.65e-08,0,5.65e-08,1.249999999999995
5.6875e-08,2.512878790978252,5.6875e-08,5,5.6875e-08,0,5.6875e-08,0,5.6875e-08,3.125000000000003
5.725e-08,2.563617736026981,5.725e-08,5,5.725e-08,0,5.725e-08,0,5.725e-08,5
5.752013360057671e-08,2.563629529437526,5.752013360057671e-08,5,5.752013360057671e-08,0,5.752013360057671e-08,0,5.752013360057671e-08,5
5.783073115765253e-08,2.563579610402491,5.783073115765253e-08,5,5.783073115765253e-08,0,5.783073115765253e-08,0,5.783073115765253e-08,5
5.813442700585525e-08,2.563623119420856,5.813442700585525e-08,5,5.813442700585525e-08,0,5.813442700585525e-08,0,5.813442700585525e-08,5
5.87418187022607e-08,2.563583956946247,5.87418187022607e-08,5,5.87418187022607e-08,0,5.87418187022607e-08,0,5.87418187022607e-08,5
5.995660209507161e-08,2.563628796245728,5.995660209507161e-08,5,5.995660209507161e-08,0,5.995660209507161e-08,0,5.995660209507161e-08,5
6.122830104753581e-08,2.563576037929716,6.122830104753581e-08,5,6.122830104753581e-08,0,6.122830104753581e-08,0,6.122830104753581e-08,5
6.25e-08,2.563627715760458,6.25e-08,5,6.25e-08,0,6.25e-08,0,6.25e-08,5
6.275e-08,2.630310213527697,6.275e-08,5,6.275e-08,0,6.275e-08,1.250000000000028,6.275e-08,5
6.3125e-08,2.729086443489382,6.3125e-08,5,6.3125e-08,0,6.3125e-08,3.125000000000036,6.3125e-08,5
6.349999999999999e-08,2.826985871965307,6.349999999999999e-08,5,6.349999999999999e-08,0,6.349999999999999e-08,4.999999999999979,6.349999999999999e-08,5
6.36379876126684e-08,2.809047791735659,6.36379876126684e-08,5,6.36379876126684e-08,0,6.36379876126684e-08,5,6.36379876126684e-08,4.310061936657969
6.38287840631852e-08,2.784135017009512,6.38287840631852e-08,5,6.38287840631852e-08,0,6.38287840631852e-08,5,6.38287840631852e-08,3.356079684074004
