/net039 X,/net039 Y,/net010 X,/net010 Y,/net09 X,/net09 Y,/net08 X,/net08 Y,/net02 X,/net02 Y
0,2.523386064732216e-05,0,2.523386064728427e-05,0,2.523386064729263e-05,0,3.180142526862086e-05,0,0
1.5e-11,2.523386064730949e-05,1.5e-11,2.523386064727715e-05,1.5e-11,2.523386064728045e-05,1.5e-11,3.180142526880384e-05,1.5e-11,0
4.5e-11,2.523386064726987e-05,4.5e-11,2.523386064724127e-05,4.5e-11,2.523386064724203e-05,4.5e-11,3.18014252686455e-05,4.5e-11,0
1.05e-10,2.523386064699295e-05,1.05e-10,2.523386064682943e-05,1.05e-10,2.523386064947304e-05,1.05e-10,3.180142526875266e-05,1.05e-10,0
2.25e-10,2.523386064661412e-05,2.25e-10,2.523386064918055e-05,2.25e-10,2.523386064696301e-05,2.25e-10,3.180142526860249e-05,2.25e-10,0
4.65e-10,2.523386064699461e-05,4.65e-10,2.523386064705236e-05,4.65e-10,2.523386064654975e-05,4.65e-10,3.180142526875472e-05,4.65e-10,0
7.649999999999999e-10,2.52338606490544e-05,7.649999999999999e-10,2.523386064661673e-05,7.649999999999999e-10,2.523386064709429e-05,7.649999999999999e-10,3.180142526852438e-05,7.649999999999999e-10,0
1.065e-09,2.523386064453719e-05,1.065e-09,2.52338606469151e-05,1.065e-09,2.523386064891639e-05,1.065e-09,3.180142526871473e-05,1.065e-09,0
1.365e-09,2.523386065159218e-05,1.365e-09,2.523386064667996e-05,1.365e-09,2.523386064730102e-05,1.365e-09,3.180142526866321e-05,1.365e-09,0
1.665e-09,2.523386064448185e-05,1.665e-09,2.523386064691898e-05,1.665e-09,2.523386064880355e-05,1.665e-09,3.180142526874077e-05,1.665e-09,0
1.8325e-09,2.523386065170295e-05,1.8325e-09,2.523386064668536e-05,1.8325e-09,2.523386064771751e-05,1.8325e-09,3.180142526859051e-05,1.8325e-09,0
2e-09,2.523386064479994e-05,2e-09,2.523386064430172e-05,2e-09,2.523386064854507e-05,2e-09,3.1801425268662e-05,2e-09,0
2.120144127384571e-09,2.523386064729474e-05,2.120144127384571e-09,2.523386064721224e-05,2.120144127384571e-09,2.523386064736889e-05,2.120144127384571e-09,3.180142527093612e-05,2.120144127384571e-09,0.06674673743587282
2.261585129605973e-09,2.523386064688084e-05,2.261585129605973e-09,2.523386064666065e-05,2.261585129605973e-09,2.523386064692593e-05,2.261585129605973e-09,3.180142524306856e-05,2.261585129605973e-09,0.1453250720033182
2.400273555065276e-09,2.52338606491836e-05,2.400273555065276e-09,2.52338606442796e-05,2.400273555065276e-09,2.523386064659684e-05,2.400273555065276e-09,3.180142535875508e-05,2.400273555065276e-09,0.2223741972584866
2.465431174000449e-09,2.523386064468184e-05,2.465431174000449e-09,2.523386064922182e-05,2.465431174000449e-09,2.523386064654821e-05,2.465431174000449e-09,3.180142488271756e-05,2.465431174000449e-09,0.258572874444694
2.498009983468036e-09,2.523386064852866e-05,2.498009983468036e-09,2.523386064473953e-05,2.498009983468036e-09,2.523386065028644e-05,2.498009983468036e-09,3.180142665326978e-05,2.498009983468036e-09,0.2766722130377977
2.563167602403209e-09,2.523386064506934e-05,2.563167602403209e-09,2.523386064891959e-05,2.563167602403209e-09,2.523386064036086e-05,2.563167602403209e-09,3.180142331887187e-05,2.563167602403209e-09,0.312870890224005
2.585190193843392e-09,2.523386064839406e-05,2.585190193843392e-09,2.523386064500096e-05,2.585190193843392e-09,2.52338606656924e-05,2.585190193843392e-09,3.180142810927117e-05,2.585190193843392e-09,0.3251056632463287
2.629235376723757e-09,2.523386064512662e-05,2.629235376723757e-09,2.523386064585284e-05,2.629235376723757e-09,2.523386062336267e-05,2.629235376723757e-09,3.180142252511858e-05,2.629235376723757e-09,0.3495752092909762
2.641960491907654e-09,2.52338606506782e-05,2.641960491907654e-09,2.523386064545656e-05,2.641960491907654e-09,2.523386067671682e-05,2.641960491907654e-09,3.180142608933585e-05,2.641960491907654e-09,0.3566447177264742
2.659490783355225e-09,2.523386064587495e-05,2.659490783355225e-09,2.523386064807781e-05,2.659490783355225e-09,2.523386063092328e-05,2.659490783355225e-09,3.180142617525071e-05,2.659490783355225e-09,0.3663837685306802
2.676559840768168e-09,2.523386064796573e-05,2.676559840768168e-09,2.523386064825328e-05,2.676559840768168e-09,2.523386064710746e-05,2.676559840768168e-09,3.180142338640662e-05,2.676559840768168e-09,0.3758665782045378
2.691234614758126e-09,2.523386064583046e-05,2.691234614758126e-09,2.523386064588016e-05,2.691234614758126e-09,2.523386066486894e-05,2.691234614758126e-09,3.180142735194726e-05,2.691234614758126e-09,0.3840192304211809
2.709236488019377e-09,2.523386064750845e-05,2.709236488019377e-09,2.52338606476976e-05,2.709236488019377e-09,2.523386062124625e-05,2.709236488019377e-09,3.180142344038433e-05,2.709236488019377e-09,0.3940202711218762
2.725913658219994e-09,2.523386064633188e-05,2.725913658219994e-09,2.523386064828539e-05,2.725913658219994e-09,2.523386067609888e-05,2.725913658219994e-09,3.180142668968862e-05,2.725913658219994e-09,0.4032853656777745
2.745130050374312e-09,2.523386064735634e-05,2.745130050374312e-09,2.523386064565485e-05,2.745130050374312e-09,2.523386061940299e-05,2.745130050374312e-09,3.18014242041588e-05,2.745130050374312e-09,0.4139611390968403
2.772550029443246e-09,2.523386064620337e-05,2.772550029443246e-09,2.523386064785714e-05,2.772550029443246e-09,2.523386067282961e-05,2.772550029443246e-09,3.18014261084206e-05,2.772550029443246e-09,0.4291944608018031
2.802633183921e-09,2.523386064747399e-05,2.802633183921e-09,2.52338606483823e-05,2.802633183921e-09,2.523386062517596e-05,2.802633183921e-09,3.180142460858546e-05,2.802633183921e-09,0.4459073244005554
2.82848737376578e-09,2.523386064629619e-05,2.82848737376578e-09,2.523386064794889e-05,2.82848737376578e-09,2.523386066621465e-05,2.82848737376578e-09,3.180142574934984e-05,2.82848737376578e-09,0.460270763203211
2.855174196613754e-09,2.52338606472691e-05,2.855174196613754e-09,2.523386064839714e-05,2.855174196613754e-09,2.523386062949418e-05,2.855174196613754e-09,3.180142493183773e-05,2.855174196613754e-09,0.4750967758965298
2.889627200805847e-09,2.52338606462796e-05,2.889627200805847e-09,2.52338606478094e-05,2.889627200805847e-09,2.523386066247444e-05,2.889627200805847e-09,3.180142551173858e-05,2.889627200805847e-09,0.4942373337810259
2.917037946526797e-09,2.523386064992889e-05,2.917037946526797e-09,2.523386064589197e-05,2.917037946526797e-09,2.523386063300628e-05,2.917037946526797e-09,3.180142512354412e-05,2.917037946526797e-09,0.5094655258482204
2.944166798267716e-09,2.523386064373961e-05,2.944166798267716e-09,2.523386064528796e-05,2.944166798267716e-09,2.523386065876311e-05,2.944166798267716e-09,3.180142533422976e-05,2.944166798267716e-09,0.5245371101487309
2.981354841646097e-09,2.523386064974716e-05,2.981354841646097e-09,2.523386064820687e-05,2.981354841646097e-09,2.523386063834599e-05,2.981354841646097e-09,3.180142525079601e-05,2.981354841646097e-09,0.5451971342478317
3.017576683377385e-09,2.52338606440603e-05,3.017576683377385e-09,2.523386064554025e-05,3.017576683377385e-09,2.52338606538739e-05,3.017576683377385e-09,3.180142524489944e-05,3.017576683377385e-09,0.5653203796541024
3.066755932331209e-09,2.52338606470917e-05,3.066755932331209e-09,2.523386064804541e-05,3.066755932331209e-09,2.523386063782375e-05,3.066755932331209e-09,3.180142531888741e-05,3.066755932331209e-09,0.5926421846284496
3.112470576783573e-09,2.52338606489162e-05,3.112470576783573e-09,2.523386064566012e-05,3.112470576783573e-09,2.523386065506791e-05,3.112470576783573e-09,3.180142519361158e-05,3.112470576783573e-09,0.6180392093242073
3.124564003789338e-09,2.523386064537433e-05,3.124564003789338e-09,2.523386064761957e-05,3.124564003789338e-09,2.52338606421161e-05,3.124564003789338e-09,3.180142541047627e-05,3.124564003789338e-09,0.6247577798829655
3.130610717292221e-09,2.523386064963841e-05,3.130610717292221e-09,2.523386064615901e-05,3.130610717292221e-09,2.523386064520174e-05,3.130610717292221e-09,3.180142504292444e-05,3.130610717292221e-09,0.6281170651623448
3.133634074043662e-09,2.523386064783963e-05,3.133634074043662e-09,2.523386064744207e-05,3.133634074043662e-09,2.52338606479339e-05,3.133634074043662e-09,3.180142543626841e-05,3.133634074043662e-09,0.6297967078020343
3.139680787546544e-09,2.523386064666234e-05,3.139680787546544e-09,2.523386064630008e-05,3.139680787546544e-09,2.523386064565285e-05,3.139680787546544e-09,3.180142507639663e-05,3.139680787546544e-09,0.6331559930814135
3.144793635139002e-09,2.523386064657981e-05,3.144793635139002e-09,2.52338606474563e-05,3.144793635139002e-09,2.523386063528562e-05,3.144793635139002e-09,3.18014250490532e-05,3.144793635139002e-09,0.6359964639661121
3.150304762907308e-09,2.523386064834022e-05,3.150304762907308e-09,2.523386064748349e-05,3.150304762907308e-09,2.52338607252e-05,3.150304762907308e-09,3.180142661791989e-05,3.150304762907308e-09,0.6390582016151709
3.155672546645042e-09,2.523386064646476e-05,3.155672546645042e-09,2.523386064356172e-05,3.155672546645042e-09,2.523386056065412e-05,3.155672546645042e-09,3.180142499190528e-05,3.155672546645042e-09,0.64204030369169
3.163591579360665e-09,2.523386064593443e-05,3.163591579360665e-09,2.523386064971431e-05,3.163591579360665e-09,2.52338606600877e-05,3.163591579360665e-09,3.180142437759665e-05,3.163591579360665e-09,0.6464397663114807
3.172538069991419e-09,2.523386065191235e-05,3.172538069991419e-09,2.523386064683393e-05,3.172538069991419e-09,2.523386084458081e-05,3.172538069991419e-09,3.180143123551673e-05,3.172538069991419e-09,0.6514100388841216
3.179331838355308e-09,2.523386054740907e-05,3.179331838355308e-09,2.523386064183562e-05,3.179331838355308e-09,2.523385731403033e-05,3.179331838355308e-09,3.180134155542572e-05,3.179331838355308e-09,0.6551843546418376
3.182517891640704e-09,2.523386008525863e-05,3.182517891640704e-09,2.523386064019807e-05,3.182517891640704e-09,2.52338439084754e-05,3.182517891640704e-09,3.180104438067793e-05,3.182517891640704e-09,0.6569543842448358
3.188736737995361e-09,2.52338619692465e-05,3.188736737995361e-09,2.523386067954347e-05,3.188736737995361e-09,2.523389030809708e-05,3.188736737995361e-09,3.180172975662496e-05,3.188736737995361e-09,0.6604092988863115
3.190331855150626e-09,2.523386274134415e-05,3.190331855150626e-09,2.523386068212686e-05,3.190331855150626e-09,2.523391633927294e-05,3.190331855150626e-09,3.180235312305171e-05,3.190331855150626e-09,0.661295475083681
3.193522089461157e-09,2.52338630974885e-05,3.193522089461157e-09,2.523386064378546e-05,3.193522089461157e-09,2.523395465117161e-05,3.193522089461157e-09,3.180392948616527e-05,3.193522089461157e-09,0.6630678274784204
3.199055080313565e-09,2.523386370977687e-05,3.199055080313565e-09,2.523386064512429e-05,3.199055080313565e-09,2.523402641295365e-05,3.199055080313565e-09,3.180816869596145e-05,3.199055080313565e-09,0.666141711285314
3.203602400230341e-09,2.523383864883842e-05,3.203602400230341e-09,2.523386018498333e-05,3.203602400230341e-09,2.523335108146594e-05,3.203602400230341e-09,3.179715054140365e-05,3.203602400230341e-09,0.6686680001279671
3.205370525641727e-09,2.523383053631195e-05,3.205370525641727e-09,2.5233860283753e-05,3.205370525641727e-09,2.523294878657792e-05,3.205370525641727e-09,3.178656044242653e-05,3.205370525641727e-09,0.6696502920231819
3.208906776464501e-09,2.523386934950285e-05,3.208906776464501e-09,2.523386118295914e-05,3.208906776464501e-09,2.523199427212433e-05,3.208906776464501e-09,3.175359314689935e-05,3.208906776464501e-09,0.6716148758136115
3.213383082772091e-09,2.52338791798119e-05,3.213383082772091e-09,2.523386046713964e-05,3.213383082772091e-09,2.52298430418399e-05,3.213383082772091e-09,3.166920445256339e-05,3.213383082772091e-09,0.6741017126511617
3.218097369295986e-09,2.52337877834567e-05,3.218097369295986e-09,2.523386299167822e-05,3.218097369295986e-09,2.524013307862109e-05,3.218097369295986e-09,3.179664918478651e-05,3.218097369295986e-09,0.6767207607199923
3.222580367746392e-09,2.523397238157618e-05,3.222580367746392e-09,2.523386107132968e-05,3.222580367746392e-09,2.524797672327642e-05,3.222580367746392e-09,3.210274194835159e-05,3.222580367746392e-09,0.679211315414662
3.227062701331215e-09,2.523401675568296e-05,3.227062701331215e-09,2.523385184015604e-05,3.227062701331215e-09,2.522409540210302e-05,3.227062701331215e-09,3.190827698922684e-05,3.227062701331215e-09,0.6817015007395639
3.23383387330337e-09,2.523366586474361e-05,3.23383387330337e-09,2.52338684230461e-05,3.23383387330337e-09,2.522755277565067e-05,3.23383387330337e-09,3.16610510358882e-05,3.23383387330337e-09,0.6854632629463169
3.239372399427485e-09,2.523390257846335e-05,3.239372399427485e-09,2.523386185524234e-05,3.239372399427485e-09,2.523801802557027e-05,3.239372399427485e-09,3.17544885290545e-05,3.239372399427485e-09,0.6885402219041582
3.244224955548667e-09,2.523415949540635e-05,3.244224955548667e-09,2.523385647574788e-05,3.244224955548667e-09,2.523371677598849e-05,3.244224955548667e-09,3.176606787915912e-05,3.244224955548667e-09,0.691236086415926
3.249522925236331e-09,2.523416965275458e-05,3.249522925236331e-09,2.523386196388308e-05,3.249522925236331e-09,2.52328496477593e-05,3.249522925236331e-09,3.175973503606127e-05,3.249522925236331e-09,0.6941794029090728
3.25405848911869e-09,2.523445196230072e-05,3.25405848911869e-09,2.523386252673964e-05,3.25405848911869e-09,2.522798398722629e-05,3.25405848911869e-09,3.163981004839579e-05,3.25405848911869e-09,0.6966991606214944
3.257687555103133e-09,2.523495835246102e-05,3.257687555103133e-09,2.523386559856923e-05,3.257687555103133e-09,2.522817864225093e-05,3.257687555103133e-09,3.156123359506325e-05,3.257687555103133e-09,0.6987153083906296
3.260885718187921e-09,2.520425473018343e-05,3.260885718187921e-09,2.523364786069038e-05,3.260885718187921e-09,2.523370462215286e-05,3.260885718187921e-09,3.103637863282793e-05,3.260885718187921e-09,0.7004920656599563
3.26433805871366e-09,2.509812320570832e-05,3.26433805871366e-09,2.523317595781855e-05,3.26433805871366e-09,2.524863831303339e-05,3.26433805871366e-09,2.884223832042222e-05,3.26433805871366e-09,0.7024100326186998
3.267153700262248e-09,2.518401789977807e-05,3.267153700262248e-09,2.523454021751845e-05,3.267153700262248e-09,2.525671902387273e-05,3.267153700262248e-09,2.879383801951946e-05,3.267153700262248e-09,0.703974277923471
3.267859390521204e-09,2.527673468307368e-05,3.267859390521204e-09,2.523541811748875e-05,3.267859390521204e-09,2.525823578188897e-05,3.267859390521204e-09,2.976117408890897e-05,3.267859390521204e-09,0.7043663280673355
3.269270771039116e-09,2.556411237291266e-05,3.269270771039116e-09,2.523749209798252e-05,3.269270771039116e-09,2.525629883809276e-05,3.269270771039116e-09,3.418741793773956e-05,3.269270771039116e-09,0.7051504283550645
3.271229094579669e-09,2.648160704067654e-05,3.271229094579669e-09,2.524258616063057e-05,3.271229094579669e-09,2.525218254442509e-05,3.271229094579669e-09,5.118204245819508e-05,3.271229094579669e-09,0.7062383858775938
3.272857506100549e-09,2.74869808991541e-05,3.272857506100549e-09,2.524564980312788e-05,3.272857506100549e-09,2.525700959012204e-05,3.272857506100549e-09,7.488895401839558e-05,3.272857506100549e-09,0.7071430589447495
3.274794609873331e-09,2.786476419646654e-05,3.274794609873331e-09,2.523719649685795e-05,3.274794609873331e-09,2.525684180348976e-05,3.274794609873331e-09,0.0001004875498259527,3.274794609873331e-09,0.7082192277074061
3.277331248287833e-09,2.66041631460302e-05,3.277331248287833e-09,2.52217401316276e-05,3.277331248287833e-09,2.522276192003561e-05,3.277331248287833e-09,9.823936033129608e-05,3.277331248287833e-09,0.7096284712710182
3.279873815757977e-09,2.424632375565279e-05,3.279873815757977e-09,2.521069356046294e-05,3.279873815757977e-09,2.518723572866395e-05,3.279873815757977e-09,-0.0001221184070485046,3.279873815757977e-09,0.7110410087544319
3.282513018607171e-09,1.833072828442196e-05,3.282513018607171e-09,2.52117888877051e-05,3.282513018607171e-09,2.518053255765945e-05,3.282513018607171e-09,-0.0009209785918129451,3.282513018607171e-09,0.7125072325595393
3.284862499679766e-09,4.783401385580843e-06,3.284862499679766e-09,2.524136396751648e-05,3.284862499679766e-09,2.521576150871862e-05,3.284862499679766e-09,-0.001476124889510569,3.284862499679766e-09,0.7138124998220923
3.28700293460401e-09,-2.164346181558691e-06,3.28700293460401e-09,2.526374277515298e-05,3.28700293460401e-09,2.524112313335217e-05,3.28700293460401e-09,-0.00135618635099167,3.28700293460401e-09,0.7150016303355611
3.289190775821656e-09,4.595447003764497e-06,3.289190775821656e-09,2.526091907659188e-05,3.289190775821656e-09,2.523213264520986e-05,3.289190775821656e-09,-0.0009625456725676538,3.289190775821656e-09,0.7162170976786978
3.291997996607105e-09,1.85198559086825e-05,3.291997996607105e-09,2.525334009374783e-05,3.291997996607105e-09,2.522264573355932e-05,3.291997996607105e-09,-0.0006244938697426635,3.291997996607105e-09,0.7177766647817252
3.293972365845789e-09,2.805868075218865e-05,3.293972365845789e-09,2.524955408607121e-05,3.293972365845789e-09,2.522365731338421e-05,3.293972365845789e-09,-0.0007529574572454347,3.293972365845789e-09,0.7188735365809938
3.296027405069265e-09,5.7780808956728e-05,3.296027405069265e-09,2.52884469651092e-05,3.296027405069265e-09,2.523153877840792e-05,3.296027405069265e-09,-0.001307040115750192,3.296027405069265e-09,0.7200152250384805
3.298071249431327e-09,0.0002052262112587696,3.298071249431327e-09,2.528633333507399e-05,3.298071249431327e-09,2.524421673144191e-05,3.298071249431327e-09,-0.002121167747016259,3.298071249431327e-09,0.7211506941285147
3.300519453421312e-09,0.0007036912067708172,3.300519453421312e-09,2.523354914238068e-05,3.300519453421312e-09,2.525996843640001e-05,3.300519453421312e-09,-0.003003363415115577,3.300519453421312e-09,0.7225108074562842
3.302756751515032e-09,0.0004167698245117083,3.302756751515032e-09,2.51559972536402e-05,3.302756751515032e-09,2.526008729792704e-05,3.302756751515032e-09,-0.003595012778995347,3.302756751515032e-09,0.7237537508416844
3.305168461420903e-09,-0.00689570841429489,3.305168461420903e-09,2.510834596928607e-05,3.305168461420903e-09,2.52559857332611e-05,3.305168461420903e-09,-0.00383005405323087,3.305168461420903e-09,0.7250935896782792
3.307348988689741e-09,-0.01578807606609231,3.307348988689741e-09,2.512195025130057e-05,3.307348988689741e-09,2.525291025801494e-05,3.307348988689741e-09,-0.003528735806567313,3.307348988689741e-09,0.7263049937165228
3.309479550793973e-09,-0.01693440886315939,3.309479550793973e-09,2.517118608786103e-05,3.309479550793973e-09,2.524437241852177e-05,3.309479550793973e-09,-0.002756767323261409,3.309479550793973e-09,0.727488639329985
3.31165369285671e-09,0.01049809532477299,3.31165369285671e-09,2.522116349458838e-05,3.31165369285671e-09,2.521996605546249e-05,3.31165369285671e-09,-0.002034387946885629,3.31165369285671e-09,0.7286964960315052
3.313365505563619e-09,0.07215800745939621,3.313365505563619e-09,2.526762464269275e-05,3.313365505563619e-09,2.522113020692536e-05,3.313365505563619e-09,-0.001384909109070143,3.313365505563619e-09,0.7296475030908995
3.315454595963258e-09,0.1979532060822128,3.315454595963258e-09,2.532484346573474e-05,3.315454595963258e-09,2.523978690686714e-05,3.315454595963258e-09,-0.000124642422998806,3.315454595963258e-09,0.7308081088684767
3.317713517887878e-09,0.3616682952580806,3.317713517887878e-09,2.530222901966932e-05,3.317713517887878e-09,2.522509457080181e-05,3.317713517887878e-09,0.00131955033798601,3.317713517887878e-09,0.7320630654932657
3.320209755205942e-09,0.5413787642949695,3.320209755205942e-09,2.526726733412836e-05,3.320209755205942e-09,2.521431954831738e-05,3.320209755205942e-09,0.002629266508535854,3.320209755205942e-09,0.7334498640033009
3.322539929527027e-09,0.6815398307172555,3.322539929527027e-09,2.523731428419386e-05,3.322539929527027e-09,2.521097185026314e-05,3.322539929527027e-09,0.003298247380553572,3.322539929527027e-09,0.7347444052927928
3.32463831504043e-09,0.7722870981766923,3.32463831504043e-09,2.523532459520422e-05,3.32463831504043e-09,2.521912494798783e-05,3.32463831504043e-09,0.003460961193298482,3.32463831504043e-09,0.7359101750224608
