/net039 X,/net039 Y,/net010 X,/net010 Y,/net09 X,/net09 Y,/net08 X,/net08 Y,/net02 X,/net02 Y
0,2.355912377892618e-05,0,2.355912377873512e-05,0,2.355912377895259e-05,0,2.973427007484559e-05,0,0
1.5e-11,2.355912377900178e-05,1.5e-11,2.355912377879297e-05,1.5e-11,2.355912377901596e-05,1.5e-11,2.973427007477417e-05,1.5e-11,0
4.5e-11,2.355912377876115e-05,4.5e-11,2.355912377897706e-05,4.5e-11,2.3559123778753e-05,4.5e-11,2.973427007473926e-05,4.5e-11,0
1.05e-10,2.355912378021838e-05,1.05e-10,2.355912377771115e-05,1.05e-10,2.355912377777393e-05,1.05e-10,2.973427007495692e-05,1.05e-10,0
2.25e-10,2.355912377787573e-05,2.25e-10,2.355912378048747e-05,2.25e-10,2.355912378300319e-05,2.25e-10,2.973427007484391e-05,2.25e-10,0
4.65e-10,2.355912378019942e-05,4.65e-10,2.355912377799174e-05,4.65e-10,2.355912377531847e-05,4.65e-10,2.973427007467214e-05,4.65e-10,0
7.649999999999999e-10,2.355912377541795e-05,7.649999999999999e-10,2.355912378003286e-05,7.649999999999999e-10,2.355912378050361e-05,7.649999999999999e-10,2.973427007494943e-05,7.649999999999999e-10,0
1.065e-09,2.355912378260606e-05,1.065e-09,2.355912377841947e-05,1.065e-09,2.355912377798089e-05,1.065e-09,2.973427007481765e-05,1.065e-09,0
1.365e-09,2.355912377530139e-05,1.365e-09,2.35591237794493e-05,1.365e-09,2.355912378023354e-05,1.365e-09,2.973427007509192e-05,1.365e-09,0
1.665e-09,2.355912378285246e-05,1.665e-09,2.355912378119849e-05,1.665e-09,2.355912377776632e-05,1.665e-09,2.973427007476067e-05,1.665e-09,0
1.8325e-09,2.355912377544139e-05,1.8325e-09,2.355912377676799e-05,1.8325e-09,2.355912378326129e-05,1.8325e-09,2.973427007495346e-05,1.8325e-09,0
2e-09,2.355912378254885e-05,2e-09,2.355912378162127e-05,2e-09,2.355912377496138e-05,2e-09,2.973427007473126e-05,2e-09,0
2.120144127384571e-09,2.355912377882698e-05,2.120144127384571e-09,2.355912377884628e-05,2.120144127384571e-09,2.355912377893879e-05,2.120144127384571e-09,2.973427007653732e-05,2.120144127384571e-09,0.06674673743587282
2.261585129605973e-09,2.355912378023496e-05,2.261585129605973e-09,2.35591237802753e-05,2.261585129605973e-09,2.355912378039939e-05,2.261585129605973e-09,2.973427005389975e-05,2.261585129605973e-09,0.1453250720033182
2.400273543396471e-09,2.355912377576664e-05,2.400273543396471e-09,2.355912377807003e-05,2.400273543396471e-09,2.35591237779379e-05,2.400273543396471e-09,2.97342701482175e-05,2.400273543396471e-09,0.2223741907758172
2.46961775029172e-09,2.355912377971957e-05,2.46961775029172e-09,2.355912378049887e-05,2.46961775029172e-09,2.35591237799826e-05,2.46961775029172e-09,2.97342697747322e-05,2.46961775029172e-09,0.2608987501620668
2.504289853739345e-09,2.355912377810294e-05,2.504289853739345e-09,2.355912377812738e-05,2.504289853739345e-09,2.355912378074284e-05,2.504289853739345e-09,2.973427118328678e-05,2.504289853739345e-09,0.2801610298551914
2.521625905463157e-09,2.355912377773403e-05,2.521625905463157e-09,2.355912377965452e-05,2.521625905463157e-09,2.355912376274868e-05,2.521625905463157e-09,2.973426751036404e-05,2.521625905463157e-09,0.2897921697017536
2.556298008910781e-09,2.355912378023978e-05,2.556298008910781e-09,2.355912377637343e-05,2.556298008910781e-09,2.355912380355828e-05,2.556298008910781e-09,2.973427279023333e-05,2.556298008910781e-09,0.309054449394878
2.625642215806028e-09,2.355912377793884e-05,2.625642215806028e-09,2.355912378168386e-05,2.625642215806028e-09,2.355912374952173e-05,2.625642215806028e-09,2.973426750353315e-05,2.625642215806028e-09,0.3475790087811269
2.642071732102118e-09,2.355912378022712e-05,2.642071732102118e-09,2.355912377677258e-05,2.642071732102118e-09,2.355912381175592e-05,2.642071732102118e-09,2.973427122639237e-05,2.642071732102118e-09,0.35670651783451
2.661537926703189e-09,2.355912377590469e-05,2.661537926703189e-09,2.355912378120242e-05,2.661537926703189e-09,2.355912375411989e-05,2.661537926703189e-09,2.973427043645841e-05,2.661537926703189e-09,0.3675210703906605
2.681156070389159e-09,2.3559123781756e-05,2.681156070389159e-09,2.355912377943455e-05,2.681156070389159e-09,2.355912378962109e-05,2.681156070389159e-09,2.973426864490409e-05,2.681156070389159e-09,0.3784200391050883
2.690438477036845e-09,2.355912377689363e-05,2.690438477036845e-09,2.35591237809031e-05,2.690438477036845e-09,2.355912379456266e-05,2.690438477036845e-09,2.973427217205409e-05,2.690438477036845e-09,0.3835769316871358
2.709003290332216e-09,2.355912378338766e-05,2.709003290332216e-09,2.355912377728502e-05,2.709003290332216e-09,2.355912375766259e-05,2.709003290332216e-09,2.973426821581877e-05,2.709003290332216e-09,0.3938907168512308
2.726136589695575e-09,2.355912377544521e-05,2.726136589695575e-09,2.355912378050081e-05,2.726136589695575e-09,2.355912380288748e-05,2.726136589695575e-09,2.97342715522621e-05,2.726136589695575e-09,0.4034092164975418
2.746665303112293e-09,2.355912378242609e-05,2.746665303112293e-09,2.355912377788888e-05,2.746665303112293e-09,2.355912375520868e-05,2.746665303112293e-09,2.973426892578359e-05,2.746665303112293e-09,0.4148140572846071
2.771623818707651e-09,2.355912377637686e-05,2.771623818707651e-09,2.35591237824997e-05,2.771623818707651e-09,2.355912379953285e-05,2.771623818707651e-09,2.97342709764326e-05,2.771623818707651e-09,0.4286798992820281
2.808537202693745e-09,2.355912378171586e-05,2.808537202693745e-09,2.355912377346829e-05,2.808537202693745e-09,2.355912375989773e-05,2.808537202693745e-09,2.97342693240088e-05,2.808537202693745e-09,0.4491873348298582
2.834975223099461e-09,2.355912377684368e-05,2.834975223099461e-09,2.355912378401858e-05,2.834975223099461e-09,2.35591237967073e-05,2.834975223099461e-09,2.97342706401377e-05,2.834975223099461e-09,0.4638751239441452
2.862767570921912e-09,2.355912378360798e-05,2.862767570921912e-09,2.355912377673009e-05,2.862767570921912e-09,2.355912376299061e-05,2.862767570921912e-09,2.973426965972901e-05,2.862767570921912e-09,0.4793153171788397
2.897294901267296e-09,2.355912377236173e-05,2.897294901267296e-09,2.355912378390951e-05,2.897294901267296e-09,2.355912379147782e-05,2.897294901267296e-09,2.973427038631934e-05,2.897294901267296e-09,0.49849716737072
2.923973741871978e-09,2.355912378528704e-05,2.923973741871978e-09,2.355912377491275e-05,2.923973741871978e-09,2.355912376834193e-05,2.923973741871978e-09,2.97342698770131e-05,2.923973741871978e-09,0.513318745484432
2.951832441109824e-09,2.355912377097236e-05,2.951832441109824e-09,2.355912378050885e-05,2.951832441109824e-09,2.355912378838696e-05,2.951832441109824e-09,2.973427018296728e-05,2.951832441109824e-09,0.5287958006165688
2.989743410663242e-09,2.355912378432789e-05,2.989743410663242e-09,2.355912377774074e-05,2.989743410663242e-09,2.355912377094443e-05,2.989743410663242e-09,2.97342700215962e-05,2.989743410663242e-09,0.5498574503684677
3.026705256773396e-09,2.355912377389767e-05,3.026705256773396e-09,2.355912378052767e-05,3.026705256773396e-09,2.355912378613431e-05,3.026705256773396e-09,2.973427007992694e-05,3.026705256773396e-09,0.5703918093185532
3.077308481038901e-09,2.355912378179996e-05,3.077308481038901e-09,2.355912377553505e-05,3.077308481038901e-09,2.355912377268515e-05,3.077308481038901e-09,2.973427010042768e-05,3.077308481038901e-09,0.5985047116882786
3.089114460363837e-09,2.355912377685006e-05,3.089114460363837e-09,2.355912378167759e-05,3.089114460363837e-09,2.355912378236316e-05,3.089114460363837e-09,2.97342699508496e-05,3.089114460363837e-09,0.6050635890910203
3.112726419013707e-09,2.355912378140174e-05,3.112726419013707e-09,2.355912377850708e-05,3.112726419013707e-09,2.355912377667716e-05,3.112726419013707e-09,2.973427022915363e-05,3.112726419013707e-09,0.6181813438965036
3.120889474769082e-09,2.355912377973961e-05,3.120889474769082e-09,2.35591237793694e-05,3.120889474769082e-09,2.355912377723599e-05,3.120889474769082e-09,2.973426987302931e-05,3.120889474769082e-09,0.6227163748717123
3.12497100264677e-09,2.355912377921693e-05,3.12497100264677e-09,2.355912377736739e-05,3.12497100264677e-09,2.35591237811787e-05,3.12497100264677e-09,2.97342702730231e-05,3.12497100264677e-09,0.6249838903593165
3.133134058402145e-09,2.35591237787491e-05,3.133134058402145e-09,2.355912378115808e-05,3.133134058402145e-09,2.355912377804176e-05,3.133134058402145e-09,2.973426988192473e-05,3.133134058402145e-09,0.6295189213345249
3.136220834393042e-09,2.355912377779063e-05,3.136220834393042e-09,2.35591237797888e-05,3.136220834393042e-09,2.355912378171194e-05,3.136220834393042e-09,2.973427025138807e-05,3.136220834393042e-09,0.6312337968850231
3.142394386374835e-09,2.355912377943434e-05,3.142394386374835e-09,2.355912377941935e-05,3.142394386374835e-09,2.355912377264175e-05,3.142394386374835e-09,2.973426985056353e-05,3.142394386374835e-09,0.6346635479860193
3.147960986311111e-09,2.355912377864762e-05,3.147960986311111e-09,2.355912378090334e-05,3.147960986311111e-09,2.355912377185967e-05,3.147960986311111e-09,2.973426985040798e-05,3.147960986311111e-09,0.6377561035061726
3.155434151076157e-09,2.355912378189905e-05,3.155434151076157e-09,2.355912377697568e-05,3.155434151076157e-09,2.355912383665239e-05,3.155434151076157e-09,2.973427136628548e-05,3.155434151076157e-09,0.6419078617089762
3.161010976681624e-09,2.3559123776959e-05,3.161010976681624e-09,2.355912377563809e-05,3.161010976681624e-09,2.355912368273717e-05,3.161010976681624e-09,2.973426935014339e-05,3.161010976681624e-09,0.6450060981564576
3.162852700931368e-09,2.355912377706562e-05,3.162852700931368e-09,2.355912377762513e-05,3.162852700931368e-09,2.355912367482957e-05,3.162852700931368e-09,2.973426812656181e-05,3.162852700931368e-09,0.6460292782952043
3.166536149430856e-09,2.355912378351722e-05,3.166536149430856e-09,2.355912378711792e-05,3.166536149430856e-09,2.355912400684842e-05,3.166536149430856e-09,2.973427291568743e-05,3.166536149430856e-09,0.6480756385726978
3.173225837392878e-09,2.355912377591888e-05,3.173225837392878e-09,2.355912377465445e-05,3.173225837392878e-09,2.355912379641859e-05,3.173225837392878e-09,2.973427496297515e-05,3.173225837392878e-09,0.6517921318849323
3.178586859935826e-09,2.355912374019168e-05,3.178586859935826e-09,2.355912377641014e-05,3.178586859935826e-09,2.355912248824332e-05,3.178586859935826e-09,2.973424336512555e-05,3.178586859935826e-09,0.6547704777421255
3.184150334640992e-09,2.355912346574119e-05,3.184150334640992e-09,2.355912377637244e-05,3.184150334640992e-09,2.35591127853566e-05,3.184150334640992e-09,2.973396524764264e-05,3.184150334640992e-09,0.6578612970227731
3.189844895977961e-09,2.355912477298889e-05,3.189844895977961e-09,2.355912380336772e-05,3.189844895977961e-09,2.355914644072195e-05,3.189844895977961e-09,2.973448985094187e-05,3.189844895977961e-09,0.6610249422099783
3.1914404509417e-09,2.35591254731977e-05,3.1914404509417e-09,2.35591238066909e-05,3.1914404509417e-09,2.355916925696392e-05,3.1914404509417e-09,2.97350173373434e-05,3.1914404509417e-09,0.661911361634278
3.19463156086918e-09,2.355912520501118e-05,3.19463156086918e-09,2.355912376296473e-05,3.19463156086918e-09,2.355918736504721e-05,3.19463156086918e-09,2.973611807832109e-05,3.19463156086918e-09,0.6636842004828775
3.199826412451504e-09,2.355912879470935e-05,3.199826412451504e-09,2.355912383397802e-05,3.199826412451504e-09,2.35593279382038e-05,3.199826412451504e-09,2.974115112071643e-05,3.199826412451504e-09,0.6665702291397246
3.20411567911467e-09,2.355910552428377e-05,3.20411567911467e-09,2.355912332427825e-05,3.20411567911467e-09,2.355875567486425e-05,3.20411567911467e-09,2.973336030706446e-05,3.20411567911467e-09,0.6689531550637057
3.20607629117518e-09,2.355909256163608e-05,3.20607629117518e-09,2.355912333799394e-05,3.20607629117518e-09,2.355829318526147e-05,3.20607629117518e-09,2.972218912611397e-05,3.20607629117518e-09,0.6700423839862109
3.209997515296198e-09,2.355913237145042e-05,3.209997515296198e-09,2.355912452977909e-05,3.209997515296198e-09,2.355786222871494e-05,3.209997515296198e-09,2.969711303425085e-05,3.209997515296198e-09,0.6722208418312211
3.214666362890796e-09,2.355914812477273e-05,3.214666362890796e-09,2.3559123318177e-05,3.214666362890796e-09,2.35553613296992e-05,3.214666362890796e-09,2.961357526292377e-05,3.214666362890796e-09,0.6748146460504421
3.219014508705975e-09,2.35590348189716e-05,3.219014508705975e-09,2.355912559484037e-05,3.219014508705975e-09,2.356331581449155e-05,3.219014508705975e-09,2.96944917672757e-05,3.219014508705975e-09,0.6772302826144304
3.223936700370765e-09,2.355924916581618e-05,3.223936700370765e-09,2.355912519965078e-05,3.223936700370765e-09,2.357369537305574e-05,3.223936700370765e-09,3.004039516898073e-05,3.223936700370765e-09,0.6799648335393138
3.228237133604482e-09,2.355927777079087e-05,3.228237133604482e-09,2.355911376225381e-05,3.228237133604482e-09,2.354851344847854e-05,3.228237133604482e-09,2.983506653071898e-05,3.228237133604482e-09,0.6823539631136007
3.234074239773171e-09,2.355891035619122e-05,3.234074239773171e-09,2.355913206476968e-05,3.234074239773171e-09,2.355251676080453e-05,3.234074239773171e-09,2.959515266029371e-05,3.234074239773171e-09,0.6855967998739836
3.23924404496939e-09,2.355914474229481e-05,3.23924404496939e-09,2.35591252807006e-05,3.23924404496939e-09,2.356338306142336e-05,3.23924404496939e-09,2.968964129866436e-05,3.23924404496939e-09,0.6884689138718831
3.240603001588515e-09,2.355926860847886e-05,3.240603001588515e-09,2.355912111406828e-05,3.240603001588515e-09,2.356029214797394e-05,3.240603001588515e-09,2.967583823690216e-05,3.240603001588515e-09,0.6892238897713971
3.243320914826766e-09,2.355942292558261e-05,3.243320914826766e-09,2.355912463305839e-05,3.243320914826766e-09,2.3559913098239e-05,3.243320914826766e-09,2.969820852553256e-05,3.243320914826766e-09,0.6907338415704255
3.246700472704374e-09,2.355949851798663e-05,3.246700472704374e-09,2.35591180459426e-05,3.246700472704374e-09,2.355585662177471e-05,3.246700472704374e-09,2.964692495870554e-05,3.246700472704374e-09,0.692611373724652
3.250186058373799e-09,2.355986488861776e-05,3.250186058373799e-09,2.355912895856435e-05,3.250186058373799e-09,2.355605809766661e-05,3.250186058373799e-09,2.960172784182102e-05,3.250186058373799e-09,0.6945478102076663
3.2535170516776e-09,2.356084640919729e-05,3.2535170516776e-09,2.355913235972567e-05,3.2535170516776e-09,2.355317315524266e-05,3.2535170516776e-09,2.953105075652497e-05,3.2535170516776e-09,0.6963983620431109
3.256524184770444e-09,2.356089492623459e-05,3.256524184770444e-09,2.355912421750423e-05,3.256524184770444e-09,2.35558466607986e-05,3.256524184770444e-09,2.950699414761208e-05,3.256524184770444e-09,0.6980689915391357
3.259513449399972e-09,2.348949205889836e-05,3.259513449399972e-09,2.355862647763366e-05,3.259513449399972e-09,2.356653889547312e-05,3.259513449399972e-09,2.841126637205657e-05,3.259513449399972e-09,0.6997296941110954
3.262203592194315e-09,2.339675401009854e-05,3.262203592194315e-09,2.355842565031696e-05,3.262203592194315e-09,2.357842808348914e-05,3.262203592194315e-09,2.620442522575766e-05,3.262203592194315e-09,0.7012242178857304
3.264973147506851e-09,2.357037047880087e-05,3.264973147506851e-09,2.356051181059837e-05,3.264973147506851e-09,2.358387787264597e-05,3.264973147506851e-09,2.717263103917652e-05,3.264973147506851e-09,0.7027628597260284
3.267433878491699e-09,2.415939793934568e-05,3.267433878491699e-09,2.356403450795587e-05,3.267433878491699e-09,2.357979786164759e-05,3.267433878491699e-09,3.729674557441438e-05,3.267433878491699e-09,0.7041299324953881
3.269671908474526e-09,2.554453484091593e-05,3.269671908474526e-09,2.357046641108317e-05,3.269671908474526e-09,2.357683711915286e-05,3.269671908474526e-09,6.572995071617435e-05,3.269671908474526e-09,0.7053732824858476
3.271493447851983e-09,2.65639330464777e-05,3.271493447851983e-09,2.356912640427248e-05,3.271493447851983e-09,2.357866216459035e-05,3.271493447851983e-09,9.832486891130093e-05,3.271493447851983e-09,0.7063852488066574
3.273754456209853e-09,2.571031865032902e-05,3.273754456209853e-09,2.355023519230158e-05,3.273754456209853e-09,2.355167477117721e-05,3.273754456209853e-09,0.0001155255445405672,3.273754456209853e-09,0.7076413645610293
3.276144186420225e-09,2.29786416518229e-05,3.276144186420225e-09,2.353230490911248e-05,3.276144186420225e-09,2.351412855899508e-05,3.276144186420225e-09,-4.401282626682284e-05,3.276144186420225e-09,0.7089689924556803
3.278797640546572e-09,1.750494539940811e-05,3.278797640546572e-09,2.35332710543114e-05,3.278797640546572e-09,2.350498394959087e-05,3.278797640546572e-09,-0.0007963609393147386,3.278797640546572e-09,0.7104431336369844
3.280940634565959e-09,4.780871929717885e-06,3.280940634565959e-09,2.35595222673873e-05,3.280940634565959e-09,2.353013575930076e-05,3.280940634565959e-09,-0.001456612379834721,3.280940634565959e-09,0.7116336858699772
3.282968059663901e-09,-4.368583735634502e-06,3.282968059663901e-09,2.359281842848532e-05,3.282968059663901e-09,2.356546469072715e-05,3.282968059663901e-09,-0.001432022615215845,3.282968059663901e-09,0.7127600331466117
3.285043143269459e-09,1.544685593741327e-06,3.285043143269459e-09,2.35944719836379e-05,3.285043143269459e-09,2.35612916030332e-05,3.285043143269459e-09,-0.001064367907595687,3.285043143269459e-09,0.7139128573719219
3.287521633944899e-09,1.342009837117558e-05,3.287521633944899e-09,2.358083274537745e-05,3.287521633944899e-09,2.354935893809546e-05,3.287521633944899e-09,-0.0007465795497596231,3.287521633944899e-09,0.7152897966360551
3.289392409460236e-09,2.023453083311246e-05,3.289392409460236e-09,2.357276226109673e-05,3.289392409460236e-09,2.355163999051421e-05,3.289392409460236e-09,-0.0008371681894692461,3.289392409460236e-09,0.716329116366798
3.291285758243706e-09,2.967015965712473e-05,3.291285758243706e-09,2.355893241788145e-05,3.291285758243706e-09,2.355622671702592e-05,3.291285758243706e-09,-0.001333289029991093,3.291285758243706e-09,0.7173809768020588
3.293541239345284e-09,0.0001631271864358251,3.293541239345284e-09,2.359707354012242e-05,3.293541239345284e-09,2.357025675361317e-05,3.293541239345284e-09,-0.00227785681766142,3.293541239345284e-09,0.718634021858491
3.295395849505731e-09,0.0005399660722295058,3.295395849505731e-09,2.35895375340041e-05,3.295395849505731e-09,2.358532079295873e-05,3.295395849505731e-09,-0.002980210033308873,3.295395849505731e-09,0.719664360836517
3.297586958208255e-09,0.00108199189344933,3.297586958208255e-09,2.356084954124354e-05,3.297586958208255e-09,2.358942369267566e-05,3.297586958208255e-09,-0.003541160402398042,3.297586958208255e-09,0.7208816434490305
3.299734593596048e-09,-0.003758403810784781,3.299734593596048e-09,2.347191733544685e-05,3.299734593596048e-09,2.357939000699438e-05,3.299734593596048e-09,-0.003811042465368551,3.299734593596048e-09,0.7220747742200265
3.301746121195804e-09,-0.01298595552803811,3.301746121195804e-09,2.344197607828578e-05,3.301746121195804e-09,2.357790357363816e-05,3.301746121195804e-09,-0.003641078327584337,3.301746121195804e-09,0.7231922895532241
3.303725872103735e-09,-0.01778412625805656,3.303725872103735e-09,2.346665800655989e-05,3.303725872103735e-09,2.35723038350072e-05,3.303725872103735e-09,-0.003003821736032587,3.303725872103735e-09,0.7242921511687415
3.306083059845116e-09,-0.006476804265296236,3.306083059845116e-09,2.351098530492597e-05,3.306083059845116e-09,2.354921889692013e-05,3.306083059845116e-09,-0.002165572489216062,3.306083059845116e-09,0.7256016999139531
3.307741165316023e-09,0.03648640328047222,3.307741165316023e-09,2.356839070131682e-05,3.307741165316023e-09,2.354539723579449e-05,3.307741165316023e-09,-0.001537046437407529,3.307741165316023e-09,0.7265228696200129
3.309611437588687e-09,0.141360026899883,3.309611437588687e-09,2.36270132105254e-05,3.309611437588687e-09,2.356283059660833e-05,3.309611437588687e-09,-0.0004241647466780257,3.309611437588687e-09,0.7275619097714927
3.311717694294128e-09,0.3006292832092606,3.311717694294128e-09,2.363686975269841e-05,3.311717694294128e-09,2.355628400218186e-05,3.311717694294128e-09,0.001056675935348335,3.311717694294128e-09,0.7287320523856265
