/net039 X,/net039 Y,/net010 X,/net010 Y,/net09 X,/net09 Y,/net08 X,/net08 Y,/net02 X,/net02 Y
0,0.001573894768431467,0,0.001573894768355541,0,0.001573893980151827,0,0.0007284943265680787,0,0
1.5e-11,0.001573894768431197,1.5e-11,0.001573894768355773,1.5e-11,0.001573893980151658,1.5e-11,0.0007284943270424525,1.5e-11,0
4.5e-11,0.001573894768431219,4.5e-11,0.001573894768355839,4.5e-11,0.001573893980151926,4.5e-11,0.0007284943267340193,4.5e-11,0
1.05e-10,0.001573894768432988,1.05e-10,0.00157389476835745,1.05e-10,0.001573893980149339,1.05e-10,0.0007284943264810188,1.05e-10,0
2.25e-10,0.001573894768430181,2.25e-10,0.001573894768355697,2.25e-10,0.001573893980152638,2.25e-10,0.0007284943266521644,2.25e-10,0
4.65e-10,0.00157389476843329,4.65e-10,0.001573894768357119,4.65e-10,0.001573893980152531,4.65e-10,0.0007284943265149955,4.65e-10,0
7.649999999999999e-10,0.001573894768429725,7.649999999999999e-10,0.001573894768352967,7.649999999999999e-10,0.001573893980149553,7.649999999999999e-10,0.0007284943266312273,7.649999999999999e-10,0
1.065e-09,0.001573894768433139,1.065e-09,0.001573894768359798,1.065e-09,0.001573893980151617,1.065e-09,0.0007284943265288397,1.065e-09,0
1.365e-09,0.001573894768428966,1.365e-09,0.001573894768349875,1.365e-09,0.001573893980153379,1.365e-09,0.0007284943266153429,1.365e-09,0
1.665e-09,0.001573894768430366,1.665e-09,0.001573894768362376,1.665e-09,0.001573893980152289,1.665e-09,0.0007284943265407537,1.665e-09,0
1.8325e-09,0.001573894768431441,1.8325e-09,0.001573894768346851,1.8325e-09,0.001573893980155958,1.8325e-09,0.0007284943265978439,1.8325e-09,0
2e-09,0.001573894768433242,2e-09,0.001573894768365474,2e-09,0.001573893980146513,2e-09,0.0007284943265585002,2e-09,0
2.120144127384571e-09,0.001573894768431251,2.120144127384571e-09,0.001573894768355713,2.120144127384571e-09,0.001573893980149877,2.120144127384571e-09,0.0007284943268563741,2.120144127384571e-09,0.06674673743587282
2.261585129605973e-09,0.001573894768430051,2.261585129605973e-09,0.001573894768357557,2.261585129605973e-09,0.001573893980147028,2.261585129605973e-09,0.0007284943264298466,2.261585129605973e-09,0.1453250720033182
2.400273538304042e-09,0.001573894768429681,2.400273538304042e-09,0.001573894768351794,2.400273538304042e-09,0.001573893980141736,2.400273538304042e-09,0.0007284943263185145,2.400273538304042e-09,0.2223741879466899
2.452346509924349e-09,0.00157389476843304,2.452346509924349e-09,0.001573894768356619,2.452346509924349e-09,0.001573893980147476,2.452346509924349e-09,0.0007284943280344,2.452346509924349e-09,0.2513036166246385
2.478382995734503e-09,0.001573894768429646,2.478382995734503e-09,0.001573894768355413,2.478382995734503e-09,0.001573893980151966,2.478382995734503e-09,0.0007284943243629094,2.478382995734503e-09,0.2657683309636127
2.53045596735481e-09,0.001573894768432309,2.53045596735481e-09,0.001573894768357055,2.53045596735481e-09,0.00157389398015126,2.53045596735481e-09,0.0007284943287763984,2.53045596735481e-09,0.294697759641561
2.580124926576735e-09,0.001573894768433176,2.580124926576735e-09,0.001573894768355371,2.580124926576735e-09,0.001573893980144539,2.580124926576735e-09,0.0007284943238885944,2.580124926576735e-09,0.3222916258759637
2.617176644423881e-09,0.001573894768429351,2.617176644423881e-09,0.00157389476835438,2.617176644423881e-09,0.001573893980163231,2.617176644423881e-09,0.000728494330740066,2.617176644423881e-09,0.3428759135688229
2.66094297801706e-09,0.001573894768432307,2.66094297801706e-09,0.001573894768355263,2.66094297801706e-09,0.001573893980135199,2.66094297801706e-09,0.0007284943209463173,2.66094297801706e-09,0.3671905433428111
2.693630169189853e-09,0.001573894768429764,2.693630169189853e-09,0.001573894768357461,2.693630169189853e-09,0.00157389398017946,2.693630169189853e-09,0.0007284943337394059,2.693630169189853e-09,0.3853500939943628
2.72465675480375e-09,0.001573894768435093,2.72465675480375e-09,0.00157389476835526,2.72465675480375e-09,0.001573893980107194,2.72465675480375e-09,0.0007284943187423742,2.72465675480375e-09,0.4025870860020832
2.769368442569989e-09,0.001573894768427471,2.769368442569989e-09,0.001573894768357912,2.769368442569989e-09,0.001573893980212614,2.769368442569989e-09,0.0007284943343105043,2.769368442569989e-09,0.4274269125388825
2.806421321686513e-09,0.001573894768436783,2.806421321686513e-09,0.001573894768355118,2.806421321686513e-09,0.001573893980084561,2.806421321686513e-09,0.0007284943194369661,2.806421321686513e-09,0.448011845381396
2.841404939576214e-09,0.001573894768428852,2.841404939576214e-09,0.001573894768357728,2.841404939576214e-09,0.001573893980235588,2.841404939576214e-09,0.000728494332726825,2.841404939576214e-09,0.467447188653452
2.881069705950421e-09,0.001573894768433095,2.881069705950421e-09,0.00157389476835519,2.881069705950421e-09,0.001573893980071131,2.881069705950421e-09,0.0007284943214515529,2.881069705950421e-09,0.4894831699724558
2.912667415906114e-09,0.001573894768429018,2.912667415906114e-09,0.001573894768354475,2.912667415906114e-09,0.001573893980243442,2.912667415906114e-09,0.0007284943303737041,2.912667415906114e-09,0.5070374532811744
2.942750452450951e-09,0.001573894768433062,2.942750452450951e-09,0.001573894768352515,2.942750452450951e-09,0.001573893980076016,2.942750452450951e-09,0.0007284943240819687,2.942750452450951e-09,0.5237502513616394
2.99561107917196e-09,0.001573894768429722,2.99561107917196e-09,0.00157389476835683,2.99561107917196e-09,0.001573893980236821,2.99561107917196e-09,0.000728494328389548,2.99561107917196e-09,0.5531172662066441
3.040266799467731e-09,0.001573894768433321,3.040266799467731e-09,0.00157389476835542,3.040266799467731e-09,0.001573893980087577,3.040266799467731e-09,0.0007284943254731041,3.040266799467731e-09,0.5779259997042949
3.080159194295186e-09,0.001573894768429736,3.080159194295186e-09,0.001573894768353864,3.080159194295186e-09,0.001573893980223645,3.080159194295186e-09,0.0007284943269708493,3.080159194295186e-09,0.600088441275103
3.089064191064034e-09,0.001573894768432439,3.089064191064034e-09,0.001573894768357245,3.089064191064034e-09,0.001573893980133536,3.089064191064034e-09,0.0007284943281739873,3.089064191064034e-09,0.6050356617022411
3.106874184601732e-09,0.00157389476843315,3.106874184601732e-09,0.001573894768358082,3.106874184601732e-09,0.00157389398017114,3.106874184601732e-09,0.0007284943245376515,3.106874184601732e-09,0.6149301025565175
3.131662636220255e-09,0.001573894768427305,3.131662636220255e-09,0.001573894768351829,3.131662636220255e-09,0.001573893980157038,3.131662636220255e-09,0.0007284943287689758,3.131662636220255e-09,0.6287014645668081
3.137119807143493e-09,0.00157389476842955,3.137119807143493e-09,0.001573894768353632,3.137119807143493e-09,0.00157389398008321,3.137119807143493e-09,0.0007284943214530657,3.137119807143493e-09,0.6317332261908295
3.148034148989971e-09,0.001573894768434489,3.148034148989971e-09,0.001573894768357666,3.148034148989971e-09,0.001573893980327749,3.148034148989971e-09,0.0007284943331112965,3.148034148989971e-09,0.6377967494388727
3.165042108587503e-09,0.001573894768426448,3.165042108587503e-09,0.001573894768355143,3.165042108587503e-09,0.001573893979985284,3.165042108587503e-09,0.0007284943533574543,3.165042108587503e-09,0.647245615881946
3.180136554466393e-09,0.001573894768436506,3.180136554466393e-09,0.001573894768354773,3.180136554466393e-09,0.001573893978064932,3.180136554466393e-09,0.0007284937892510689,3.180136554466393e-09,0.6556314191479958
3.194090855064517e-09,0.00157389476840462,3.194090855064517e-09,0.001573894768357511,3.194090855064517e-09,0.001573893959711202,3.194090855064517e-09,0.0007284859736275738,3.194090855064517e-09,0.6633838083691759
3.207702406144862e-09,0.001573894768831476,3.207702406144862e-09,0.001573894768357616,3.207702406144862e-09,0.001573894259809322,3.207702406144862e-09,0.0007285141188746442,3.207702406144862e-09,0.67094578119159
3.219885396920493e-09,0.00157389476742975,3.219885396920493e-09,0.001573894768294673,3.219885396920493e-09,0.001573893465234782,3.219885396920493e-09,0.0007285370748587462,3.219885396920493e-09,0.6777141094002737
3.22264450569985e-09,0.001573894762507011,3.22264450569985e-09,0.001573894767915958,3.22264450569985e-09,0.001573891708401627,3.22264450569985e-09,0.0007284918238697385,3.22264450569985e-09,0.6792469476110277
3.228162723258565e-09,0.001573894754452438,3.228162723258565e-09,0.001573894769380706,3.228162723258565e-09,0.001573893606116011,3.228162723258565e-09,0.0007284346052439111,3.228162723258565e-09,0.6823126240325358
3.237936995867326e-09,0.001573894794328076,3.237936995867326e-09,0.001573894767709822,3.237936995867326e-09,0.00157389610376495,3.237936995867326e-09,0.000728471000824361,3.237936995867326e-09,0.6877427754818478
3.248440106696351e-09,0.001573894786879671,3.248440106696351e-09,0.001573894768057924,3.248440106696351e-09,0.001573893904148184,3.248440106696351e-09,0.0007284987890989804,3.248440106696351e-09,0.6935778370535283
3.25739674752888e-09,0.001573894731209142,3.25739674752888e-09,0.001573894768945697,3.25739674752888e-09,0.001573893859134234,3.25739674752888e-09,0.0007285074943139272,3.25739674752888e-09,0.6985537486271555
3.265310573814615e-09,0.001573894727339718,3.265310573814615e-09,0.001573894768038648,3.265310573814615e-09,0.001573893533783427,3.265310573814615e-09,0.0007285012748641821,3.265310573814615e-09,0.702950318785897
3.273109510712424e-09,0.001573894738140134,3.273109510712424e-09,0.001573894768717022,3.273109510712424e-09,0.001573893523252578,3.273109510712424e-09,0.0007284785723783877,3.273109510712424e-09,0.7072830615069023
3.279165202087566e-09,0.001573894607382119,3.279165202087566e-09,0.001573894767497547,3.279165202087566e-09,0.001573892985274593,3.279165202087566e-09,0.0007284011058302963,3.279165202087566e-09,0.710647334493092
3.28401499803054e-09,0.001573893905222463,3.28401499803054e-09,0.001573894765482746,3.28401499803054e-09,0.00157389442120646,3.28401499803054e-09,0.0007283094361119799,3.28401499803054e-09,0.713341665572522
3.288166465651065e-09,0.001573895931922786,3.288166465651065e-09,0.001573894780011246,3.288166465651065e-09,0.001573897956840402,3.288166465651065e-09,0.00072839248066366,3.288166465651065e-09,0.7156480364728138
3.292757469289365e-09,0.001573934320683195,3.292757469289365e-09,0.001573894962425923,3.292757469289365e-09,0.00157389953618151,3.292757469289365e-09,0.0007302017709911526,3.292757469289365e-09,0.718198594049647
3.296371940504553e-09,0.001574047598311438,3.296371940504553e-09,0.001573895419713579,3.296371940504553e-09,0.001573896161339665,3.296371940504553e-09,0.0007361462425293634,3.296371940504553e-09,0.7202066336136403
3.300346020112787e-09,0.001574075603101174,3.300346020112787e-09,0.001573894746433196,3.300346020112787e-09,0.001573889862179586,3.300346020112787e-09,0.0007438936478463342,3.300346020112787e-09,0.722414455618215
3.302823795908802e-09,0.001573814424942261,3.302823795908802e-09,0.00157389266260208,3.302823795908802e-09,0.001573883047800207,3.302823795908802e-09,0.0007377976117245998,3.302823795908802e-09,0.7237909977271121
3.305454694389915e-09,0.001573431412140892,3.305454694389915e-09,0.001573892054353556,3.305454694389915e-09,0.001573883669443167,3.305454694389915e-09,0.0007004493647435259,3.305454694389915e-09,0.7252526079943972
3.307984297916606e-09,0.00157325268599387,3.307984297916606e-09,0.001573893887451318,3.307984297916606e-09,0.00157388571227671,3.307984297916606e-09,0.0006131945572464517,3.307984297916606e-09,0.7266579432870035
3.311481953669225e-09,0.001572946011893039,3.311481953669225e-09,0.001573897341745445,3.311481953669225e-09,0.001573880651566815,3.311481953669225e-09,0.0003567485003408813,3.311481953669225e-09,0.7286010853717917
3.31524191095662e-09,0.001571523454188313,3.31524191095662e-09,0.001573899075518595,3.31524191095662e-09,0.0015738853667259,3.31524191095662e-09,1.113176622744274e-05,3.31524191095662e-09,0.7306899505314556
3.318897969698024e-09,0.001571409413340993,3.318897969698024e-09,0.001573895854094727,3.318897969698024e-09,0.001573898800170263,3.318897969698024e-09,-8.054650522563127e-05,3.318897969698024e-09,0.7327210942766799
3.321921739023033e-09,0.001575426070742119,3.321921739023033e-09,0.001573887812679436,3.321921739023033e-09,0.001573904305645985,3.321921739023033e-09,6.243836017639103e-05,3.321921739023033e-09,0.734400966123907
3.324824859227293e-09,0.00158343284354307,3.324824859227293e-09,0.001573888700028305,3.324824859227293e-09,0.001573905662821814,3.324824859227293e-09,0.0002807402449245139,3.324824859227293e-09,0.7360138106818295
3.328022723707969e-09,0.001594395456558871,3.328022723707969e-09,0.001573896060712225,3.328022723707969e-09,0.001573906474438954,3.328022723707969e-09,0.0004699648291841881,3.328022723707969e-09,0.7377904020599827
3.331159187316853e-09,0.001602915919300233,3.331159187316853e-09,0.00157390492025148,3.331159187316853e-09,0.001573905839678488,3.331159187316853e-09,0.0003923222779981918,3.331159187316853e-09,0.7395328818426963
3.333846123101979e-09,0.001606278344821332,3.333846123101979e-09,0.001573904859207225,3.333846123101979e-09,0.001573906409785336,3.333846123101979e-09,-1.140773036568824e-05,3.333846123101979e-09,0.7410256239455439
3.336736606385583e-09,0.001595638995431842,3.336736606385583e-09,0.001573891460198958,3.336736606385583e-09,0.001573906593539908,3.336736606385583e-09,-0.000772715078329105,3.336736606385583e-09,0.7426314479919907
3.340404212455244e-09,0.001189779875111613,3.340404212455244e-09,0.001573873974935637,3.340404212455244e-09,0.001573905758749244,3.340404212455244e-09,-0.001730848791904204,3.340404212455244e-09,0.7446690069195798
3.343369475326144e-09,-0.000609848971522107,3.343369475326144e-09,0.001573869571804791,3.343369475326144e-09,0.001573897862395307,3.343369475326144e-09,-0.002240108469575557,3.343369475326144e-09,0.7463163751811912
3.346594097494646e-09,-0.002794289604680261,3.346594097494646e-09,0.001573877992488812,3.346594097494646e-09,0.001573888099290849,3.346594097494646e-09,-0.00236019148554784,3.346594097494646e-09,0.7481078319414701
3.349836382297022e-09,0.007726467922272423,3.349836382297022e-09,0.001573901659713025,3.349836382297022e-09,0.001573882569687046,3.349836382297022e-09,-0.001898120798245714,3.349836382297022e-09,0.7499091012761235
3.352826844123966e-09,0.04620584850355655,3.352826844123966e-09,0.001573927548273123,3.352826844123966e-09,0.001573878382527003,3.352826844123966e-09,-0.001037857291340074,3.352826844123966e-09,0.751570468957759
3.355790831687782e-09,0.1174421260784948,3.355790831687782e-09,0.001573936156913151,3.355790831687782e-09,0.001573873718623402,3.355790831687782e-09,-0.0004286348754104759,3.355790831687782e-09,0.7532171287154344
3.358136684202587e-09,0.1905707897460596,3.358136684202587e-09,0.001573944738671383,3.358136684202587e-09,0.001573886036076396,3.358136684202587e-09,3.770230559470918e-05,3.358136684202587e-09,0.7545203801125483
3.360946456532851e-09,0.2939004061119591,3.360946456532851e-09,0.001573939446142216,3.360946456532851e-09,0.00157389796159478,3.360946456532851e-09,0.0009536282371633448,3.360946456532851e-09,0.7560813647404727
3.364010766775046e-09,0.4216504992981048,3.364010766775046e-09,0.00157390633274893,3.364010766775046e-09,0.001573889787687157,3.364010766775046e-09,0.001977186421386355,3.364010766775046e-09,0.75778375931947
3.368170538705023e-09,0.5929350663054191,3.368170538705023e-09,0.001573879927774911,3.368170538705023e-09,0.001573891920791763,3.368170538705023e-09,0.002952727460310112,3.368170538705023e-09,0.760094743725013
3.371159150775024e-09,0.6931135463793923,3.371159150775024e-09,0.001573874375878023,3.371159150775024e-09,0.001573896655812823,3.371159150775024e-09,0.003219389627411374,3.371159150775024e-09,0.7617550837639021
3.374028862765296e-09,0.7647226150175767,3.374028862765296e-09,0.001573874908854751,3.374028862765296e-09,0.001573901745235844,3.374028862765296e-09,0.003210202499229663,3.374028862765296e-09,0.7633493682029423
3.376835673892884e-09,0.8403220462579692,3.376835673892884e-09,0.001573874800031059,3.376835673892884e-09,0.001573901870446141,3.376835673892884e-09,0.00302330281995278,3.376835673892884e-09,0.7649087077182689
3.379488119359658e-09,0.9815310947139512,3.379488119359658e-09,0.001573873505392335,3.379488119359658e-09,0.001573899821211633,3.379488119359658e-09,0.002760831873357854,3.379488119359658e-09,0.7663822885331432
3.382273953692855e-09,1.325729352080239,3.382273953692855e-09,0.001573872771781353,3.382273953692855e-09,0.001573896572155237,3.382273953692855e-09,0.002449427612129231,3.382273953692855e-09,0.7679299742738083
3.38449381339876e-09,1.832644998525227,3.38449381339876e-09,0.00157387209120264,3.38449381339876e-09,0.001573894024452374,3.38449381339876e-09,0.00222275839108649,3.38449381339876e-09,0.7691632296659776
3.386729709077825e-09,2.535498734242569,3.386729709077825e-09,0.001573872209388874,3.386729709077825e-09,0.001573891479247948,3.386729709077825e-09,0.002013699324192314,3.386729709077825e-09,0.7704053939321251
3.388249468994375e-09,3.060087933893646,3.388249468994375e-09,0.001573872171963447,3.388249468994375e-09,0.001573889993635276,3.388249468994375e-09,0.001888890823454965,3.388249468994375e-09,0.7712497049968748
3.390108209690216e-09,3.645455772811924,3.390108209690216e-09,0.001573873499946732,3.390108209690216e-09,0.001573889045778162,3.390108209690216e-09,0.001745255341836453,3.390108209690216e-09,0.7722823387167863
3.391682153055346e-09,4.024769610539547,3.391682153055346e-09,0.001573874506153156,3.391682153055346e-09,0.001573888450973892,3.391682153055346e-09,0.001636213121627117,3.391682153055346e-09,0.7731567516974143
3.393359233112706e-09,4.312382017706612,3.393359233112706e-09,0.001573876659985035,3.393359233112706e-09,0.001573888617633364,3.393359233112706e-09,0.001528596605681907,3.393359233112706e-09,0.7740884628403925
3.395400828604192e-09,4.553332219632733,3.395400828604192e-09,0.001573878916484173,3.395400828604192e-09,0.001573888775532095,3.395400828604192e-09,0.001412793601834133,3.395400828604192e-09,0.7752226825578845
3.397456613856083e-09,4.711409889186401,3.397456613856083e-09,0.001573881871155098,3.397456613856083e-09,0.001573889529222966,3.397456613856083e-09,0.001310427267425579,3.397456613856083e-09,0.7763647854756017
3.399965450695156e-09,4.831681908340843,3.399965450695156e-09,0.001573884870552719,3.399965450695156e-09,0.001573890188957618,3.399965450695156e-09,0.001204950634407065,3.399965450695156e-09,0.7777585837195311
3.402729171893684e-09,4.906230287752153,3.402729171893684e-09,0.001573888350802707,3.402729171893684e-09,0.001573891225262846,3.402729171893684e-09,0.001108493554083677,3.402729171893684e-09,0.77929398438538
3.406073213444047e-09,4.952420506785236,3.406073213444047e-09,0.001573891680019349,3.406073213444047e-09,0.001573892092970277,3.406073213444047e-09,0.001015753828525252,3.406073213444047e-09,0.7811517852466927
3.409884945875896e-09,4.975632416027556,3.409884945875896e-09,0.001573895104691417,3.409884945875896e-09,0.001573893136491976,3.409884945875896e-09,0.0009349769833966589,3.409884945875896e-09,0.783269414375498
3.414680348968094e-09,4.987196254412765,3.414680348968094e-09,0.001573898003174671,3.414680348968094e-09,0.001573893814630412,3.414680348968094e-09,0.0008629582123542588,3.414680348968094e-09,0.7859335272044966
3.420671291683035e-09,4.991832501798417,3.420671291683035e-09,0.001573900550313806,3.420671291683035e-09,0.001573894445646413,3.420671291683035e-09,0.0008054504604272874,3.420671291683035e-09,0.7892618287127973
3.429273574327615e-09,4.993722055109735,3.429273574327615e-09,0.001573902090873382,3.429273574327615e-09,0.001573894575933618,3.429273574327615e-09,0.0007614774656597581,3.429273574327615e-09,0.7940408746264526
3.44159755626918e-09,4.994292847412739,3.44159755626918e-09,0.001573902637918444,3.44159755626918e-09,0.001573894618415073,3.44159755626918e-09,0.000736683360992119,3.44159755626918e-09,0.8008875312606554
