/net039 X,/net039 Y,/net010 X,/net010 Y,/net09 X,/net09 Y,/net08 X,/net08 Y,/net02 X,/net02 Y
0,0.001999470686759535,0,0.00199947068661477,0,0.001999468627762712,0,0.0008807872424058792,0,0
1.5e-11,0.001999470686759364,1.5e-11,0.00199947068661501,1.5e-11,0.001999468627762407,1.5e-11,0.0008807872424160417,1.5e-11,0
4.5e-11,0.001999470686759248,4.5e-11,0.001999470686614875,4.5e-11,0.001999468627762595,4.5e-11,0.0008807872424092707,4.5e-11,0
1.05e-10,0.001999470686758533,1.05e-10,0.001999470686612951,1.05e-10,0.001999468627762041,1.05e-10,0.0008807872424042776,1.05e-10,0
2.25e-10,0.001999470686757402,2.25e-10,0.001999470686618939,2.25e-10,0.001999468627763581,2.25e-10,0.000880787242407552,2.25e-10,0
4.65e-10,0.001999470686761444,4.65e-10,0.00199947068661298,4.65e-10,0.001999468627762023,4.65e-10,0.0008807872424048388,4.65e-10,0
7.649999999999999e-10,0.001999470686754779,7.649999999999999e-10,0.001999470686615744,7.649999999999999e-10,0.001999468627763611,7.649999999999999e-10,0.0008807872424072658,7.649999999999999e-10,0
1.065e-09,0.001999470686764484,1.065e-09,0.001999470686612154,1.065e-09,0.001999468627762249,1.065e-09,0.0008807872424050313,1.065e-09,0
1.365e-09,0.001999470686752793,1.365e-09,0.001999470686619975,1.365e-09,0.001999468627762824,1.365e-09,0.0008807872424069509,1.365e-09,0
1.665e-09,0.001999470686767328,1.665e-09,0.001999470686609906,1.665e-09,0.001999468627764288,1.665e-09,0.0008807872424051358,1.665e-09,0
1.8325e-09,0.001999470686752385,1.8325e-09,0.001999470686619206,1.8325e-09,0.001999468627763322,1.8325e-09,0.0008807872424067576,1.8325e-09,0
2e-09,0.001999470686766603,2e-09,0.001999470686609894,2e-09,0.00199946862776098,2e-09,0.0008807872424050848,2e-09,0
2.120144127384571e-09,0.00199947068675935,2.120144127384571e-09,0.001999470686614671,2.120144127384571e-09,0.001999468627757671,2.120144127384571e-09,0.0008807872428163742,2.120144127384571e-09,0.06674673743587282
2.261585129605973e-09,0.001999470686759042,2.261585129605973e-09,0.001999470686616144,2.261585129605973e-09,0.001999468627747442,2.261585129605973e-09,0.0008807872421126196,2.261585129605973e-09,0.1453250720033182
2.400273538304042e-09,0.001999470686758292,2.400273538304042e-09,0.001999470686613204,2.400273538304042e-09,0.001999468627749223,2.400273538304042e-09,0.0008807872423038393,2.400273538304042e-09,0.2223741879466899
2.45236798632897e-09,0.001999470686757834,2.45236798632897e-09,0.001999470686615617,2.45236798632897e-09,0.001999468627759112,2.45236798632897e-09,0.0008807872440764808,2.45236798632897e-09,0.2513155479605387
2.478415210341433e-09,0.001999470686758414,2.478415210341433e-09,0.001999470686613676,2.478415210341433e-09,0.001999468627770973,2.478415210341433e-09,0.0008807872394675883,2.478415210341433e-09,0.265786227967463
2.530509658366361e-09,0.001999470686758335,2.530509658366361e-09,0.001999470686615626,2.530509658366361e-09,0.001999468627764614,2.530509658366361e-09,0.0008807872454470502,2.530509658366361e-09,0.2947275879813115
2.577398929684966e-09,0.001999470686761043,2.577398929684966e-09,0.001999470686613658,2.577398929684966e-09,0.001999468627757581,2.577398929684966e-09,0.0008807872388039054,2.577398929684966e-09,0.3207771831583144
2.615978417091586e-09,0.001999470686755855,2.615978417091586e-09,0.001999470686618167,2.615978417091586e-09,0.001999468627784438,2.615978417091586e-09,0.0008807872476072178,2.615978417091586e-09,0.3422102317175476
2.648984198358243e-09,0.001999470686760019,2.648984198358243e-09,0.00199947068661114,2.648984198358243e-09,0.001999468627749195,2.648984198358243e-09,0.0008807872351718207,2.648984198358243e-09,0.3605467768656904
2.683430484655459e-09,0.001999470686759001,2.683430484655459e-09,0.001999470686620106,2.683430484655459e-09,0.00199946862781084,2.683430484655459e-09,0.0008807872510919853,2.683430484655459e-09,0.3796836025863661
2.713740039148556e-09,0.00199947068676091,2.713740039148556e-09,0.00199947068660945,2.713740039148556e-09,0.001999468627717875,2.713740039148556e-09,0.0008807872332404081,2.713740039148556e-09,0.39652224397142
2.756273330052097e-09,0.00199947068676212,2.756273330052097e-09,0.001999470686619025,2.756273330052097e-09,0.00199946862784799,2.756273330052097e-09,0.000880787251292769,2.756273330052097e-09,0.4201518500289427
2.799681945925915e-09,0.001999470686754803,2.799681945925915e-09,0.001999470686610324,2.799681945925915e-09,0.001999468627695692,2.799681945925915e-09,0.0008807872342393618,2.799681945925915e-09,0.4442677477366195
2.835470813555009e-09,0.001999470686763866,2.835470813555009e-09,0.001999470686618972,2.835470813555009e-09,0.001999468627876741,2.835470813555009e-09,0.0008807872494221492,2.835470813555009e-09,0.4641504519750049
2.872772943549902e-09,0.001999470686753267,2.872772943549902e-09,0.001999470686613462,2.872772943549902e-09,0.001999468627678628,2.872772943549902e-09,0.0008807872366935757,2.872772943549902e-09,0.4848738575277233
2.910138797118981e-09,0.001999470686762957,2.910138797118981e-09,0.001999470686615693,2.910138797118981e-09,0.001999468627888446,2.910138797118981e-09,0.0008807872468230006,2.910138797118981e-09,0.5056326650661004
2.939180732015219e-09,0.001999470686756806,2.939180732015219e-09,0.001999470686613122,2.939180732015219e-09,0.001999468627683849,2.939180732015219e-09,0.0008807872395762587,2.939180732015219e-09,0.5217670733417882
2.982850696520722e-09,0.001999470686760217,2.982850696520722e-09,0.001999470686616142,2.982850696520722e-09,0.001999468627883061,2.982850696520722e-09,0.0008807872443009534,2.982850696520722e-09,0.5460281647337342
3.031455179852155e-09,0.001999470686759643,3.031455179852155e-09,0.001999470686615745,3.031455179852155e-09,0.001999468627698269,3.031455179852155e-09,0.0008807872412691313,3.031455179852155e-09,0.5730306554734194
3.070271646525703e-09,0.00199947068675699,3.070271646525703e-09,0.001999470686616255,3.070271646525703e-09,0.001999468627870423,3.070271646525703e-09,0.0008807872427176303,3.070271646525703e-09,0.5945953591809462
3.079949352084003e-09,0.001999470686760685,3.079949352084003e-09,0.001999470686612824,3.079949352084003e-09,0.001999468627749544,3.079949352084003e-09,0.0008807872442570142,3.079949352084003e-09,0.5999718622688905
3.099304763200602e-09,0.001999470686758628,3.099304763200602e-09,0.001999470686615888,3.099304763200602e-09,0.001999468627816834,3.099304763200602e-09,0.0008807872400422793,3.099304763200602e-09,0.6107248684447791
3.125929133274621e-09,0.001999470686760883,3.125929133274621e-09,0.001999470686612914,3.125929133274621e-09,0.001999468627778304,3.125929133274621e-09,0.0008807872449772703,3.125929133274621e-09,0.6255161851525673
3.132174300502413e-09,0.001999470686759694,3.132174300502413e-09,0.001999470686615401,3.132174300502413e-09,0.001999468627756781,3.132174300502413e-09,0.0008807872382263032,3.132174300502413e-09,0.6289857225013405
3.144664634957996e-09,0.001999470686758817,3.144664634957996e-09,0.001999470686613593,3.144664634957996e-09,0.001999468627876843,3.144664634957996e-09,0.0008807872487943987,3.144664634957996e-09,0.6359247971988868
3.149445044601404e-09,0.001999470686762097,3.149445044601404e-09,0.001999470686615129,3.149445044601404e-09,0.001999468628026095,3.149445044601404e-09,0.0008807872613777472,3.149445044601404e-09,0.6385805803341134
3.15900586388822e-09,0.001999470686748678,3.15900586388822e-09,0.001999470686618541,3.15900586388822e-09,0.00199946862736368,3.15900586388822e-09,0.0008807872876860796,3.15900586388822e-09,0.6438921466045666
3.174236646450193e-09,0.001999470686773575,3.174236646450193e-09,0.001999470686612193,3.174236646450193e-09,0.001999468627099685,3.174236646450193e-09,0.0008807869634324745,3.174236646450193e-09,0.6523536924723297
3.187804855573327e-09,0.001999470686761295,3.187804855573327e-09,0.001999470686616719,3.187804855573327e-09,0.001999468625749074,3.187804855573327e-09,0.0008807834489374026,3.187804855573327e-09,0.6598915864296261
3.203363130916864e-09,0.001999470686726184,3.203363130916864e-09,0.001999470686612298,3.203363130916864e-09,0.001999468691010956,3.203363130916864e-09,0.0008807929126905888,3.203363130916864e-09,0.668535072731591
3.216775946852695e-09,0.001999470686621358,3.216775946852695e-09,0.001999470686608011,3.216775946852695e-09,0.001999468471349586,3.216775946852695e-09,0.0008808260549245982,3.216775946852695e-09,0.6759866371403862
3.2292574122153e-09,0.001999470686021874,3.2292574122153e-09,0.00199947068666385,3.2292574122153e-09,0.001999467769127919,3.2292574122153e-09,0.0008807475496826256,3.2292574122153e-09,0.6829207845640558
3.232716975747515e-09,0.001999470680844176,3.232716975747515e-09,0.001999470687019808,3.232716975747515e-09,0.001999469106465108,3.232716975747515e-09,0.00088072511051899,3.232716975747515e-09,0.6848427643041751
3.239636102811944e-09,0.001999470709278623,3.239636102811944e-09,0.001999470686297493,3.239636102811944e-09,0.001999470805075778,3.239636102811944e-09,0.0008807677718150685,3.239636102811944e-09,0.6886867237844135
3.249161833290517e-09,0.00199947068907856,3.249161833290517e-09,0.00199947068614557,3.249161833290517e-09,0.001999468347229613,3.249161833290517e-09,0.0008807995234561619,3.249161833290517e-09,0.6939787962725095
3.257604991587418e-09,0.001999470630004442,3.257604991587418e-09,0.00199947068729576,3.257604991587418e-09,0.001999468193191163,3.257604991587418e-09,0.000880796524081386,3.257604991587418e-09,0.6986694397707878
3.265415975584378e-09,0.001999470664306132,3.265415975584378e-09,0.001999470686544739,3.265415975584378e-09,0.001999468285556513,3.265415975584378e-09,0.0008807968195487086,3.265415975584378e-09,0.7030088753246544
3.273130154921536e-09,0.001999470695447158,3.273130154921536e-09,0.001999470686682646,3.273130154921536e-09,0.001999468064443219,3.273130154921536e-09,0.0008807751987783515,3.273130154921536e-09,0.7072945305119646
3.279173615494943e-09,0.001999470660992551,3.279173615494943e-09,0.001999470686419826,3.279173615494943e-09,0.001999467983861909,3.279173615494943e-09,0.0008807170714289241,3.279173615494943e-09,0.7106520086083015
3.284160712422921e-09,0.001999470306764826,3.284160712422921e-09,0.001999470685084473,3.284160712422921e-09,0.001999468985037846,3.284160712422921e-09,0.000880642380620346,3.284160712422921e-09,0.7134226180127338
3.28831809840558e-09,0.001999471049566844,3.28831809840558e-09,0.001999470691007726,3.28831809840558e-09,0.001999471846202768,3.28831809840558e-09,0.0008806897205369008,3.28831809840558e-09,0.7157322768919889
3.292724431057566e-09,0.001999491775879648,3.292724431057566e-09,0.001999470791369082,3.292724431057566e-09,0.001999472956237488,3.292724431057566e-09,0.0008818096082282758,3.292724431057566e-09,0.7181802394764255
3.296330496233646e-09,0.001999563593093158,3.296330496233646e-09,0.00199947109050444,3.296330496233646e-09,0.001999469671926425,3.296330496233646e-09,0.0008860430169624829,3.296330496233646e-09,0.7201836090186921
3.300213244202215e-09,0.001999597720427564,3.300213244202215e-09,0.001999470800855697,3.300213244202215e-09,0.001999463498029029,3.300213244202215e-09,0.0008935520477682602,3.300213244202215e-09,0.7223406912234529
3.302835923458553e-09,0.00199943163289482,3.302835923458553e-09,0.001999469312826401,3.302835923458553e-09,0.001999457788632452,3.302835923458553e-09,0.0008921341553190929,3.302835923458553e-09,0.7237977352547518
3.305595391922267e-09,0.001999097560572132,3.305595391922267e-09,0.001999468484899887,3.305595391922267e-09,0.001999457254516978,3.305595391922267e-09,0.0008666506293007154,3.305595391922267e-09,0.7253307732901485
3.308018068535938e-09,0.001998937907156931,3.308018068535938e-09,0.001999469740744861,3.308018068535938e-09,0.001999461010884348,3.308018068535938e-09,0.0008067655721906747,3.308018068535938e-09,0.7266767047421875
3.311318984090502e-09,0.001998858475687839,3.311318984090502e-09,0.001999472480024666,3.311318984090502e-09,0.001999459313472757,3.311318984090502e-09,0.0006242753873010356,3.311318984090502e-09,0.7285105467169453
3.314879536640212e-09,0.001998158106163631,3.314879536640212e-09,0.001999474096792533,3.314879536640212e-09,0.00199946094928002,3.314879536640212e-09,0.0003030822148438491,3.314879536640212e-09,0.7304886314667842
3.318936203367291e-09,0.001997694213252398,3.318936203367291e-09,0.0019994722322541,3.318936203367291e-09,0.001999475536136197,3.318936203367291e-09,0.0001022452563727709,3.318936203367291e-09,0.7327423352040504
3.321981449577334e-09,0.002000441833595036,3.321981449577334e-09,0.001999466003663203,3.321981449577334e-09,0.00199948241067407,3.321981449577334e-09,0.0001842066806567318,3.321981449577334e-09,0.7344341386540746
3.324909536214679e-09,0.002006679988510017,3.324909536214679e-09,0.001999464540173701,3.324909536214679e-09,0.001999483540116287,3.324909536214679e-09,0.000378693359046702,3.324909536214679e-09,0.7360608534525994
3.327927954484238e-09,0.002014637205708927,3.327927954484238e-09,0.001999470558950225,3.327927954484238e-09,0.001999483293026895,3.327927954484238e-09,0.0005780429309003046,3.327927954484238e-09,0.7377377524912435
3.33136413935875e-09,0.002020335505495214,3.33136413935875e-09,0.001999478499115963,3.33136413935875e-09,0.001999481736303018,3.33136413935875e-09,0.000567849430853832,3.33136413935875e-09,0.7396467440881945
3.334162343744576e-09,0.002020420739038536,3.334162343744576e-09,0.001999479405856603,3.334162343744576e-09,0.001999481088681166,3.334162343744576e-09,0.0002206792469630313,3.334162343744576e-09,0.7412013020803198
3.336982217031155e-09,0.002011209174054171,3.336982217031155e-09,0.001999468756154892,3.336982217031155e-09,0.00199948003757174,3.336982217031155e-09,-0.0004601724614432128,3.336982217031155e-09,0.7427678983506417
3.340752032510352e-09,0.001741852642229253,3.340752032510352e-09,0.001999452327018033,3.340752032510352e-09,0.00199947713988337,3.340752032510352e-09,-0.001448923950398963,3.340752032510352e-09,0.7448622402835285
3.343667346051031e-09,0.0004586557983937388,3.343667346051031e-09,0.001999450725574141,3.343667346051031e-09,0.001999469499938491,3.343667346051031e-09,-0.001978119680531462,3.343667346051031e-09,0.7464818589172396
3.346881680646747e-09,-0.001619942606756287,3.346881680646747e-09,0.001999460614214356,3.346881680646747e-09,0.001999459045678321,3.346881680646747e-09,-0.002155804358540835,3.346881680646747e-09,0.7482676003593038
3.350105626803048e-09,0.005684799939505988,3.350105626803048e-09,0.001999482704320852,3.350105626803048e-09,0.001999453709714642,3.350105626803048e-09,-0.001780172360256111,3.350105626803048e-09,0.750058681557249
3.353070546034657e-09,0.03661542791907122,3.353070546034657e-09,0.001999506789229805,3.353070546034657e-09,0.001999451526598136,3.353070546034657e-09,-0.0009400261644295634,3.353070546034657e-09,0.7517058589081426
3.356332520280314e-09,0.1066460872514325,3.356332520280314e-09,0.001999512260828012,3.356332520280314e-09,0.001999447826205931,3.356332520280314e-09,-0.0002468989898725854,3.356332520280314e-09,0.7535180668223967
3.358682866946024e-09,0.1757596976082592,3.358682866946024e-09,0.001999516119739406,3.358682866946024e-09,0.001999460621397688,3.358682866946024e-09,0.0001752685285157619,3.358682866946024e-09,0.7548238149700135
3.361409054800879e-09,0.2717262364932403,3.361409054800879e-09,0.001999508715524542,3.361409054800879e-09,0.001999473664223021,3.361409054800879e-09,0.001017309183705955,3.361409054800879e-09,0.7563383637782662
3.364425932631723e-09,0.3944195809809095,3.364425932631723e-09,0.001999473391341452,3.364425932631723e-09,0.001999465847236404,3.364425932631723e-09,0.002029588930083445,3.364425932631723e-09,0.7580144070176239
3.368518564962057e-09,0.5639809526560549,3.368518564962057e-09,0.001999445687710781,3.368518564962057e-09,0.001999466553621257,3.368518564962057e-09,0.003022324192543438,3.368518564962057e-09,0.7602880916455873
3.371528197855452e-09,0.6691282310491664,3.371528197855452e-09,0.001999441058467919,3.371528197855452e-09,0.001999472140902756,3.371528197855452e-09,0.003323907663591254,3.371528197855452e-09,0.7619601099196956
3.374385476933024e-09,0.7445633703094722,3.374385476933024e-09,0.001999442437008769,3.374385476933024e-09,0.001999476590447288,3.374385476933024e-09,0.003329888263309569,3.374385476933024e-09,0.7635474871850136
3.377169084172063e-09,0.8177881338505587,3.377169084172063e-09,0.001999442918372766,3.377169084172063e-09,0.001999476411895931,3.377169084172063e-09,0.003158490049966823,3.377169084172063e-09,0.7650939356511463
3.380716867486336e-09,1.022306099858382,3.380716867486336e-09,0.001999442195093389,3.380716867486336e-09,0.001999472340648634,3.380716867486336e-09,0.002807853054816211,3.380716867486336e-09,0.7670649263812978
3.383504966830079e-09,1.416665966475409,3.383504966830079e-09,0.001999442244588655,3.383504966830079e-09,0.001999468554532347,3.383504966830079e-09,0.002497889110646556,3.383504966830079e-09,0.7686138704611548
3.385779158119789e-09,1.99128017540033,3.385779158119789e-09,0.00199944284759495,3.385779158119789e-09,0.001999465794591966,3.385779158119789e-09,0.00227255990249948,3.385779158119789e-09,0.7698773100665496
3.388062687524363e-09,2.742796139624022,3.388062687524363e-09,0.001999444075666392,3.388062687524363e-09,0.001999463402015848,3.388062687524363e-09,0.002070398464459807,3.388062687524363e-09,0.7711459375135351
3.389763707078345e-09,3.322138422787257,3.389763707078345e-09,0.001999445441044418,3.389763707078345e-09,0.001999462181737962,3.389763707078345e-09,0.0019377836201099,3.389763707078345e-09,0.7720909483768583
3.391517770534685e-09,3.827591044061952,3.391517770534685e-09,0.001999447836582029,3.391517770534685e-09,0.001999461809844963,3.391517770534685e-09,0.001810614028173029,3.391517770534685e-09,0.773065428074825
3.393077915032966e-09,4.154634694765953,3.393077915032966e-09,0.001999450096664441,3.393077915032966e-09,0.00199946176784784,3.393077915032966e-09,0.0017087890913354,3.393077915032966e-09,0.7739321750183141
3.394964195797777e-09,4.431799730586683,3.394964195797777e-09,0.001999453534381994,3.394964195797777e-09,0.001999462391110067,3.394964195797777e-09,0.001596239203662112,3.394964195797777e-09,0.7749801087765428
3.397117568687595e-09,4.64112411960233,3.397117568687595e-09,0.001999457225428799,3.397117568687595e-09,0.001999463131626653,3.397117568687595e-09,0.001484333839628699,3.397117568687595e-09,0.7761764270486637
3.399334038333752e-09,4.776365470545531,3.399334038333752e-09,0.001999461243954995,3.399334038333752e-09,0.001999464239373304,3.399334038333752e-09,0.001385101657526966,3.399334038333752e-09,0.7774077990743069
3.401954156407464e-09,4.872215761544958,3.401954156407464e-09,0.001999465310207534,3.401954156407464e-09,0.001999465266358927,3.401954156407464e-09,0.001287499833556764,3.401954156407464e-09,0.7788634202263687
3.404887884281087e-09,4.930135789994255,3.404887884281087e-09,0.001999469595045921,3.404887884281087e-09,0.001999466498283245,3.404887884281087e-09,0.001198246366151396,3.404887884281087e-09,0.7804932690450485
3.40848077266834e-09,4.964686765725653,3.40848077266834e-09,0.001999473724467869,3.40848077266834e-09,0.00199946756219902,3.40848077266834e-09,0.001113512469909494,3.40848077266834e-09,0.7824893181490781
3.412634780268315e-09,4.981318176738275,3.412634780268315e-09,0.001999477593242636,3.412634780268315e-09,0.001999468589535324,3.412634780268315e-09,0.001041146487549366,3.412634780268315e-09,0.7847971001490638
3.418020026465827e-09,4.98937304810141,3.418020026465827e-09,0.001999480792642572,3.418020026465827e-09,0.001999469218893115,3.418020026465827e-09,0.0009782930681908875,3.418020026465827e-09,0.7877889035921259
3.424925967349631e-09,4.992310075190596,3.424925967349631e-09,0.001999483204644158,3.424925967349631e-09,0.001999469632040612,3.424925967349631e-09,0.000930809604466396,3.424925967349631e-09,0.7916255374164615
3.435251235129543e-09,4.993581936837947,3.435251235129543e-09,0.001999484190853911,3.435251235129543e-09,0.001999469562530359,3.435251235129543e-09,0.0008977186408924719,3.435251235129543e-09,0.7973617972941908
