/net039 X,/net039 Y,/net010 X,/net010 Y,/net09 X,/net09 Y,/net08 X,/net08 Y,/net02 X,/net02 Y
0,0.002241365202584968,0,0.002241365202390343,0,0.002241361976035672,0,0.000963543438514699,0,0
1.5e-11,0.002241365202584789,1.5e-11,0.002241365202390406,1.5e-11,0.002241361976035809,1.5e-11,0.0009635434385228721,1.5e-11,0
4.5e-11,0.002241365202584623,4.5e-11,0.00224136520239037,4.5e-11,0.002241361976035787,4.5e-11,0.0009635434385116391,4.5e-11,0
1.05e-10,0.002241365202584396,1.05e-10,0.002241365202390272,1.05e-10,0.002241361976035404,1.05e-10,0.0009635434385151319,1.05e-10,0
2.25e-10,0.002241365202583822,2.25e-10,0.002241365202392559,2.25e-10,0.002241361976037609,2.25e-10,0.0009635434385153944,2.25e-10,0
4.65e-10,0.002241365202584051,4.65e-10,0.002241365202388211,4.65e-10,0.002241361976032551,4.65e-10,0.0009635434385135802,4.65e-10,0
7.649999999999999e-10,0.0022413652025837,7.649999999999999e-10,0.002241365202392374,7.649999999999999e-10,0.002241361976038034,7.649999999999999e-10,0.0009635434385160504,7.649999999999999e-10,0
1.065e-09,0.002241365202584937,1.065e-09,0.002241365202391515,1.065e-09,0.002241361976032554,1.065e-09,0.000963543438512947,1.065e-09,0
1.365e-09,0.002241365202584294,1.365e-09,0.002241365202389149,1.365e-09,0.002241361976041001,1.365e-09,0.000963543438516577,1.365e-09,0
1.665e-09,0.002241365202586618,1.665e-09,0.002241365202391029,1.665e-09,0.002241361976029695,1.665e-09,0.0009635434385126992,1.665e-09,0
1.8325e-09,0.00224136520258482,1.8325e-09,0.002241365202387132,1.8325e-09,0.002241361976040647,1.8325e-09,0.0009635434385169662,1.8325e-09,0
2e-09,0.00224136520258654,2e-09,0.002241365202393435,2e-09,0.002241361976029317,2e-09,0.0009635434385122678,2e-09,0
2.120144127384571e-09,0.002241365202584744,2.120144127384571e-09,0.002241365202390524,2.120144127384571e-09,0.002241361976027897,2.120144127384571e-09,0.0009635434389958818,2.120144127384571e-09,0.06674673743587282
2.261585129605973e-09,0.002241365202581424,2.261585129605973e-09,0.002241365202393476,2.261585129605973e-09,0.002241361976012104,2.261585129605973e-09,0.0009635434381349625,2.261585129605973e-09,0.1453250720033182
2.400273538304042e-09,0.002241365202586229,2.400273538304042e-09,0.002241365202387559,2.400273538304042e-09,0.002241361976027069,2.400273538304042e-09,0.0009635434385222567,2.400273538304042e-09,0.2223741879466899
2.452391237061729e-09,0.002241365202582033,2.452391237061729e-09,0.002241365202392255,2.452391237061729e-09,0.002241361976035679,2.452391237061729e-09,0.0009635434402588309,2.452391237061729e-09,0.2513284650342938
2.478450086440572e-09,0.00224136520258621,2.478450086440572e-09,0.002241365202388027,2.478450086440572e-09,0.002241361976055263,2.478450086440572e-09,0.0009635434352225809,2.478450086440572e-09,0.2658056035780957
2.530567785198259e-09,0.002241365202584716,2.530567785198259e-09,0.002241365202394559,2.530567785198259e-09,0.002241361976039092,2.530567785198259e-09,0.0009635434419770426,2.530567785198259e-09,0.2947598806656996
2.576314640567708e-09,0.002241365202583479,2.576314640567708e-09,0.002241365202386422,2.576314640567708e-09,0.002241361976046969,2.576314640567708e-09,0.0009635434344527807,2.576314640567708e-09,0.3201748003153934
2.615928160206416e-09,0.002241365202587524,2.615928160206416e-09,0.002241365202394266,2.615928160206416e-09,0.002241361976062369,2.615928160206416e-09,0.0009635434442298111,2.615928160206416e-09,0.3421823112257866
2.648374814742464e-09,0.002241365202584591,2.648374814742464e-09,0.002241365202389346,2.648374814742464e-09,0.002241361976041822,2.648374814742464e-09,0.0009635434306431977,2.648374814742464e-09,0.3602082304124797
2.683359105293604e-09,0.002241365202584273,2.683359105293604e-09,0.002241365202388314,2.683359105293604e-09,0.002241361976089969,2.683359105293604e-09,0.0009635434479012706,2.683359105293604e-09,0.3796439473853356
2.714201159001327e-09,0.00224136520258619,2.714201159001327e-09,0.002241365202391996,2.714201159001327e-09,0.002241361976009803,2.714201159001327e-09,0.0009635434286318537,2.714201159001327e-09,0.396778421667404
2.758126767768782e-09,0.002241365202584077,2.758126767768782e-09,0.002241365202388763,2.758126767768782e-09,0.002241361976138265,2.758126767768782e-09,0.0009635434481352114,2.758126767768782e-09,0.4211815376493231
2.802026197121732e-09,0.002241365202586541,2.802026197121732e-09,0.002241365202391544,2.802026197121732e-09,0.002241361975981956,2.802026197121732e-09,0.0009635434296402405,2.802026197121732e-09,0.4455701095120732
2.838078020242429e-09,0.002241365202579154,2.838078020242429e-09,0.002241365202388962,2.838078020242429e-09,0.002241361976174157,2.838078020242429e-09,0.0009635434461874569,2.838078020242429e-09,0.4655989001346827
2.876235523157114e-09,0.002241365202587902,2.876235523157114e-09,0.002241365202390919,2.876235523157114e-09,0.002241361975960751,2.876235523157114e-09,0.0009635434322066853,2.876235523157114e-09,0.4867975128650632
2.912087645672783e-09,0.002241365202580428,2.912087645672783e-09,0.002241365202391712,2.912087645672783e-09,0.00224136197619134,2.912087645672783e-09,0.000963543443369763,2.912087645672783e-09,0.5067153587071018
2.941485678059083e-09,0.002241365202589867,2.941485678059083e-09,0.002241365202388414,2.941485678059083e-09,0.002241361975964251,2.941485678059083e-09,0.0009635434353602077,2.941485678059083e-09,0.5230475989217127
2.986868481367975e-09,0.002241365202581492,2.986868481367975e-09,0.00224136520239158,2.986868481367975e-09,0.002241361976189289,2.986868481367975e-09,0.0009635434406859306,2.986868481367975e-09,0.5482602674266526
3.033980165916054e-09,0.002241365202589347,3.033980165916054e-09,0.002241365202390729,3.033980165916054e-09,0.002241361975982667,3.033980165916054e-09,0.0009635434371982261,3.033980165916054e-09,0.5744334255089188
3.072879894483232e-09,0.002241365202581902,3.072879894483232e-09,0.002241365202388961,3.072879894483232e-09,0.002241361976176125,3.072879894483232e-09,0.0009635434389216652,3.072879894483232e-09,0.596044385824018
3.082391504528263e-09,0.002241365202585003,3.082391504528263e-09,0.002241365202391899,3.082391504528263e-09,0.002241361976038814,3.082391504528263e-09,0.0009635434405237869,3.082391504528263e-09,0.6013286136268128
3.101414724618325e-09,0.002241365202585215,3.101414724618325e-09,0.002241365202387741,3.101414724618325e-09,0.002241361976116651,3.101414724618325e-09,0.0009635434359298171,3.101414724618325e-09,0.6118970692324025
3.129656757684192e-09,0.002241365202583015,3.129656757684192e-09,0.002241365202394076,3.129656757684192e-09,0.002241361976073104,3.129656757684192e-09,0.0009635434413087872,3.129656757684192e-09,0.627587087602329
3.135476600568143e-09,0.002241365202585484,3.135476600568143e-09,0.002241365202390252,3.135476600568143e-09,0.002241361976038733,3.135476600568143e-09,0.0009635434331750107,3.135476600568143e-09,0.6308203336489681
3.147116286336043e-09,0.002241365202586396,3.147116286336043e-09,0.002241365202388201,3.147116286336043e-09,0.002241361976222384,3.147116286336043e-09,0.0009635434507011015,3.147116286336043e-09,0.6372868257422462
3.164344477304272e-09,0.002241365202580125,3.164344477304272e-09,0.002241365202390818,3.164344477304272e-09,0.002241361975823304,3.164344477304272e-09,0.0009635434284140183,3.164344477304272e-09,0.6468580429468178
3.18089116678584e-09,0.002241365202591175,3.18089116678584e-09,0.002241365202389164,3.18089116678584e-09,0.002241361976481055,3.18089116678584e-09,0.0009635426824585357,3.18089116678584e-09,0.6560506482143554
3.196184466574925e-09,0.002241365202572708,3.196184466574925e-09,0.0022413652023896,3.196184466574925e-09,0.002241361981234777,3.196184466574925e-09,0.0009635402126598631,3.196184466574925e-09,0.664546925874958
3.210935023320795e-09,0.002241365202589187,3.210935023320795e-09,0.002241365202388047,3.210935023320795e-09,0.002241361998424827,3.210935023320795e-09,0.0009635706060895422,3.210935023320795e-09,0.6727416796226641
3.224689993976185e-09,0.002241365202362352,3.224689993976185e-09,0.002241365202399617,3.224689993976185e-09,0.002241361385907349,3.224689993976185e-09,0.0009635434203384028,3.224689993976185e-09,0.6803833299867696
3.227831167641158e-09,0.00224136519657149,3.227831167641158e-09,0.002241365202388682,3.227831167641158e-09,0.002241361056631292,3.227831167641158e-09,0.0009635005407911716,3.227831167641158e-09,0.68212842646731
3.234113514971103e-09,0.002241365211404632,3.234113514971103e-09,0.002241365202864286,3.234113514971103e-09,0.002241363796068823,3.234113514971103e-09,0.0009634981461152445,3.234113514971103e-09,0.6856186194283908
3.244368810148461e-09,0.002241365213780786,3.244368810148461e-09,0.002241365201427343,3.244368810148461e-09,0.002241362682922873,3.244368810148461e-09,0.0009635498879706842,3.244368810148461e-09,0.6913160056380336
3.254388639111133e-09,0.002241365163258988,3.254388639111133e-09,0.002241365203044768,3.254388639111133e-09,0.002241361272505669,3.254388639111133e-09,0.0009635509446431483,3.254388639111133e-09,0.6968825772839627
3.262395303905947e-09,0.002241365174592714,3.262395303905947e-09,0.002241365202582794,3.262395303905947e-09,0.002241361719553786,3.262395303905947e-09,0.0009635556227470284,3.262395303905947e-09,0.7013307243921927
3.270413441913734e-09,0.002241365219179086,3.270413441913734e-09,0.002241365202227487,3.270413441913734e-09,0.002241361360557278,3.270413441913734e-09,0.0009635419796288938,3.270413441913734e-09,0.7057852455076298
3.277442403833522e-09,0.002241365238963912,3.277442403833522e-09,0.002241365202632063,3.277442403833522e-09,0.002241361535244029,3.277442403833522e-09,0.00096350488265939,3.277442403833522e-09,0.7096902243519566
3.283370056499321e-09,0.002241365089840773,3.283370056499321e-09,0.002241365201521872,3.283370056499321e-09,0.002241361870526203,3.283370056499321e-09,0.0009634312307305075,3.283370056499321e-09,0.7129833647218452
3.287802887579705e-09,0.002241365158220029,3.287802887579705e-09,0.002241365203207799,3.287802887579705e-09,0.002241364151348252,3.287802887579705e-09,0.0009634354084838888,3.287802887579705e-09,0.7154460486553917
3.292098680145833e-09,0.002241376335826595,3.292098680145833e-09,0.002241365259053863,3.292098680145833e-09,0.002241365861769914,3.292098680145833e-09,0.0009640964443742064,3.292098680145833e-09,0.7178326000810183
3.295834432905602e-09,0.002241425700338059,3.295834432905602e-09,0.00224136547089397,3.295834432905602e-09,0.002241363415352322,3.295834432905602e-09,0.0009671824827652316,3.295834432905602e-09,0.7199080182808902
3.29958485226197e-09,0.002241469485279299,3.29958485226197e-09,0.002241365428295719,3.29958485226197e-09,0.002241357586742911,3.29958485226197e-09,0.0009739173617973731,3.29958485226197e-09,0.7219915845899835
3.30338244775843e-09,0.002241312335384562,3.30338244775843e-09,0.002241364065990555,3.30338244775843e-09,0.002241351751583044,3.30338244775843e-09,0.0009724784681302069,3.30338244775843e-09,0.7241013598657943
3.30630843141934e-09,0.002240988068524284,3.30630843141934e-09,0.002241363287055391,3.30630843141934e-09,0.002241349842450879,3.30630843141934e-09,0.0009444107713950042,3.30630843141934e-09,0.7257269063440779
3.308899708126319e-09,0.002240852124695544,3.308899708126319e-09,0.002241364679473976,3.308899708126319e-09,0.002241354223587135,3.308899708126319e-09,0.0008752459495416222,3.308899708126319e-09,0.7271665045146216
3.312005116221225e-09,0.002240813158913921,3.312005116221225e-09,0.002241367178359122,3.312005116221225e-09,0.002241355111702324,3.312005116221225e-09,0.0006957393115177777,3.312005116221225e-09,0.7288917312340141
3.315565963603195e-09,0.002240221105499963,3.315565963603195e-09,0.002241368500506758,3.315565963603195e-09,0.002241357633362291,3.315565963603195e-09,0.0003867560810892786,3.315565963603195e-09,0.7308699797795527
3.319298419783722e-09,0.002240075566710323,3.319298419783722e-09,0.002241366314940488,3.319298419783722e-09,0.002241371191086771,3.319298419783722e-09,0.0002103564327627211,3.319298419783722e-09,0.7329435665465124
3.322309772085072e-09,0.002242689947726265,3.322309772085072e-09,0.002241360440803606,3.322309772085072e-09,0.002241377232285456,3.322309772085072e-09,0.0002801871337202437,3.322309772085072e-09,0.7346165400472625
3.325196204178807e-09,0.002248275414040358,3.325196204178807e-09,0.00224135965993606,3.325196204178807e-09,0.002241378378834022,3.325196204178807e-09,0.0004611364532432616,3.325196204178807e-09,0.7362201134326707
3.328228787857717e-09,0.002255064517535873,3.328228787857717e-09,0.002241365341972786,3.328228787857717e-09,0.00224137754340951,3.328228787857717e-09,0.0006552317356629089,3.328228787857717e-09,0.7379048821431762
3.331688918510026e-09,0.002258876965606256,3.331688918510026e-09,0.002241372687697099,3.331688918510026e-09,0.002241375487540585,3.331688918510026e-09,0.0006483034890546679,3.331688918510026e-09,0.7398271769500145
3.334504462796269e-09,0.002257083214997347,3.334504462796269e-09,0.002241373102564146,3.334504462796269e-09,0.002241374142675646,3.334504462796269e-09,0.0003083954001459487,3.334504462796269e-09,0.7413913682201495
3.337304671736019e-09,0.002246842602417953,3.337304671736019e-09,0.002241362785471227,3.337304671736019e-09,0.002241372411884394,3.337304671736019e-09,-0.0003543621797163801,3.337304671736019e-09,0.7429470398533438
3.341043871122452e-09,0.002014901709805888,3.341043871122452e-09,0.002241347753128296,3.341043871122452e-09,0.002241368426528832,3.341043871122452e-09,-0.001330218165106354,3.341043871122452e-09,0.7450243728458065
3.343941440851772e-09,0.0008840052966405688,3.343941440851772e-09,0.002241347912611867,3.343941440851772e-09,0.002241360539696475,3.343941440851772e-09,-0.001857213325102155,3.343941440851772e-09,0.7466341338065402
3.34714431243667e-09,-0.001001678955978856,3.34714431243667e-09,0.002241358956781909,3.34714431243667e-09,0.002241349975230596,3.34714431243667e-09,-0.00204269948128953,3.34714431243667e-09,0.748413506909261
3.350365376808831e-09,0.005563233750498849,3.350365376808831e-09,0.002241380627961411,3.350365376808831e-09,0.002241345031343699,3.350365376808831e-09,-0.001682975171661962,3.350365376808831e-09,0.7502029871160173
3.353324980936081e-09,0.03433842712902396,3.353324980936081e-09,0.002241403183159643,3.353324980936081e-09,0.00224134369978864,3.353324980936081e-09,-0.0008501255839615966,3.353324980936081e-09,0.7518472116311561
3.356683788764998e-09,0.1033212374190499,3.356683788764998e-09,0.002241406102492057,3.356683788764998e-09,0.002241341266848706,3.356683788764998e-09,-0.0001312699484946233,3.356683788764998e-09,0.7537132159805542
3.359041509731398e-09,0.170904699578064,3.359041509731398e-09,0.0022414073425918,3.359041509731398e-09,0.002241354520479962,3.359041509731398e-09,0.0002759371986932989,3.359041509731398e-09,0.7550230609618876
3.361736810044641e-09,0.2641228734457111,3.361736810044641e-09,0.002241397832615124,3.361736810044641e-09,0.002241367642331759,3.361736810044641e-09,0.001092551695621374,3.361736810044641e-09,0.7565204500248005
3.364726287395877e-09,0.3845113922070625,3.364726287395877e-09,0.002241361393133368,3.364726287395877e-09,0.002241359678757645,3.364726287395877e-09,0.002093799482729422,3.364726287395877e-09,0.7581812707754871
3.368794925107424e-09,0.5531261250319648,3.368794925107424e-09,0.002241333681433572,3.368794925107424e-09,0.002241359981334739,3.368794925107424e-09,0.003082084865424684,3.368794925107424e-09,0.76044162505968
3.371791359628081e-09,0.6591160219152838,3.371791359628081e-09,0.002241330239787362,3.371791359628081e-09,0.002241365966477631,3.371791359628081e-09,0.003386450809482192,3.371791359628081e-09,0.7621063109044893
3.374639552174263e-09,0.7359654364881508,3.374639552174263e-09,0.002241332124210347,3.374639552174263e-09,0.002241369990518875,3.374639552174263e-09,0.003393016805938957,3.374639552174263e-09,0.7636886400968129
3.377412172066373e-09,0.8092159184171569,3.377412172066373e-09,0.002241333171330061,3.377412172066373e-09,0.002241369507779286,3.377412172066373e-09,0.003224142897962425,3.377412172066373e-09,0.765228984481318
3.380923592571236e-09,1.006106826010113,3.380923592571236e-09,0.00224133294530963,3.380923592571236e-09,0.002241364819552763,3.380923592571236e-09,0.002877310611037878,3.380923592571236e-09,0.7671797736506863
3.383740639853812e-09,1.393097619385343,3.383740639853812e-09,0.002241333707021207,3.383740639853812e-09,0.002241360836387098,3.383740639853812e-09,0.002565052553950713,3.383740639853812e-09,0.7687447999187844
3.386024908813123e-09,1.961538815226709,3.386024908813123e-09,0.002241334910135523,3.386024908813123e-09,0.002241357953896024,3.386024908813123e-09,0.002338533729583524,3.386024908813123e-09,0.7700138382295126
3.388280361291464e-09,2.701740973497286,3.388280361291464e-09,0.002241336881767116,3.388280361291464e-09,0.002241355702799502,3.388280361291464e-09,0.002140097504201051,3.388280361291464e-09,0.7712668673841464
3.389937381818963e-09,3.27098461166995,3.389937381818963e-09,0.002241338755498886,3.389937381818963e-09,0.00224135459754364,3.389937381818963e-09,0.002011155476135635,3.389937381818963e-09,0.7721874343438684
3.391698573151274e-09,3.791466929735386,3.391698573151274e-09,0.002241341761897293,3.391698573151274e-09,0.002241354368252896,3.391698573151274e-09,0.00188421452010023,3.391698573151274e-09,0.7731658739729299
3.393255736889114e-09,4.129181780208582,3.393255736889114e-09,0.002241344556162899,3.393255736889114e-09,0.002241354480382631,3.393255736889114e-09,0.001782689231352964,3.393255736889114e-09,0.7740309649383966
3.395070430935621e-09,4.406313318243777,3.395070430935621e-09,0.002241348448087062,3.395070430935621e-09,0.002241355243363316,3.395070430935621e-09,0.001674721193514067,3.395070430935621e-09,0.7750391282975673
3.397270157816082e-09,4.629400865571277,3.397270157816082e-09,0.002241352886226454,3.397270157816082e-09,0.002241356200832143,3.397270157816082e-09,0.001560197798083144,3.397270157816082e-09,0.7762611987867122
3.399433059666487e-09,4.766482248220465,3.399433059666487e-09,0.002241357366218219,3.399433059666487e-09,0.002241357426547539,3.399433059666487e-09,0.001463544051126073,3.399433059666487e-09,0.7774628109258261
3.402024657135315e-09,4.865833926999252,3.402024657135315e-09,0.002241361989120031,3.402024657135315e-09,0.002241358605082475,3.402024657135315e-09,0.00136677593767325,3.402024657135315e-09,0.7789025872973973
3.404886782829849e-09,4.925563220048499,3.404886782829849e-09,0.002241366698049683,3.404886782829849e-09,0.002241359913179713,3.404886782829849e-09,0.001279630949297744,3.404886782829849e-09,0.780492657127694
3.408414809344018e-09,4.962048601078405,3.408414809344018e-09,0.00224137130492669,3.408414809344018e-09,0.002241361077306495,3.408414809344018e-09,0.001195902045052079,3.408414809344018e-09,0.7824526718577877
3.412472599931509e-09,4.979793295708711,3.412472599931509e-09,0.002241375543850542,3.412472599931509e-09,0.002241362143391978,3.412472599931509e-09,0.00112470293085066,3.412472599931509e-09,0.7847069999619491
3.417749705219499e-09,4.988592731738346,3.417749705219499e-09,0.00224137911172729,3.417749705219499e-09,0.002241362823440238,3.417749705219499e-09,0.001062179493003324,3.417749705219499e-09,0.7876387251219441
3.424435049499944e-09,4.99181468291142,3.424435049499944e-09,0.002241381728900861,3.424435049499944e-09,0.002241363220845931,3.424435049499944e-09,0.001015188608189387,3.424435049499944e-09,0.7913528052777464
3.434370501108562e-09,4.993240819122733,3.434370501108562e-09,0.002241382808854392,3.434370501108562e-09,0.002241363144159712,3.434370501108562e-09,0.0009817482631577323,3.434370501108562e-09,0.7968725006158677
3.447550731807213e-09,4.993589636974485,3.447550731807213e-09,0.002241382057460107,3.447550731807213e-09,0.002241362927718268,3.447550731807213e-09,0.0009671118683556598,3.447550731807213e-09,0.8041948510040074
3.464539826882853e-09,4.993891421419832,3.464539826882853e-09,0.002241379600469352,3.464539826882853e-09,0.002241362618690024,3.464539826882853e-09,0.0009636363211770999,3.464539826882853e-09,0.8136332371571403
