/net039 X,/net039 Y,/net010 X,/net010 Y,/net09 X,/net09 Y,/net08 X,/net08 Y,/net02 X,/net02 Y
0,0.003084358995915086,0,0.003084358995488204,0,0.003084347998450102,0,0.001235397698240559,0,0
1.5e-11,0.003084358995915129,1.5e-11,0.003084358995488278,1.5e-11,0.003084347998450062,1.5e-11,0.001235397698244114,1.5e-11,0
4.5e-11,0.003084358995915254,4.5e-11,0.00308435899548804,4.5e-11,0.003084347998449961,4.5e-11,0.001235397698239467,4.5e-11,0
1.05e-10,0.003084358995914799,1.05e-10,0.003084358995488023,1.05e-10,0.003084347998450674,1.05e-10,0.001235397698240916,1.05e-10,0
2.25e-10,0.003084358995917911,2.25e-10,0.003084358995487523,2.25e-10,0.003084347998447642,2.25e-10,0.00123539769824087,2.25e-10,0
4.65e-10,0.003084358995911609,4.65e-10,0.003084358995489867,4.65e-10,0.003084347998449961,4.65e-10,0.001235397698240371,4.65e-10,0
7.649999999999999e-10,0.003084358995920297,7.649999999999999e-10,0.003084358995484845,7.649999999999999e-10,0.003084347998448485,7.649999999999999e-10,0.001235397698241232,7.649999999999999e-10,0
1.065e-09,0.003084358995911615,1.065e-09,0.003084358995490988,1.065e-09,0.003084347998451028,1.065e-09,0.001235397698240029,1.065e-09,0
1.365e-09,0.003084358995918527,1.365e-09,0.003084358995487875,1.365e-09,0.003084347998447852,1.365e-09,0.00123539769824132,1.365e-09,0
1.665e-09,0.003084358995912174,1.665e-09,0.003084358995488183,1.665e-09,0.00308434799845167,1.665e-09,0.001235397698239622,1.665e-09,0
1.8325e-09,0.003084358995918894,1.8325e-09,0.003084358995487512,1.8325e-09,0.003084347998448341,1.8325e-09,0.001235397698241624,1.8325e-09,0
2e-09,0.003084358995912584,2e-09,0.003084358995490161,2e-09,0.003084347998450342,2e-09,0.001235397698239578,2e-09,0
2.120144127384571e-09,0.003084358995915325,2.120144127384571e-09,0.003084358995488082,2.120144127384571e-09,0.003084347998430234,2.120144127384571e-09,0.001235397698950609,2.120144127384571e-09,0.06674673743587282
2.261585129605973e-09,0.00308435899591479,2.261585129605973e-09,0.003084358995487533,2.261585129605973e-09,0.003084347998412684,2.261585129605973e-09,0.001235397697573706,2.261585129605973e-09,0.1453250720033182
2.400273538304042e-09,0.003084358995918015,2.400273538304042e-09,0.003084358995490313,2.400273538304042e-09,0.003084347998476487,2.400273538304042e-09,0.0012353976987183,2.400273538304042e-09,0.2223741879466899
2.452508962256033e-09,0.003084358995912183,2.452508962256033e-09,0.003084358995484872,2.452508962256033e-09,0.003084347998535281,2.452508962256033e-09,0.001235397700030395,2.452508962256033e-09,0.2513938679200181
2.478626674232028e-09,0.003084358995917015,2.478626674232028e-09,0.00308435899548947,2.478626674232028e-09,0.003084347998554472,2.478626674232028e-09,0.001235397693983748,2.478626674232028e-09,0.2659037079066822
2.530862098184019e-09,0.003084358995912289,2.530862098184019e-09,0.003084358995484941,2.530862098184019e-09,0.0030843479985377,2.530862098184019e-09,0.001235397702928836,2.530862098184019e-09,0.2949233878800104
2.574665983195364e-09,0.00308435899591889,2.574665983195364e-09,0.003084358995490923,2.574665983195364e-09,0.003084347998563952,2.574665983195364e-09,0.001235397692849794,2.574665983195364e-09,0.3192588795529802
2.618407492726358e-09,0.003084358995910229,2.618407492726358e-09,0.003084358995481304,2.618407492726358e-09,0.003084347998589646,2.618407492726358e-09,0.001235397705409115,2.618407492726358e-09,0.3435597181813099
2.637954432869786e-09,0.003084358995920443,2.637954432869786e-09,0.003084358995491696,2.637954432869786e-09,0.003084347998568564,2.637954432869786e-09,0.001235397687291128,2.637954432869786e-09,0.3544191293721033
2.676224015349181e-09,0.0030843589959089,2.676224015349181e-09,0.003084358995482356,2.676224015349181e-09,0.003084347998640147,2.676224015349181e-09,0.001235397710421307,2.676224015349181e-09,0.3756800085273225
2.707159245274743e-09,0.003084358995922493,2.707159245274743e-09,0.00308435899549097,2.707159245274743e-09,0.003084347998543493,2.707159245274743e-09,0.001235397686047634,2.707159245274743e-09,0.3928662473748574
2.753868188284413e-09,0.00308435899590928,2.753868188284413e-09,0.003084358995482962,2.753868188284413e-09,0.003084347998710224,2.753868188284413e-09,0.001235397709849018,2.753868188284413e-09,0.4188156601580074
2.790625806813913e-09,0.003084358995918762,2.790625806813913e-09,0.003084358995489761,2.790625806813913e-09,0.003084347998525499,2.790625806813913e-09,0.001235397687987165,2.790625806813913e-09,0.439236559341063
2.828830842632532e-09,0.00308435899590943,2.828830842632532e-09,0.003084358995482577,2.828830842632532e-09,0.003084347998768208,2.828830842632532e-09,0.001235397706921311,2.828830842632532e-09,0.4604615792402953
2.864330733892959e-09,0.003084358995919192,2.864330733892959e-09,0.003084358995489499,2.864330733892959e-09,0.003084347998516728,2.864330733892959e-09,0.001235397691399026,2.864330733892959e-09,0.480183741051644
2.891485076574334e-09,0.003084358995909797,2.891485076574334e-09,0.003084358995483186,2.891485076574334e-09,0.003084347998797207,2.891485076574334e-09,0.001235397702740737,2.891485076574334e-09,0.4952694869857413
2.920137663265194e-09,0.003084358995918338,2.920137663265194e-09,0.003084358995488168,2.920137663265194e-09,0.003084347998530184,2.920137663265194e-09,0.001235397695695032,2.920137663265194e-09,0.5111875907028854
2.952954899470423e-09,0.003084358995910547,2.952954899470423e-09,0.003084358995483619,2.952954899470423e-09,0.003084347998795207,2.952954899470423e-09,0.001235397699280677,2.952954899470423e-09,0.5294193885946796
2.969363517573038e-09,0.003084358995915498,2.969363517573038e-09,0.003084358995486761,2.969363517573038e-09,0.003084347998577561,2.969363517573038e-09,0.001235397699387139,2.969363517573038e-09,0.5385352875405767
3.002180753778268e-09,0.003084358995911402,3.002180753778268e-09,0.003084358995485767,3.002180753778268e-09,0.00308434799876647,3.002180753778268e-09,0.001235397696255443,3.002180753778268e-09,0.5567670854323709
3.037399010638594e-09,0.003084358995915317,3.037399010638594e-09,0.003084358995486222,3.037399010638594e-09,0.003084347998616311,3.037399010638594e-09,0.001235397700728597,3.037399010638594e-09,0.5763327836881075
3.047843492691358e-09,0.003084358995913795,3.047843492691358e-09,0.003084358995485803,3.047843492691358e-09,0.003084347998717009,3.047843492691358e-09,0.001235397694571113,3.047843492691358e-09,0.5821352737174208
3.068732456796886e-09,0.00308435899591731,3.068732456796886e-09,0.003084358995484125,3.068732456796886e-09,0.003084347998679611,3.068732456796886e-09,0.001235397702018951,3.068732456796886e-09,0.5937402537760476
3.101135340982907e-09,0.003084358995913425,3.101135340982907e-09,0.003084358995487689,3.101135340982907e-09,0.003084347998700883,3.101135340982907e-09,0.001235397694331087,3.101135340982907e-09,0.6117418561016148
3.110856968978599e-09,0.003084358995914199,3.110856968978599e-09,0.00308435899548323,3.110856968978599e-09,0.003084347998716765,3.110856968978599e-09,0.001235397701971378,3.110856968978599e-09,0.6171427605436662
3.130300224969984e-09,0.003084358995915357,3.130300224969984e-09,0.003084358995488253,3.130300224969984e-09,0.003084347998676038,3.130300224969984e-09,0.001235397694672177,3.130300224969984e-09,0.6279445694277689
3.135634530399681e-09,0.003084358995913934,3.135634530399681e-09,0.003084358995484772,3.135634530399681e-09,0.00308434799874755,3.135634530399681e-09,0.001235397702044805,3.135634530399681e-09,0.6309080724442671
3.146303141259074e-09,0.003084358995914194,3.146303141259074e-09,0.003084358995486157,3.146303141259074e-09,0.003084347998652578,3.146303141259074e-09,0.00123539770250186,3.146303141259074e-09,0.6368350784772635
3.163011638144249e-09,0.003084358995914888,3.163011638144249e-09,0.003084358995485518,3.163011638144249e-09,0.003084347998750229,3.163011638144249e-09,0.001235397661329948,3.163011638144249e-09,0.6461175767468049
3.18192679916576e-09,0.003084358995911952,3.18192679916576e-09,0.003084358995485787,3.18192679916576e-09,0.003084347997429333,3.18192679916576e-09,0.001235397423920832,3.18192679916576e-09,0.6566259995365336
3.199455239195097e-09,0.003084358995919802,3.199455239195097e-09,0.003084358995485913,3.199455239195097e-09,0.003084347983124478,3.199455239195097e-09,0.001235399977630545,3.199455239195097e-09,0.6663640217750536
3.217070793303758e-09,0.003084358995894596,3.217070793303758e-09,0.003084358995489214,3.217070793303758e-09,0.003084347962046507,3.217070793303758e-09,0.001235416205750717,3.217070793303758e-09,0.6761504407243102
3.233213243165744e-09,0.003084358995675111,3.233213243165744e-09,0.003084358995487365,3.233213243165744e-09,0.003084348187388082,3.233213243165744e-09,0.001235368998197277,3.233213243165744e-09,0.6851184684254134
3.237205968484077e-09,0.003084358992639349,3.237205968484077e-09,0.003084358995542827,3.237205968484077e-09,0.003084348821518037,3.237205968484077e-09,0.001235353260048678,3.237205968484077e-09,0.6873366491578207
3.245191419120744e-09,0.00308435900416792,3.245191419120744e-09,0.003084358995277679,3.245191419120744e-09,0.003084349250890189,3.245191419120744e-09,0.001235396971217604,3.245191419120744e-09,0.6917730106226353
3.254266642046393e-09,0.003084358976856526,3.254266642046393e-09,0.003084358995370406,3.254266642046393e-09,0.003084346887259421,3.254266642046393e-09,0.001235412958128012,3.254266642046393e-09,0.6968148011368849
3.261958151486087e-09,0.003084358991222446,3.261958151486087e-09,0.003084358996254559,3.261958151486087e-09,0.003084347354929101,3.261958151486087e-09,0.001235402544450998,3.261958151486087e-09,0.7010878619367151
3.269861258203796e-09,0.0030843590659287,3.269861258203796e-09,0.003084358995251038,3.269861258203796e-09,0.003084347514525281,3.269861258203796e-09,0.001235401528210382,3.269861258203796e-09,0.7054784767798865
3.277341692855048e-09,0.003084359071622749,3.277341692855048e-09,0.003084358995372611,3.277341692855048e-09,0.003084347440826796,3.277341692855048e-09,0.001235369583460283,3.277341692855048e-09,0.7096342738083599
3.283187010888537e-09,0.003084359022626743,3.283187010888537e-09,0.003084358995350488,3.283187010888537e-09,0.003084347979109883,3.283187010888537e-09,0.001235318842919445,3.283187010888537e-09,0.7128816727158538
3.287657987447178e-09,0.003084358903918656,3.287657987447178e-09,0.003084358994881153,3.287657987447178e-09,0.003084349240606077,3.287657987447178e-09,0.001235307337960764,3.287657987447178e-09,0.7153655485817654
3.29173487932234e-09,0.003084361917739178,3.29173487932234e-09,0.003084359010613503,3.29173487932234e-09,0.003084350530526857,3.29173487932234e-09,0.001235584018562731,3.29173487932234e-09,0.717630488512411
3.295564977202662e-09,0.003084381416516605,3.295564977202662e-09,0.003084359095353201,3.295564977202662e-09,0.003084347745966843,3.295564977202662e-09,0.001237164693396942,3.295564977202662e-09,0.7197583206681454
3.299175339356339e-09,0.003084410507499903,3.299175339356339e-09,0.003084359145617413,3.299175339356339e-09,0.003084342864416249,3.299175339356339e-09,0.001241591722969411,3.299175339356339e-09,0.7217640774201881
3.302916175733317e-09,0.003084336491564521,3.302916175733317e-09,0.0030843585446006,3.302916175733317e-09,0.003084338206557344,3.302916175733317e-09,0.001245057326618825,3.302916175733317e-09,0.7238423198518426
3.305436963228414e-09,0.003084174662995673,3.305436963228414e-09,0.003084357676830188,3.305436963228414e-09,0.003084334761026824,3.305436963228414e-09,0.001237902641061495,3.305436963228414e-09,0.7252427573491187
3.307971255664717e-09,0.003084020379081405,3.307971255664717e-09,0.003084358204840027,3.307971255664717e-09,0.003084341177908964,3.307971255664717e-09,0.001209267471954109,3.307971255664717e-09,0.7266506975915095
3.310567718021744e-09,0.003084043006049789,3.310567718021744e-09,0.003084359707311928,3.310567718021744e-09,0.003084348101348883,3.310567718021744e-09,0.001140505882029457,3.310567718021744e-09,0.728093176678747
3.31408685190177e-09,0.003084093179814061,3.31408685190177e-09,0.003084361166968827,3.31408685190177e-09,0.003084346965366516,3.31408685190177e-09,0.0009392986558719589,3.31408685190177e-09,0.7300482510565391
3.317871381757371e-09,0.003083799610474472,3.317871381757371e-09,0.003084360735470085,3.317871381757371e-09,0.003084356396454746,3.317871381757371e-09,0.0006420480058397603,3.317871381757371e-09,0.7321507676429841
3.32108584643647e-09,0.003084472630453559,3.32108584643647e-09,0.003084358518286276,3.32108584643647e-09,0.003084367257634325,3.32108584643647e-09,0.0005324091412534931,3.32108584643647e-09,0.7339365813535945
3.323975354861416e-09,0.003087216372962928,3.323975354861416e-09,0.003084354128429003,3.323975354861416e-09,0.003084370101095623,3.323975354861416e-09,0.0006120498314259561,3.323975354861416e-09,0.7355418638118976
3.326801725649827e-09,0.003091592195463979,3.326801725649827e-09,0.00308435645702767,3.326801725649827e-09,0.003084367601037802,3.326801725649827e-09,0.0007824554877824396,3.326801725649827e-09,0.7371120698054595
3.330327046819478e-09,0.003094693883037288,3.330327046819478e-09,0.003084362130195428,3.330327046819478e-09,0.003084363415831559,3.330327046819478e-09,0.0009400161446117809,3.330327046819478e-09,0.7390705815663768
3.33336723663355e-09,0.003092392124654021,3.33336723663355e-09,0.003084365940283403,3.33336723663355e-09,0.003084359123507123,3.33336723663355e-09,0.0008268301835862129,3.33336723663355e-09,0.7407595759075278
3.336006549566956e-09,0.003085802698620937,3.336006549566956e-09,0.003084362229847766,3.336006549566956e-09,0.003084355945621971,3.336006549566956e-09,0.0004198995315769257,3.336006549566956e-09,0.7422258608705309
3.338850642921553e-09,0.003069122804620561,3.338850642921553e-09,0.003084350885922566,3.338850642921553e-09,0.003084351614523841,3.338850642921553e-09,-0.0002920400776207808,3.338850642921553e-09,0.7438059127341963
3.342132332240083e-09,0.002860271605026981,3.342132332240083e-09,0.003084345575551442,3.342132332240083e-09,0.003084344876400234,3.342132332240083e-09,-0.001096590769030943,3.342132332240083e-09,0.7456290734667129
3.345030811933493e-09,0.001856611985511447,3.345030811933493e-09,0.003084352804547279,3.345030811933493e-09,0.00308433481467351,3.345030811933493e-09,-0.001554401136970847,3.345030811933493e-09,0.7472393399630518
3.348177373354959e-09,0.0008286501742207203,3.348177373354959e-09,0.00308436751321959,3.348177373354959e-09,0.00308432616615754,3.348177373354959e-09,-0.001646846019409778,3.348177373354959e-09,0.7489874296416439
3.351408956500583e-09,0.008817796732504931,3.351408956500583e-09,0.003084387549796093,3.351408956500583e-09,0.003084324431676792,3.351408956500583e-09,-0.001193214691118262,3.351408956500583e-09,0.7507827536114352
3.354356756698265e-09,0.03762161371341035,3.354356756698265e-09,0.00308440051137107,3.354356756698265e-09,0.003084326068905706,3.354356756698265e-09,-0.0003273041020418488,3.354356756698265e-09,0.7524204203879248
3.357511481465305e-09,0.09813835505189177,3.357511481465305e-09,0.003084390318160441,3.357511481465305e-09,0.003084328472334929,3.357511481465305e-09,0.0002685924197246782,3.357511481465305e-09,0.7541730452585027
3.359823894001188e-09,0.1598809429340653,3.359823894001188e-09,0.003084385274961994,3.359823894001188e-09,0.00308434510615004,3.359823894001188e-09,0.0006302652230284588,3.359823894001188e-09,0.7554577188895487
3.36251709791755e-09,0.2494523037160915,3.36251709791755e-09,0.00308436620828532,3.36251709791755e-09,0.003084355978339668,3.36251709791755e-09,0.001449906462586553,3.36251709791755e-09,0.7569539432875276
3.365521848368166e-09,0.3687922455985147,3.365521848368166e-09,0.003084324859036671,3.365521848368166e-09,0.003084344164414655,3.365521848368166e-09,0.002436990836885723,3.365521848368166e-09,0.7586232490934256
3.369433805885738e-09,0.5308813446130927,3.369433805885738e-09,0.003084304477768029,3.369433805885738e-09,0.003084347247099199,3.369433805885738e-09,0.003350208163556903,3.369433805885738e-09,0.7607965588254101
3.372331530861705e-09,0.6352488940860311,3.372331530861705e-09,0.003084306034544902,3.372331530861705e-09,0.003084353001574604,3.372331530861705e-09,0.003611013778332384,3.372331530861705e-09,0.7624064060342803
3.375127518322099e-09,0.7144297579389849,3.375127518322099e-09,0.003084310864248531,3.375127518322099e-09,0.003084356195457592,3.375127518322099e-09,0.003600371220662051,3.375127518322099e-09,0.7639597324011661
3.377875267780057e-09,0.7908529995534986,3.377875267780057e-09,0.003084313860861053,3.377875267780057e-09,0.003084353398364824,3.377875267780057e-09,0.003417572167029286,3.377875267780057e-09,0.7654862598778096
3.381498357304384e-09,1.004698462397973,3.381498357304384e-09,0.003084316598881968,3.381498357304384e-09,0.003084346936729057,3.381498357304384e-09,0.003051191863128075,3.381498357304384e-09,0.7674990873913246
3.384289707112431e-09,1.402444341339938,3.384289707112431e-09,0.003084320670233954,3.384289707112431e-09,0.003084342398171326,3.384289707112431e-09,0.002740903575555208,3.384289707112431e-09,0.7690498372846841
3.386574513151935e-09,1.988055107742679,3.386574513151935e-09,0.003084324642335092,3.386574513151935e-09,0.003084339763590051,3.386574513151935e-09,0.002520440660178978,3.386574513151935e-09,0.7703191739732971
3.388809253654139e-09,2.736837990425783,3.388809253654139e-09,0.003084329953978289,3.388809253654139e-09,0.003084338137210436,3.388809253654139e-09,0.002329857344736262,3.388809253654139e-09,0.7715606964745217
3.390455859482114e-09,3.308152550700131,3.390455859482114e-09,0.003084334072257407,3.390455859482114e-09,0.003084337720233628,3.390455859482114e-09,0.002207443962501615,3.390455859482114e-09,0.7724754774900634
3.392179887283809e-09,3.816688229871602,3.392179887283809e-09,0.003084339697286133,3.392179887283809e-09,0.003084338318800686,3.392179887283809e-09,0.002087515083207766,3.392179887283809e-09,0.7734332707132271
3.393716536686286e-09,4.14800223795868,3.393716536686286e-09,0.003084344430762836,3.393716536686286e-09,0.003084339084175618,3.393716536686286e-09,0.001991748739774628,3.393716536686286e-09,0.7742869648257144
3.395563225008342e-09,4.427323225030215,3.395563225008342e-09,0.003084350815025925,3.395563225008342e-09,0.003084340623742164,3.395563225008342e-09,0.001886199893947193,3.395563225008342e-09,0.7753129027824119
3.39770972645234e-09,4.641076987687895,3.39770972645234e-09,0.003084357369772686,3.39770972645234e-09,0.003084342194205921,3.39770972645234e-09,0.001779961686132066,3.39770972645234e-09,0.7765054035846334
3.399889744860073e-09,4.775950964525753,3.399889744860073e-09,0.003084363948524981,3.399889744860073e-09,0.003084343968380792,3.399889744860073e-09,0.001687374492798764,3.399889744860073e-09,0.7777165249222627
3.402457272547916e-09,4.870825928352273,3.402457272547916e-09,0.003084370358206673,3.402457272547916e-09,0.003084345506883027,3.402457272547916e-09,0.001597438985584673,3.402457272547916e-09,0.7791429291932864
3.405308413749612e-09,4.927874717227483,3.405308413749612e-09,0.003084376768710518,3.405308413749612e-09,0.003084347128858838,3.405308413749612e-09,0.001516368832614392,3.405308413749612e-09,0.780726896527562
3.408812338945152e-09,4.96246375427337,3.408812338945152e-09,0.003084382785360238,3.408812338945152e-09,0.003084348423669564,3.408812338945152e-09,0.001439892237361559,3.408812338945152e-09,0.7826735216361953
3.41288511705472e-09,4.979470364319572,3.41288511705472e-09,0.003084388210050889,3.41288511705472e-09,0.003084349559880851,3.41288511705472e-09,0.001374829423267306,3.41288511705472e-09,0.7849361761415109
3.418194822849142e-09,4.987870773755236,3.418194822849142e-09,0.003084392494136838,3.418194822849142e-09,0.003084350120168708,3.418194822849142e-09,0.001319216879630816,3.418194822849142e-09,0.7878860126939676
3.424987461278978e-09,4.990994841797477,3.424987461278978e-09,0.003084395290148196,3.424987461278978e-09,0.003084350355850539,3.424987461278978e-09,0.001277707043749734,3.424987461278978e-09,0.7916597007105435
