/net039 X,/net039 Y,/net010 X,/net010 Y,/net09 X,/net09 Y,/net08 X,/net08 Y,/net02 X,/net02 Y
0,0.005192487135087957,0,0.005192487134252771,0,0.005192412825442884,0,0.001842994201589691,0,0
1.5e-11,0.005192487135111077,1.5e-11,0.005192487134251219,1.5e-11,0.005192412882702033,1.5e-11,0.001842998214738098,1.5e-11,0
4.5e-11,0.005192487135309717,4.5e-11,0.005192487134249451,4.5e-11,0.005192413265598204,4.5e-11,0.00184299464910585,4.5e-11,0
1.05e-10,0.005192487135580522,1.05e-10,0.005192487134257206,1.05e-10,0.005192413775183483,1.05e-10,0.001842992463840065,1.05e-10,0
2.25e-10,0.005192487135208339,2.25e-10,0.00519248713425138,2.25e-10,0.005192413163120202,2.25e-10,0.001842995119161493,2.25e-10,0
4.65e-10,0.005192487135097436,4.65e-10,0.005192487134251655,4.65e-10,0.005192412964994883,4.65e-10,0.001842993493886927,4.65e-10,0
7.649999999999999e-10,0.005192487135254333,7.649999999999999e-10,0.005192487134255273,7.649999999999999e-10,0.005192413225586124,7.649999999999999e-10,0.001842994777506568,7.649999999999999e-10,0
1.065e-09,0.005192487135084843,1.065e-09,0.005192487134252801,1.065e-09,0.005192412957946061,1.065e-09,0.001842993734478797,1.065e-09,0
1.365e-09,0.005192487135252243,1.365e-09,0.005192487134254837,1.365e-09,0.005192413213121091,1.365e-09,0.001842994577374457,1.365e-09,0
1.665e-09,0.005192487135096422,1.665e-09,0.005192487134249555,1.665e-09,0.005192412978977093,1.665e-09,0.00184299390321976,1.665e-09,0
1.8325e-09,0.005192487135234551,1.8325e-09,0.005192487134256224,1.8325e-09,0.005192413179911278,1.8325e-09,0.00184299438824022,1.8325e-09,0
2e-09,0.005192487135117148,2e-09,0.005192487134249774,2e-09,0.005192413019887577,2e-09,0.00184299409898821,2e-09,0
2.120144127384571e-09,0.005192487135165965,2.120144127384571e-09,0.005192487134249876,2.120144127384571e-09,0.005192413084441024,2.120144127384571e-09,0.001842994179735681,2.120144127384571e-09,0.06674673743587282
2.261585129605973e-09,0.005192487135171293,2.261585129605973e-09,0.00519248713424039,2.261585129605973e-09,0.005192413095189341,2.261585129605973e-09,0.001842994216362075,2.261585129605973e-09,0.1453250720033182
2.400273538304042e-09,0.005192487135154956,2.400273538304042e-09,0.005192487134222006,2.400273538304042e-09,0.005192413087947126,2.400273538304042e-09,0.001842994192574853,2.400273538304042e-09,0.2223741879466899
2.4466974687249e-09,0.005192487135153735,2.4466974687249e-09,0.005192487134209538,2.4466974687249e-09,0.005192413093263111,2.4466974687249e-09,0.001842994204298946,2.4466974687249e-09,0.248165260402722
2.500625020264102e-09,0.005192487135146266,2.500625020264102e-09,0.005192487134199783,2.500625020264102e-09,0.005192413091170208,2.500625020264102e-09,0.001842994198777911,2.500625020264102e-09,0.2781250112578343
2.561346857324556e-09,0.005192487135142971,2.561346857324556e-09,0.005192487134176103,2.561346857324556e-09,0.005192413092229067,2.561346857324556e-09,0.001842994204675733,2.561346857324556e-09,0.311859365180309
2.613201386760311e-09,0.0051924871351335,2.613201386760311e-09,0.005192487134167204,2.613201386760311e-09,0.005192413092147507,2.613201386760311e-09,0.001842994197205116,2.613201386760311e-09,0.3406674370890618
2.634607723173968e-09,0.005192487135132529,2.634607723173968e-09,0.00519248713415986,2.634607723173968e-09,0.0051924130920309,2.634607723173968e-09,0.001842994210062388,2.634607723173968e-09,0.3525598462077598
2.67742039600128e-09,0.005192487135130795,2.67742039600128e-09,0.005192487134153032,2.67742039600128e-09,0.005192413092410114,2.67742039600128e-09,0.001842994189158671,2.67742039600128e-09,0.3763446644451557
2.712946161723792e-09,0.005192487135125143,2.712946161723792e-09,0.005192487134142464,2.712946161723792e-09,0.005192413092201497,2.712946161723792e-09,0.001842994216687359,2.712946161723792e-09,0.3960812009576621
2.766514173613918e-09,0.005192487135123589,2.766514173613918e-09,0.0051924871341393,2.766514173613918e-09,0.005192413092502015,2.766514173613918e-09,0.001842994183948525,2.766514173613918e-09,0.4258412075632878
2.820763547798344e-09,0.005192487135117949,2.820763547798344e-09,0.005192487134118171,2.820763547798344e-09,0.00519241309238327,2.820763547798344e-09,0.001842994219003596,2.820763547798344e-09,0.4559797487768579
2.859497729522161e-09,0.005192487135115515,2.859497729522161e-09,0.005192487134120067,2.859497729522161e-09,0.005192413092512128,2.859497729522161e-09,0.001842994182715526,2.859497729522161e-09,0.4774987386234229
2.889520813594323e-09,0.005192487135112383,2.889520813594323e-09,0.005192487134106314,2.889520813594323e-09,0.005192413092544726,2.889520813594323e-09,0.001842994217827463,2.889520813594323e-09,0.4941782297746236
2.922122888217693e-09,0.005192487135110486,2.922122888217693e-09,0.005192487134111119,2.922122888217693e-09,0.005192413092426428,2.922122888217693e-09,0.001842994186029308,2.922122888217693e-09,0.5122904934542741
2.952619125329243e-09,0.005192487135108267,2.952619125329243e-09,0.005192487134096441,2.952619125329243e-09,0.005192413092669327,2.952619125329243e-09,0.001842994212694514,2.952619125329243e-09,0.5292328474051348
3.013611599552341e-09,0.005192487135102226,3.013611599552341e-09,0.005192487134097144,3.013611599552341e-09,0.005192413092375509,3.013611599552341e-09,0.001842994190268754,3.013611599552341e-09,0.5631175553068558
3.024399631551299e-09,0.005192487135107061,3.024399631551299e-09,0.005192487134083428,3.024399631551299e-09,0.005192413092738345,3.024399631551299e-09,0.001842994203354007,3.024399631551299e-09,0.5691109064173884
3.045975695549217e-09,0.00519248713509949,3.045975695549217e-09,0.005192487134091967,3.045975695549217e-09,0.005192413092335825,3.045975695549217e-09,0.001842994200920992,3.045975695549217e-09,0.5810976086384536
3.081273061169082e-09,0.00519248713510195,3.081273061169082e-09,0.005192487134078638,3.081273061169082e-09,0.005192413092703732,3.081273061169082e-09,0.001842994198942462,3.081273061169082e-09,0.6007072562050454
3.092897632612475e-09,0.005192487135098368,3.092897632612475e-09,0.005192487134081695,3.092897632612475e-09,0.005192413092391156,3.092897632612475e-09,0.001842994205384463,3.092897632612475e-09,0.6071653514513747
3.11614677549926e-09,0.005192487135100412,3.11614677549926e-09,0.005192487134074879,3.11614677549926e-09,0.005192413092624353,3.11614677549926e-09,0.001842994195920805,3.11614677549926e-09,0.6200815419440334
3.123140625626705e-09,0.005192487135095326,3.123140625626705e-09,0.005192487134076064,3.123140625626705e-09,0.005192413092504196,3.123140625626705e-09,0.001842994209483654,3.123140625626705e-09,0.6239670142370585
3.137128325881596e-09,0.005192487135099378,3.137128325881596e-09,0.005192487134075783,3.137128325881596e-09,0.005192413092537334,3.137128325881596e-09,0.001842994194414114,3.137128325881596e-09,0.6317379588231087
3.159444558227784e-09,0.005192487135096373,3.159444558227784e-09,0.0051924871340722,3.159444558227784e-09,0.005192413093003957,3.159444558227784e-09,0.001842994272556126,3.159444558227784e-09,0.6441358656821023
3.183695459546703e-09,0.005192487135135681,3.183695459546703e-09,0.005192487134070053,3.183695459546703e-09,0.005192413103029708,3.183695459546703e-09,0.001842995049227032,3.183695459546703e-09,0.6576085886370575
3.20864563319288e-09,0.005192487135139427,3.20864563319288e-09,0.005192487134067304,3.20864563319288e-09,0.005192413177436149,3.20864563319288e-09,0.00184299717833563,3.20864563319288e-09,0.6714697962182665
3.231572261542012e-09,0.005192487132384348,3.231572261542012e-09,0.005192487134057781,3.231572261542012e-09,0.005192413276219451,3.231572261542012e-09,0.00184299139062192,3.231572261542012e-09,0.6842068119677843
3.236023631257025e-09,0.005192487131004912,3.236023631257025e-09,0.005192487134051501,3.236023631257025e-09,0.00519241322446238,3.236023631257025e-09,0.001842979013394433,3.236023631257025e-09,0.6866797951427913
3.24492637068705e-09,0.005192487126434049,3.24492637068705e-09,0.005192487134061305,3.24492637068705e-09,0.00519241340499003,3.24492637068705e-09,0.001842979600925522,3.24492637068705e-09,0.6916257614928056
3.254761745866502e-09,0.005192487113731003,3.254761745866502e-09,0.005192487133991099,3.254761745866502e-09,0.005192412239244022,3.254761745866502e-09,0.001843002878348495,3.254761745866502e-09,0.6970898588147232
3.263029850173683e-09,0.005192487097755272,3.263029850173683e-09,0.005192487134322372,3.263029850173683e-09,0.005192411900375421,3.263029850173683e-09,0.001842997963831039,3.263029850173683e-09,0.7016832500964906
3.271013610085367e-09,0.005192487064884429,3.271013610085367e-09,0.005192487133878561,3.271013610085367e-09,0.005192412509698072,3.271013610085367e-09,0.001842992452790562,3.271013610085367e-09,0.7061186722696484
3.278375816293823e-09,0.005192486959912616,3.278375816293823e-09,0.005192487133557812,3.278375816293823e-09,0.005192412639707608,3.278375816293823e-09,0.001842972176392791,3.278375816293823e-09,0.7102087868299016
3.284038743405605e-09,0.0051924868340809,3.284038743405605e-09,0.005192487133792522,3.284038743405605e-09,0.005192413078923794,3.284038743405605e-09,0.001842939885339162,3.284038743405605e-09,0.7133548574475584
3.288382936183592e-09,0.00519248673041829,3.288382936183592e-09,0.005192487133647944,3.288382936183592e-09,0.005192413529208601,3.288382936183592e-09,0.00184295521387919,3.288382936183592e-09,0.7157682978797731
3.292175707476568e-09,0.005192487094490108,3.292175707476568e-09,0.005192487135649628,3.292175707476568e-09,0.005192413011675313,3.292175707476568e-09,0.001843113465594073,3.292175707476568e-09,0.717875393042538
3.295872364923268e-09,0.005192490884757307,3.295872364923268e-09,0.005192487151921102,3.295872364923268e-09,0.005192409537002472,3.295872364923268e-09,0.001843799415005912,3.295872364923268e-09,0.7199290916240378
3.299287637976353e-09,0.005192494683053106,3.299287637976353e-09,0.005192487152529909,3.299287637976353e-09,0.005192406570960738,3.299287637976353e-09,0.001845854737542843,3.299287637976353e-09,0.7218264655424181
3.302885994684264e-09,0.005192460161014672,3.302885994684264e-09,0.005192486958843449,3.302885994684264e-09,0.005192405732522262,3.302885994684264e-09,0.001848659119366035,3.302885994684264e-09,0.7238255526023688
3.305328488454495e-09,0.005192397276222503,3.305328488454495e-09,0.005192486710155302,3.305328488454495e-09,0.005192406732680142,3.305328488454495e-09,0.001847487694620228,3.305328488454495e-09,0.7251824935858306
3.307927941967889e-09,0.005192376069795146,3.307927941967889e-09,0.005192486936720273,3.307927941967889e-09,0.005192416760731856,3.307927941967889e-09,0.001836861862022605,3.307927941967889e-09,0.7266266344266049
3.310218596513026e-09,0.005192415889430182,3.310218596513026e-09,0.005192487741856017,3.310218596513026e-09,0.005192427431409945,3.310218596513026e-09,0.001812617383692294,3.310218596513026e-09,0.7278992202850147
3.3133934326865e-09,0.005192565409185269,3.3133934326865e-09,0.005192488304775595,3.3133934326865e-09,0.00519242837964751,3.3133934326865e-09,0.001728998349616579,3.3133934326865e-09,0.7296630181591668
3.316812875706005e-09,0.005192696158963275,3.316812875706005e-09,0.005192488059951523,3.316812875706005e-09,0.005192431557403442,3.316812875706005e-09,0.001536598763424123,3.316812875706005e-09,0.7315627087255582
3.319992800304049e-09,0.005192899228538545,3.319992800304049e-09,0.005192487331202066,3.319992800304049e-09,0.005192441514437999,3.319992800304049e-09,0.001323342004579203,3.319992800304049e-09,0.7333293335022493
3.322748972021579e-09,0.005193894234028518,3.322748972021579e-09,0.005192486256573042,3.322748972021579e-09,0.005192443395753951,3.322748972021579e-09,0.001249161029195729,3.322748972021579e-09,0.7348605400119884
3.325433348696137e-09,0.005195463675873321,3.325433348696137e-09,0.005192484444374193,3.325433348696137e-09,0.005192436572226468,3.325433348696137e-09,0.001311510353005061,3.325433348696137e-09,0.7363518603867428
3.328404999622602e-09,0.00519640430989112,3.328404999622602e-09,0.005192487335119319,3.328404999622602e-09,0.005192424925926757,3.328404999622602e-09,0.001448807823745985,3.328404999622602e-09,0.7380027775681124
3.331913883315353e-09,0.005192921503626119,3.331913883315353e-09,0.005192489712953993,3.331913883315353e-09,0.005192412836925691,3.331913883315353e-09,0.001486655775040277,3.331913883315353e-09,0.7399521573974185
3.334852746832132e-09,0.005185564537308817,3.334852746832132e-09,0.005192489179957492,3.334852746832132e-09,0.005192403884595733,3.334852746832132e-09,0.00122849759283884,3.334852746832132e-09,0.7415848593511843
3.337361453110594e-09,0.005178581759204267,3.337361453110594e-09,0.005192483747486966,3.337361453110594e-09,0.005192396724707812,3.337361453110594e-09,0.0007338789193919383,3.337361453110594e-09,0.7429785850614412
3.340424099833379e-09,0.005156370802841845,3.340424099833379e-09,0.005192480699113964,3.340424099833379e-09,0.005192388229942579,3.340424099833379e-09,-1.501721335304152e-05,3.340424099833379e-09,0.7446800554629883
3.343110053785294e-09,0.004980778329283286,3.343110053785294e-09,0.005192489982523251,3.343110053785294e-09,0.005192380057729692,3.343110053785294e-09,-0.0005365988929988614,3.343110053785294e-09,0.7461722521029414
3.345999971945312e-09,0.004300653376703446,3.345999971945312e-09,0.005192502450414232,3.345999971945312e-09,0.005192372738950823,3.345999971945312e-09,-0.0008216988063427326,3.345999971945312e-09,0.7477777621918401
3.349098618253316e-09,0.005157112283826788,3.349098618253316e-09,0.005192510810513642,3.349098618253316e-09,0.005192374192651674,3.349098618253316e-09,-0.0006732201953384631,3.349098618253316e-09,0.7494992323629535
3.352089836420468e-09,0.01515302608307078,3.352089836420468e-09,0.005192510941419508,3.352089836420468e-09,0.005192381302962765,3.352089836420468e-09,-3.030262105439322e-05,3.352089836420468e-09,0.7511610202335931
3.355096294606714e-09,0.04374054261634475,3.355096294606714e-09,0.00519249233254332,3.355096294606714e-09,0.005192390823293855,3.355096294606714e-09,0.0008264368292348454,3.355096294606714e-09,0.7528312747815079
3.357814992189347e-09,0.08924720690174752,3.357814992189347e-09,0.005192463301558798,3.357814992189347e-09,0.005192402802260807,3.357814992189347e-09,0.001155333749403097,3.357814992189347e-09,0.7543416623274147
3.360031790157395e-09,0.1414488042364274,3.360031790157395e-09,0.005192448908538191,3.360031790157395e-09,0.005192420781948217,3.360031790157395e-09,0.001490564161546806,3.360031790157395e-09,0.7555732167541082
3.36271793777862e-09,0.2261364906266269,3.36271793777862e-09,0.005192415896211921,3.36271793777862e-09,0.005192418819350855,3.36271793777862e-09,0.002358943938063151,3.36271793777862e-09,0.7570655209881221
3.36532714848686e-09,0.3282323775112426,3.36532714848686e-09,0.005192384841281032,3.36532714848686e-09,0.005192404099433316,3.36532714848686e-09,0.003195417753436623,3.36532714848686e-09,0.7585150824927002
3.368924748314408e-09,0.4783341506627549,3.368924748314408e-09,0.005192391889131636,3.368924748314408e-09,0.005192414228319777,3.368924748314408e-09,0.00395812198132516,3.368924748314408e-09,0.7605137490635601
3.371527951532492e-09,0.5771304586911711,3.371527951532492e-09,0.005192406872547332,3.371527951532492e-09,0.005192418763265074,3.371527951532492e-09,0.004123219307170093,3.371527951532492e-09,0.7619599730736069
3.374212380859875e-09,0.6625107594874148,3.374212380859875e-09,0.005192421522668239,3.374212380859875e-09,0.005192418706817153,3.374212380859875e-09,0.004067210013221391,3.374212380859875e-09,0.7634513226999308
3.376870972311941e-09,0.7473861398291171,3.376870972311941e-09,0.005192432316005614,3.376870972311941e-09,0.005192411493422393,3.376870972311941e-09,0.003847412096253753,3.376870972311941e-09,0.7649283179510783
3.379519300618656e-09,0.8916256014017959,3.379519300618656e-09,0.005192443782798073,3.379519300618656e-09,0.005192404758574833,3.379519300618656e-09,0.003557818945103551,3.379519300618656e-09,0.7663996114548086
3.382356448257669e-09,1.226870193130687,3.382356448257669e-09,0.005192459288509605,3.382356448257669e-09,0.00519240002037403,3.382356448257669e-09,0.003231203638928065,3.382356448257669e-09,0.7679758045875936
3.384616117066914e-09,1.742909595080519,3.384616117066914e-09,0.005192472922896747,3.384616117066914e-09,0.005192398382988382,3.384616117066914e-09,0.003008545794872572,3.384616117066914e-09,0.7692311761482854
3.386680197924557e-09,2.424270212752647,3.386680197924557e-09,0.005192487030020306,3.386680197924557e-09,0.005192398807087125,3.386680197924557e-09,0.002832201928261561,3.386680197924557e-09,0.7703778877358649
3.388160964280389e-09,2.972333664919359,3.388160964280389e-09,0.005192497125297415,3.388160964280389e-09,0.005192399750339929,3.388160964280389e-09,0.00272537058660728,3.388160964280389e-09,0.7712005357113272
3.389922578625019e-09,3.580261447836096,3.389922578625019e-09,0.005192510100197182,3.389922578625019e-09,0.005192402232404353,3.389922578625019e-09,0.002605305981522894,3.389922578625019e-09,0.7721792103472327
3.391422345371647e-09,3.985723841297555,3.391422345371647e-09,0.005192520560982076,3.391422345371647e-09,0.005192404360390786,3.391422345371647e-09,0.002514679384629036,3.391422345371647e-09,0.7730124140953593
3.392980249643956e-09,4.28750402306397,3.392980249643956e-09,0.005192531493716443,3.392980249643956e-09,0.00519240714886984,3.392980249643956e-09,0.002426874852166529,3.392980249643956e-09,0.7738779164688644
3.395613464611032e-09,4.613891730678167,3.395613464611032e-09,0.005192547526513618,3.395613464611032e-09,0.00519241072997396,3.395613464611032e-09,0.002300571340180636,3.395613464611032e-09,0.7753408136727957
3.397597595073402e-09,4.754729463635395,3.397597595073402e-09,0.005192558316086789,3.397597595073402e-09,0.005192413277390616,3.397597595073402e-09,0.002220680592974746,3.397597595073402e-09,0.7764431083741125
3.400030867437427e-09,4.858428477894537,3.400030867437427e-09,0.005192569194097915,3.400030867437427e-09,0.005192415277782863,3.400030867437427e-09,0.002141380476739673,3.400030867437427e-09,0.7777949263541261
3.40257039359015e-09,4.91737632964733,3.40257039359015e-09,0.005192578790277888,3.40257039359015e-09,0.005192417123143366,3.40257039359015e-09,0.0020744917854307,3.40257039359015e-09,0.7792057742167497
3.405770844987048e-09,4.955564784992847,3.405770844987048e-09,0.005192587942362376,3.405770844987048e-09,0.005192418378416246,3.405770844987048e-09,0.00201063748527082,3.405770844987048e-09,0.7809838027705821
3.409428433798905e-09,4.974603052836835,3.409428433798905e-09,0.005192595468313617,3.409428433798905e-09,0.005192419369672896,3.409428433798905e-09,0.001957767323266518,3.409428433798905e-09,0.7830157965549472
3.414301138587705e-09,4.984660457249422,3.414301138587705e-09,0.005192600997229079,3.414301138587705e-09,0.00519241947601017,3.414301138587705e-09,0.001911949068338274,3.414301138587705e-09,0.7857228547709472
3.420356271584602e-09,4.988512360578897,3.420356271584602e-09,0.005192603090947554,3.420356271584602e-09,0.005192419225278736,3.420356271584602e-09,0.001878506441435868,3.420356271584602e-09,0.7890868175470011
3.429399825840552e-09,4.990312335750152,3.429399825840552e-09,0.005192599516042934,3.429399825840552e-09,0.005192418166042609,3.429399825840552e-09,0.00185557354060323,3.429399825840552e-09,0.7941110143558621
3.44125510419344e-09,4.990899089682015,3.44125510419344e-09,0.005192588818281897,3.44125510419344e-09,0.005192417332298961,3.44125510419344e-09,0.001845328612007213,3.44125510419344e-09,0.8006972801074667
3.456245034764781e-09,4.991300459168367,3.456245034764781e-09,0.005192571544507264,3.456245034764781e-09,0.005192416488158723,3.456245034764781e-09,0.001843203830295402,3.456245034764781e-09,0.8090250193137672
3.475352216748142e-09,4.991395997685354,3.475352216748142e-09,0.005192550033943191,3.475352216748142e-09,0.00519241590900343,3.475352216748142e-09,0.001842787320594505,3.475352216748142e-09,0.8196401204156345
