/net039 X,/net039 Y,/net010 X,/net010 Y,/net09 X,/net09 Y,/net08 X,/net08 Y,/net02 X,/net02 Y
0,0.005567632728995236,0,0.005567632728243796,0,0.005567538060377983,0,0.001944260621807322,0,0
1.5e-11,0.005567632728995056,1.5e-11,0.005567632728243644,1.5e-11,0.005567538060420588,1.5e-11,0.001944260621805477,1.5e-11,0
4.5e-11,0.005567632728994911,4.5e-11,0.005567632728243621,4.5e-11,0.005567538060534994,4.5e-11,0.001944260621807898,4.5e-11,0
1.05e-10,0.00556763272899515,1.05e-10,0.005567632728243305,1.05e-10,0.005567538060679549,1.05e-10,0.001944260621807274,1.05e-10,0
2.25e-10,0.005567632728994521,2.25e-10,0.005567632728240345,2.25e-10,0.005567538060686376,2.25e-10,0.001944260621806982,2.25e-10,0
4.65e-10,0.005567632728992964,4.65e-10,0.005567632728247894,4.65e-10,0.005567538060679974,4.65e-10,0.001944260621807723,4.65e-10,0
7.649999999999999e-10,0.005567632728997573,7.649999999999999e-10,0.005567632728239495,7.649999999999999e-10,0.005567538060683554,7.649999999999999e-10,0.001944260621806725,7.649999999999999e-10,0
1.065e-09,0.005567632728991778,1.065e-09,0.005567632728246515,1.065e-09,0.005567538060679636,1.065e-09,0.001944260621807868,1.065e-09,0
1.365e-09,0.005567632728996866,1.365e-09,0.005567632728240576,1.365e-09,0.005567538060685662,1.365e-09,0.001944260621806634,1.365e-09,0
1.665e-09,0.00556763272899254,1.665e-09,0.005567632728245392,1.665e-09,0.005567538060680101,1.665e-09,0.001944260621807994,1.665e-09,0
1.8325e-09,0.005567632728996417,1.8325e-09,0.005567632728242178,1.8325e-09,0.005567538060682655,1.8325e-09,0.001944260621806636,1.8325e-09,0
2e-09,0.005567632728992603,2e-09,0.005567632728244334,2e-09,0.005567538060682369,2e-09,0.001944260621807752,2e-09,0
2.120144127384571e-09,0.005567632728992938,2.120144127384571e-09,0.005567632728237915,2.120144127384571e-09,0.005567538060833984,2.120144127384571e-09,0.001944260622742099,2.120144127384571e-09,0.06674673743587282
2.261585129605973e-09,0.005567632728986915,2.261585129605973e-09,0.005567632728224044,2.261585129605973e-09,0.005567538061403256,2.261585129605973e-09,0.001944260620557698,2.261585129605973e-09,0.1453250720033182
2.400273538304042e-09,0.005567632728969839,2.400273538304042e-09,0.005567632728182631,2.400273538304042e-09,0.005567538062591161,2.400273538304042e-09,0.001944260623636122,2.400273538304042e-09,0.2223741879466899
2.444892759635417e-09,0.005567632728964165,2.444892759635417e-09,0.005567632728169864,2.444892759635417e-09,0.005567538062931048,2.444892759635417e-09,0.001944260622562536,2.444892759635417e-09,0.2471626442418982
2.500736557829811e-09,0.005567632728951779,2.500736557829811e-09,0.005567632728136085,2.500736557829811e-09,0.005567538063024335,2.500736557829811e-09,0.001944260617748853,2.500736557829811e-09,0.2781869765721173
2.561053534377591e-09,0.005567632728939205,2.561053534377591e-09,0.005567632728109909,2.561053534377591e-09,0.005567538063206656,2.561053534377591e-09,0.001944260626725215,2.561053534377591e-09,0.3116964079875502
2.615354068130988e-09,0.005567632728934269,2.615354068130988e-09,0.005567632728086701,2.615354068130988e-09,0.005567538063450439,2.615354068130988e-09,0.001944260615014581,2.615354068130988e-09,0.3418633711838822
2.640446961780222e-09,0.005567632728922784,2.640446961780222e-09,0.005567632728075192,2.640446961780222e-09,0.005567538063463283,2.640446961780222e-09,0.001944260630941648,2.640446961780222e-09,0.3558038676556787
2.689029296852299e-09,0.005567632728920888,2.689029296852299e-09,0.005567632728057881,2.689029296852299e-09,0.005567538063595343,2.689029296852299e-09,0.001944260608794277,2.689029296852299e-09,0.3827940538068327
2.726337963651957e-09,0.00556763272891266,2.726337963651957e-09,0.00556763272804379,2.726337963651957e-09,0.005567538063598209,2.726337963651957e-09,0.001944260636802011,2.726337963651957e-09,0.403521090917754
2.771648416952265e-09,0.00556763272890799,2.771648416952265e-09,0.005567632728027488,2.771648416952265e-09,0.005567538063728388,2.771648416952265e-09,0.001944260602958283,2.771648416952265e-09,0.4286935649734804
2.820249582084317e-09,0.005567632728899815,2.820249582084317e-09,0.00556763272801093,2.820249582084317e-09,0.00556753806370616,2.820249582084317e-09,0.001944260640075618,2.820249582084317e-09,0.4556942122690649
2.858002277158252e-09,0.005567632728895503,2.858002277158252e-09,0.005567632727996648,2.858002277158252e-09,0.005567538063747892,2.858002277158252e-09,0.001944260601013755,2.858002277158252e-09,0.4766679317545844
2.886540874819291e-09,0.005567632728889969,2.886540874819291e-09,0.005567632727987351,2.886540874819291e-09,0.005567538063808372,2.886540874819291e-09,0.001944260639285824,2.886540874819291e-09,0.4925227082329396
2.919003809714262e-09,0.005567632728891209,2.919003809714262e-09,0.005567632727980248,2.919003809714262e-09,0.005567538063654487,2.919003809714262e-09,0.001944260604132417,2.919003809714262e-09,0.510557672063479
2.948640762087112e-09,0.005567632728880422,2.948640762087112e-09,0.005567632727969186,2.948640762087112e-09,0.005567538063899463,2.948640762087112e-09,0.001944260633950279,2.948640762087112e-09,0.527022645603951
3.007914666832811e-09,0.005567632728880438,3.007914666832811e-09,0.00556763272795322,3.007914666832811e-09,0.005567538063547986,3.007914666832811e-09,0.001944260608625872,3.007914666832811e-09,0.5599525926848951
3.053581392445144e-09,0.005567632728870253,3.053581392445144e-09,0.005567632727938285,3.053581392445144e-09,0.005567538063872643,3.053581392445144e-09,0.00194426062995203,3.053581392445144e-09,0.5853229958028576
3.093884231243365e-09,0.005567632728870282,3.093884231243365e-09,0.005567632727936531,3.093884231243365e-09,0.005567538063440523,3.093884231243365e-09,0.001944260613280456,3.093884231243365e-09,0.6077134618018692
3.10607726782639e-09,0.005567632728866463,3.10607726782639e-09,0.00556763272792822,3.10607726782639e-09,0.005567538063856698,3.10607726782639e-09,0.001944260621617909,3.10607726782639e-09,0.6144873710146612
3.130463340992442e-09,0.005567632728866722,3.130463340992442e-09,0.005567632727928295,3.130463340992442e-09,0.005567538063459782,3.130463340992442e-09,0.001944260625878013,3.130463340992442e-09,0.6280351894402454
3.160574881774368e-09,0.005567632728876666,3.160574881774368e-09,0.005567632727917219,3.160574881774368e-09,0.005567538065744082,3.160574881774368e-09,0.001944260714057799,3.160574881774368e-09,0.6447638232079824
3.188995218493714e-09,0.005567632728890055,3.188995218493714e-09,0.005567632727918384,3.188995218493714e-09,0.005567538087175892,3.188995218493714e-09,0.00194426168610349,3.188995218493714e-09,0.6605528991631745
3.216665814633472e-09,0.005567632727027923,3.216665814633472e-09,0.005567632727907222,3.216665814633472e-09,0.005567538164141807,3.216665814633472e-09,0.001944262371607782,3.216665814633472e-09,0.6759254525741508
3.240770810753269e-09,0.005567632711421708,3.240770810753269e-09,0.005567632727896137,3.240770810753269e-09,0.005567538107533117,3.240770810753269e-09,0.001944254416879725,3.240770810753269e-09,0.6893171170851494
3.245438697343368e-09,0.005567632704937685,3.245438697343368e-09,0.005567632727888362,3.245438697343368e-09,0.005567538016681303,3.245438697343368e-09,0.001944244027244461,3.245438697343368e-09,0.6919103874129824
3.254774470523567e-09,0.005567632684412244,3.254774470523567e-09,0.005567632727884391,3.254774470523567e-09,0.005567537884367667,3.254774470523567e-09,0.001944256759040577,3.254774470523567e-09,0.6970969280686484
3.262420966102905e-09,0.005567632653574022,3.262420966102905e-09,0.005567632727834634,3.262420966102905e-09,0.005567536891504909,3.262420966102905e-09,0.001944269145714475,3.262420966102905e-09,0.7013449811682804
3.270288191663311e-09,0.005567632613677125,3.270288191663311e-09,0.005567632728104554,3.270288191663311e-09,0.005567537118789871,3.270288191663311e-09,0.00194425915857372,3.270288191663311e-09,0.7057156620351729
3.277505849439905e-09,0.005567632533755001,3.277505849439905e-09,0.005567632727478609,3.277505849439905e-09,0.005567537625065174,3.277505849439905e-09,0.001944244359135467,3.277505849439905e-09,0.7097254719110583
3.283162723115359e-09,0.005567632418410009,3.283162723115359e-09,0.005567632727431393,3.283162723115359e-09,0.005567537788771079,3.283162723115359e-09,0.001944213230565651,3.283162723115359e-09,0.7128681795085329
3.287595522552119e-09,0.005567632306550428,3.287595522552119e-09,0.005567632727619602,3.287595522552119e-09,0.005567538283970956,3.287595522552119e-09,0.001944216554310035,3.287595522552119e-09,0.715330845862288
3.291274092088312e-09,0.005567632341117297,3.291274092088312e-09,0.005567632727917315,3.291274092088312e-09,0.00556753797254711,3.291274092088312e-09,0.001944322575404937,3.291274092088312e-09,0.717374495604618
3.295216199440525e-09,0.005567634309647634,3.295216199440525e-09,0.00556763273665637,3.295216199440525e-09,0.005567534822270077,3.295216199440525e-09,0.001944804546820866,3.295216199440525e-09,0.7195645552447363
3.298541147147638e-09,0.005567638552769512,3.298541147147638e-09,0.005567632749408464,3.298541147147638e-09,0.005567532052203218,3.298541147147638e-09,0.001946282785163154,3.298541147147638e-09,0.7214117484153542
3.302189067306878e-09,0.00556761714129828,3.302189067306878e-09,0.005567632621696414,3.302189067306878e-09,0.005567531346320196,3.302189067306878e-09,0.001949044833193105,3.302189067306878e-09,0.7234383707260431
3.305851483347855e-09,0.005567553401782344,3.305851483347855e-09,0.005567632427040227,3.305851483347855e-09,0.005567535893566311,3.305851483347855e-09,0.001947185785007839,3.305851483347855e-09,0.7254730463043637
3.308499437800595e-09,0.005567552839003224,3.308499437800595e-09,0.005567632662433977,3.308499437800595e-09,0.005567546020522547,3.308499437800595e-09,0.001935268643455853,3.308499437800595e-09,0.7269441321114416
3.310963385070156e-09,0.005567612557039636,3.310963385070156e-09,0.005567633479499776,3.310963385070156e-09,0.005567556302815049,3.310963385070156e-09,0.001905161133987276,3.310963385070156e-09,0.728312991705642
3.313931760334606e-09,0.005567758597032911,3.313931760334606e-09,0.005567633825641628,3.313931760334606e-09,0.005567557204497489,3.313931760334606e-09,0.001818466713737824,3.313931760334606e-09,0.7299620890747813
3.317287546569702e-09,0.00556790598614599,3.317287546569702e-09,0.005567633523568183,3.317287546569702e-09,0.00556755977841351,3.317287546569702e-09,0.001625257724471081,3.317287546569702e-09,0.7318264147609453
3.320211375045072e-09,0.005568157341488624,3.320211375045072e-09,0.00556763278928917,3.320211375045072e-09,0.005567568129189653,3.320211375045072e-09,0.001436954084009694,3.320211375045072e-09,0.7334507639139289
3.322904634774225e-09,0.005569121509031189,3.322904634774225e-09,0.005567631738053219,3.322904634774225e-09,0.005567567295167434,3.322904634774225e-09,0.001370937170340698,3.322904634774225e-09,0.7349470193190141
3.325560092121004e-09,0.00557044949950093,3.325560092121004e-09,0.005567630282802937,3.325560092121004e-09,0.005567559002960948,3.325560092121004e-09,0.001432166184299218,3.325560092121004e-09,0.736422273400558
3.328706002245717e-09,0.005570699665024416,3.328706002245717e-09,0.005567633173682271,3.328706002245717e-09,0.005567545150525482,3.328706002245717e-09,0.001564816551386598,3.328706002245717e-09,0.7381700012476202
3.332077184857192e-09,0.005566431039063241,3.332077184857192e-09,0.005567634874791417,3.332077184857192e-09,0.005567532767427896,3.332077184857192e-09,0.001569645706727102,3.332077184857192e-09,0.7400428804762177
3.334979061453671e-09,0.005559010844831997,3.334979061453671e-09,0.005567633859890791,3.334979061453671e-09,0.005567523286775171,3.334979061453671e-09,0.001281032874611999,3.334979061453671e-09,0.7416550341409284
3.337493745162784e-09,0.005552667269713023,3.337493745162784e-09,0.005567628710928673,3.337493745162784e-09,0.005567515837664593,3.337493745162784e-09,0.0007643098752325844,3.337493745162784e-09,0.743052080645991
3.340679366038989e-09,0.005526074582052508,3.340679366038989e-09,0.005567628393228456,3.340679366038989e-09,0.005567506959239459,3.340679366038989e-09,3.922613208114083e-06,3.340679366038989e-09,0.7448218700216604
3.343312195345915e-09,0.005330902029636386,3.343312195345915e-09,0.005567639276238797,3.343312195345915e-09,0.005567499281306149,3.343312195345915e-09,-0.0004646455065997437,3.343312195345915e-09,0.7462845529699528
3.346237103727182e-09,0.004712559700112909,3.346237103727182e-09,0.005567650409553975,3.346237103727182e-09,0.005567494037128482,3.346237103727182e-09,-0.0006887855790436023,3.346237103727182e-09,0.7479095020706569
3.349342843240369e-09,0.006356239489872505,3.349342843240369e-09,0.005567655044030674,3.349342843240369e-09,0.005567498333088618,3.349342843240369e-09,-0.0004500156388560342,3.349342843240369e-09,0.7496349129113163
3.352236411890391e-09,0.01743711704270446,3.352236411890391e-09,0.005567649239127458,3.352236411890391e-09,0.005567507034259731,3.352236411890391e-09,0.0002428276889201812,3.352236411890391e-09,0.7512424510502169
3.355346852769647e-09,0.04865793010480777,3.355346852769647e-09,0.005567622934904778,3.355346852769647e-09,0.00556751836705367,3.355346852769647e-09,0.001070404280015615,3.355346852769647e-09,0.7529704737609152
3.357930647819717e-09,0.09287349729263736,3.357930647819717e-09,0.005567594270087331,3.357930647819717e-09,0.005567531960767071,3.357930647819717e-09,0.001338965352589322,3.357930647819717e-09,0.7544059154553985
3.360173771530932e-09,0.1467464149893995,3.360173771530932e-09,0.005567578516850371,3.360173771530932e-09,0.005567547772813986,3.360173771530932e-09,0.001728437812868985,3.360173771530932e-09,0.7556520952949621
3.362852989673412e-09,0.2333725275300539,3.362852989673412e-09,0.005567544523857315,3.362852989673412e-09,0.005567540877957947,3.362852989673412e-09,0.002623746652888437,3.362852989673412e-09,0.7571405498185624
3.365446343623908e-09,0.3365078481503272,3.365446343623908e-09,0.005567520993433362,3.365446343623908e-09,0.005567528446991899,3.365446343623908e-09,0.003428504268889886,3.365446343623908e-09,0.758581302013282
3.368722326814256e-09,0.4734597913666606,3.368722326814256e-09,0.005567535584916266,3.368722326814256e-09,0.00556754018724315,3.368722326814256e-09,0.004069944225224852,3.368722326814256e-09,0.7604012926745868
3.371272262902659e-09,0.5703632275977488,3.371272262902659e-09,0.005567552721946852,3.371272262902659e-09,0.005567543873689881,3.371272262902659e-09,0.004205642858570132,3.371272262902659e-09,0.7618179238348105
3.373909583386602e-09,0.6556305697045075,3.373909583386602e-09,0.005567568829466503,3.373909583386602e-09,0.005567542756181197,3.373909583386602e-09,0.004132542849589857,3.373909583386602e-09,0.7632831018814453
3.376582122536811e-09,0.7443454361210146,3.376582122536811e-09,0.005567581476463435,3.376582122536811e-09,0.005567534719149983,3.376582122536811e-09,0.003899401982079613,3.376582122536811e-09,0.7647678458537841
3.379161696222893e-09,0.8911997769815974,3.379161696222893e-09,0.005567595010713683,3.379161696222893e-09,0.005567528272106423,3.379161696222893e-09,0.003609956293249614,3.379161696222893e-09,0.766200942346052
3.381958761889002e-09,1.231525839442834,3.381958761889002e-09,0.005567612904355873,3.381958761889002e-09,0.005567523941233999,3.381958761889002e-09,0.00328758000965139,3.381958761889002e-09,0.7677548677161121
3.38419013565047e-09,1.75146599336992,3.38419013565047e-09,0.005567628523254761,3.38419013565047e-09,0.005567522872205608,3.38419013565047e-09,0.003069123053459611,3.38419013565047e-09,0.7689945198058169
3.386237963673814e-09,2.437789552845696,3.386237963673814e-09,0.005567644350124087,3.386237963673814e-09,0.005567523762137312,3.386237963673814e-09,0.002896775399569803,3.386237963673814e-09,0.7701322020410075
3.387705167353641e-09,2.987172964015549,3.387705167353641e-09,0.005567655688340334,3.387705167353641e-09,0.005567525156279286,3.387705167353641e-09,0.002792775385029453,3.387705167353641e-09,0.7709473151964674
3.389440383137244e-09,3.590704151962838,3.389440383137244e-09,0.005567669752477531,3.389440383137244e-09,0.005567527922918146,3.389440383137244e-09,0.002676549041813346,3.389440383137244e-09,0.7719113239651355
3.39092223731255e-09,3.993206203306182,3.39092223731255e-09,0.005567681158282269,3.39092223731255e-09,0.005567530361109398,3.39092223731255e-09,0.002588564207448441,3.39092223731255e-09,0.7727345762847497
3.392467622135353e-09,4.294064165518755,3.392467622135353e-09,0.005567692853423577,3.392467622135353e-09,0.005567533277609388,3.392467622135353e-09,0.002502904904636029,3.392467622135353e-09,0.7735931234085296
3.395200037281102e-09,4.630161779059419,3.395200037281102e-09,0.005567710717385254,3.395200037281102e-09,0.005567537220315585,3.395200037281102e-09,0.002374992866794688,3.395200037281102e-09,0.7751111318228343
3.39717100366169e-09,4.765626660515467,3.39717100366169e-09,0.005567721962816597,3.39717100366169e-09,0.005567539718366802,3.39717100366169e-09,0.002298205901472756,3.39717100366169e-09,0.7762061131453831
3.399600121186103e-09,4.865342273662892,3.399600121186103e-09,0.005567733334516207,3.399600121186103e-09,0.005567541696553616,3.399600121186103e-09,0.002222237892537384,3.399600121186103e-09,0.7775556228811684
3.402114196922154e-09,4.921064431108256,3.402114196922154e-09,0.005567743123045109,3.402114196922154e-09,0.005567543412454712,3.402114196922154e-09,0.002158826800986318,3.402114196922154e-09,0.7789523316234191
3.405313415464028e-09,4.957408982115894,3.405313415464028e-09,0.005567752468576474,3.405313415464028e-09,0.005567544567885316,3.405313415464028e-09,0.002098564796070511,3.405313415464028e-09,0.7807296752577932
3.408965379162697e-09,4.975296060109661,3.408965379162697e-09,0.005567759890014455,3.408965379162697e-09,0.005567545371568828,3.408965379162697e-09,0.002048916035898956,3.408965379162697e-09,0.7827585439792762
3.413876690701019e-09,4.984793457763649,3.413876690701019e-09,0.005567765060271681,3.413876690701019e-09,0.005567545312928063,3.413876690701019e-09,0.002006230742012248,3.413876690701019e-09,0.7854870503894548
3.419979635849035e-09,4.988353852338197,3.419979635849035e-09,0.005567766235306986,3.419979635849035e-09,0.005567544851780118,3.419979635849035e-09,0.001975475544043986,3.419979635849035e-09,0.788877575471686
3.429172469106448e-09,4.990078137740942,3.429172469106448e-09,0.005567760796952389,3.429172469106448e-09,0.005567543648575206,3.429172469106448e-09,0.00195490084795468,3.429172469106448e-09,0.7939847050591377
3.441045772724639e-09,4.990623146213457,3.441045772724639e-09,0.005567747425285869,3.441045772724639e-09,0.005567542735236234,3.441045772724639e-09,0.001946038429654756,3.441045772724639e-09,0.8005809848470216
3.456080641335228e-09,4.99103553457145,3.456080641335228e-09,0.005567726877173462,3.456080641335228e-09,0.005567541852755229,3.456080641335228e-09,0.001944453536200333,3.456080641335228e-09,0.8089336896306824
3.475211513032326e-09,4.991114810686311,3.475211513032326e-09,0.005567701890234022,3.475211513032326e-09,0.005567541160829108,3.475211513032326e-09,0.001944025472367029,3.475211513032326e-09,0.8195619516846256
3.499836392173821e-09,4.991286506421305,3.499836392173821e-09,0.005567676218722635,3.499836392173821e-09,0.005567540085729784,3.499836392173821e-09,0.001944422179479265,3.499836392173821e-09,0.833242440096567
3.529659194345095e-09,4.991252540774112,3.529659194345095e-09,0.005567655991674424,3.529659194345095e-09,0.005567539287049359,3.529659194345095e-09,0.001944063108797038,3.529659194345095e-09,0.849810663525053
3.563523928584113e-09,4.991356434664672,3.563523928584113e-09,0.005567643427612176,3.563523928584113e-09,0.00556753858689506,3.563523928584113e-09,0.001944431240293479,3.563523928584113e-09,0.8686244047689513
3.596672046152111e-09,4.991290940909619,3.596672046152111e-09,0.005567637620770487,3.596672046152111e-09,0.005567538423638446,3.596672046152111e-09,0.001944077299141465,3.596672046152111e-09,0.8870400256400618
