/net039 X,/net039 Y,/net010 X,/net010 Y,/net09 X,/net09 Y,/net08 X,/net08 Y,/net02 X,/net02 Y
0,7.369521627089002e-05,0,7.369521627101064e-05,0,7.369521096569082e-05,0,6.438095764418665e-05,0,0
1.5e-11,7.369521627085534e-05,1.5e-11,7.369521627099632e-05,1.5e-11,7.36952109654014e-05,1.5e-11,6.438095762651711e-05,1.5e-11,0
4.5e-11,7.369521627098607e-05,4.5e-11,7.369521627091657e-05,4.5e-11,7.369521096566046e-05,4.5e-11,6.438095763520256e-05,4.5e-11,0
1.05e-10,7.369521626917361e-05,1.05e-10,7.369521626961085e-05,1.05e-10,7.369521096423865e-05,1.05e-10,6.438095764385838e-05,1.05e-10,0
2.25e-10,7.369521627259511e-05,2.25e-10,7.369521627230914e-05,2.25e-10,7.369521096491613e-05,2.25e-10,6.438095763978342e-05,2.25e-10,0
4.65e-10,7.369521626921417e-05,4.65e-10,7.36952162698714e-05,4.65e-10,7.369521096688486e-05,4.65e-10,6.43809576441269e-05,4.65e-10,0
7.649999999999999e-10,7.369521626950947e-05,7.649999999999999e-10,7.369521627220581e-05,7.649999999999999e-10,7.369521096217812e-05,7.649999999999999e-10,6.438095764076583e-05,7.649999999999999e-10,0
1.065e-09,7.369521627238995e-05,1.065e-09,7.369521626986247e-05,1.065e-09,7.369521096996557e-05,1.065e-09,6.438095764485785e-05,1.065e-09,0
1.365e-09,7.369521626959179e-05,1.365e-09,7.36952162723204e-05,1.365e-09,7.36952109621909e-05,1.365e-09,6.438095764120683e-05,1.365e-09,0
1.665e-09,7.36952162723047e-05,1.665e-09,7.369521626983373e-05,1.665e-09,7.369521097011778e-05,1.665e-09,6.438095764497745e-05,1.665e-09,0
1.8325e-09,7.369521627287055e-05,1.8325e-09,7.36952162722092e-05,1.8325e-09,7.369521096152377e-05,1.8325e-09,6.438095764207815e-05,1.8325e-09,0
2e-09,7.369521626891523e-05,2e-09,7.369521627270338e-05,2e-09,7.369521096745598e-05,2e-09,6.43809576449066e-05,2e-09,0
2.120144127384571e-09,7.369521627076154e-05,2.120144127384571e-09,7.369521627100868e-05,2.120144127384571e-09,7.369521096564349e-05,2.120144127384571e-09,6.438096398469731e-05,2.120144127384571e-09,0.06674673743587282
2.261585129605973e-09,7.369521626946091e-05,2.261585129605973e-09,7.369521626919295e-05,2.261585129605973e-09,7.369521096398146e-05,2.261585129605973e-09,6.438088764028879e-05,2.261585129605973e-09,0.1453250720033182
2.400273538304042e-09,7.369521627209522e-05,2.400273538304042e-09,7.3695216272699e-05,2.400273538304042e-09,7.369521096924653e-05,2.400273538304042e-09,6.438093428193882e-05,2.400273538304042e-09,0.2223741879466899
2.455450261565025e-09,7.369521626707608e-05,2.455450261565025e-09,7.369521626954125e-05,2.455450261565025e-09,7.369521095066142e-05,2.455450261565025e-09,6.438091773597454e-05,2.455450261565025e-09,0.2530279230916805
2.483038623195516e-09,7.369521627421325e-05,2.483038623195516e-09,7.369521627221457e-05,2.483038623195516e-09,7.36952109953415e-05,2.483038623195516e-09,6.438088526931315e-05,2.483038623195516e-09,0.2683547906641757
2.538215346456499e-09,7.369521626776106e-05,2.538215346456499e-09,7.369521626982029e-05,2.538215346456499e-09,7.369521094373159e-05,2.538215346456499e-09,6.438091927047966e-05,2.538215346456499e-09,0.299008525809166
2.560737121398836e-09,7.369521627345335e-05,2.560737121398836e-09,7.369521627194454e-05,2.560737121398836e-09,7.369521095848793e-05,2.560737121398836e-09,6.438091079135454e-05,2.560737121398836e-09,0.3115206229993533
2.571998008870005e-09,7.369521626948147e-05,2.571998008870005e-09,7.369521627050451e-05,2.571998008870005e-09,7.369521097748835e-05,2.571998008870005e-09,6.438089773314614e-05,2.571998008870005e-09,0.3177766715944469
2.594519783812342e-09,7.369521627278219e-05,2.594519783812342e-09,7.369521627163908e-05,2.594519783812342e-09,7.369521096494135e-05,2.594519783812342e-09,6.438090591536513e-05,2.594519783812342e-09,0.3302887687846341
2.619292015544366e-09,7.369521626925296e-05,2.619292015544366e-09,7.369521627040467e-05,2.619292015544366e-09,7.369521096873237e-05,2.619292015544366e-09,6.438090412378545e-05,2.619292015544366e-09,0.3440511197468699
2.640503769765434e-09,7.369521627247797e-05,2.640503769765434e-09,7.369521627179934e-05,2.640503769765434e-09,7.369521095732391e-05,2.640503769765434e-09,6.438090120824977e-05,2.640503769765434e-09,0.3558354276474631
2.66068603188817e-09,7.369521627200369e-05,2.66068603188817e-09,7.369521627018597e-05,2.66068603188817e-09,7.369521097648358e-05,2.66068603188817e-09,6.4380904008513e-05,2.66068603188817e-09,0.3670477954934276
2.682055619276772e-09,7.369521626738234e-05,2.682055619276772e-09,7.369521627164948e-05,2.682055619276772e-09,7.369521095226608e-05,2.682055619276772e-09,6.438090014266024e-05,2.682055619276772e-09,0.3789197884870953
2.701703988604404e-09,7.369521627360271e-05,2.701703988604404e-09,7.369521627036218e-05,2.701703988604404e-09,7.369521097844132e-05,2.701703988604404e-09,6.438090242078258e-05,2.701703988604404e-09,0.3898355492246687
2.725079201383586e-09,7.36952162683893e-05,2.725079201383586e-09,7.369521627160968e-05,2.725079201383586e-09,7.369521095499316e-05,2.725079201383586e-09,6.438089955277266e-05,2.725079201383586e-09,0.4028217785464365
2.753399842659919e-09,7.369521627033907e-05,2.753399842659919e-09,7.369521627029682e-05,2.753399842659919e-09,7.369521097606777e-05,2.753399842659919e-09,6.438090083266365e-05,2.753399842659919e-09,0.4185554681443996
2.784176825806424e-09,7.369521627145389e-05,2.784176825806424e-09,7.369521627141486e-05,2.784176825806424e-09,7.369521095442456e-05,2.784176825806424e-09,6.438089866648285e-05,2.784176825806424e-09,0.4356537921146801
2.812895477102818e-09,7.369521627041616e-05,2.812895477102818e-09,7.369521627058535e-05,2.812895477102818e-09,7.369521097311959e-05,2.812895477102818e-09,6.438089942389047e-05,2.812895477102818e-09,0.4516085983904546
2.842817606890964e-09,7.369521627175241e-05,2.842817606890964e-09,7.369521627138488e-05,2.842817606890964e-09,7.369521095953933e-05,2.842817606890964e-09,6.438089791058261e-05,2.842817606890964e-09,0.4682320038283131
2.867139585824198e-09,7.369521627049186e-05,2.867139585824198e-09,7.369521627052882e-05,2.867139585824198e-09,7.369521097128911e-05,2.867139585824198e-09,6.43808983566324e-05,2.867139585824198e-09,0.4817442143467766
2.895104265130539e-09,7.369521627417417e-05,2.895104265130539e-09,7.369521627429585e-05,2.895104265130539e-09,7.369521095819547e-05,2.895104265130539e-09,6.43808973841099e-05,2.895104265130539e-09,0.4972801472947438
2.921090929981883e-09,7.369521626818476e-05,2.921090929981883e-09,7.369521626794826e-05,2.921090929981883e-09,7.369521097261715e-05,2.921090929981883e-09,6.438089752524769e-05,2.921090929981883e-09,0.5117171833232681
2.97306425968457e-09,7.369521627381452e-05,2.97306425968457e-09,7.369521627350019e-05,2.97306425968457e-09,7.369521095968088e-05,2.97306425968457e-09,6.438089670904491e-05,2.97306425968457e-09,0.5405912553803169
3.01589053222926e-09,7.36952162654079e-05,3.01589053222926e-09,7.36952162689625e-05,3.01589053222926e-09,7.36952109687249e-05,3.01589053222926e-09,6.438089669401714e-05,3.01589053222926e-09,0.5643836290162554
3.059187524506042e-09,7.369521627582068e-05,3.059187524506042e-09,7.369521627290664e-05,3.059187524506042e-09,7.369521096072565e-05,3.059187524506042e-09,6.438089626928214e-05,3.059187524506042e-09,0.5884375136144678
3.070300109813104e-09,7.369521627049938e-05,3.070300109813104e-09,7.369521626736084e-05,3.070300109813104e-09,7.369521096888703e-05,3.070300109813104e-09,6.438089632694413e-05,3.070300109813104e-09,0.594611172118391
3.092525280427227e-09,7.369521627481772e-05,3.092525280427227e-09,7.369521627454721e-05,3.092525280427227e-09,7.369521096242977e-05,3.092525280427227e-09,6.438089629382562e-05,3.092525280427227e-09,0.6069584891262373
3.099684254192596e-09,7.369521627126353e-05,3.099684254192596e-09,7.369521626956162e-05,3.099684254192596e-09,7.369521096589752e-05,3.099684254192596e-09,6.438089615031902e-05,3.099684254192596e-09,0.6109356967736645
3.114002201723335e-09,7.369521627153095e-05,3.114002201723335e-09,7.369521627275373e-05,3.114002201723335e-09,7.369521096517598e-05,3.114002201723335e-09,6.438089631939859e-05,3.114002201723335e-09,0.6188901120685192
3.124927069161133e-09,7.369521627035084e-05,3.124927069161133e-09,7.369521627219729e-05,3.124927069161133e-09,7.369521096575484e-05,3.124927069161133e-09,6.438089603073621e-05,3.124927069161133e-09,0.624959482867296
3.135313259469592e-09,7.369521627383392e-05,3.135313259469592e-09,7.369521627045655e-05,3.135313259469592e-09,7.369521097035104e-05,3.135313259469592e-09,6.438089646108962e-05,3.135313259469592e-09,0.6307295885942177
3.147649716046184e-09,7.369521626880766e-05,3.147649716046184e-09,7.369521627115522e-05,3.147649716046184e-09,7.369521096681831e-05,3.147649716046184e-09,6.438089633223125e-05,3.147649716046184e-09,0.6375831755812131
3.157684697106832e-09,7.369521627301423e-05,3.157684697106832e-09,7.369521627104262e-05,3.157684697106832e-09,7.369521098434225e-05,3.157684697106832e-09,6.438089736660044e-05,3.157684697106832e-09,0.6431581650593513
3.160409149076911e-09,7.369521626355687e-05,3.160409149076911e-09,7.36952162721197e-05,3.160409149076911e-09,7.369521079004515e-05,3.160409149076911e-09,6.438089395790354e-05,3.160409149076911e-09,0.6446717494871725
3.165858053017067e-09,7.36952162333841e-05,3.165858053017067e-09,7.369521627219112e-05,3.165858053017067e-09,7.369520963750028e-05,3.165858053017067e-09,6.438086238322728e-05,3.165858053017067e-09,0.6476989183428151
3.17675586089738e-09,7.369521629318714e-05,3.17675586089738e-09,7.369521626964556e-05,3.17675586089738e-09,7.369521037270384e-05,3.17675586089738e-09,6.438082409607146e-05,3.17675586089738e-09,0.6537532560541
3.184473711924343e-09,7.369521744107614e-05,3.184473711924343e-09,7.369521628739069e-05,3.184473711924343e-09,7.369525264573326e-05,3.184473711924343e-09,6.438202197952037e-05,3.184473711924343e-09,0.6580409510690792
3.195005775383878e-09,7.369521617862369e-05,3.195005775383878e-09,7.369521624296003e-05,3.195005775383878e-09,7.369522265121244e-05,3.195005775383878e-09,6.438295706651079e-05,3.195005775383878e-09,0.6638920974354876
3.202561376941222e-09,7.3695201922371e-05,3.202561376941222e-09,7.369521595338586e-05,3.202561376941222e-09,7.369364302581662e-05,3.202561376941222e-09,6.433923839314128e-05,3.202561376941222e-09,0.6680896538562344
3.210983694079574e-09,7.369520933601557e-05,3.210983694079574e-09,7.36952169351194e-05,3.210983694079574e-09,7.369457515877033e-05,3.210983694079574e-09,6.430795337482281e-05,3.210983694079574e-09,0.6727687189330968
3.218019528244586e-09,7.369526226941831e-05,3.218019528244586e-09,7.369521771961826e-05,3.218019528244586e-09,7.370461401008229e-05,3.218019528244586e-09,6.455495545254912e-05,3.218019528244586e-09,0.6766775156914366
3.224396208400982e-09,7.369530182075629e-05,3.224396208400982e-09,7.369521175424636e-05,3.224396208400982e-09,7.369254940141187e-05,3.224396208400982e-09,6.451658491203672e-05,3.224396208400982e-09,0.6802201157783232
3.231792190089466e-09,7.369518733594106e-05,3.231792190089466e-09,7.369521852740837e-05,3.231792190089466e-09,7.368657113713811e-05,3.231792190089466e-09,6.426175152474024e-05,3.231792190089466e-09,0.6843289944941476
3.239450059525809e-09,7.369516684480259e-05,3.239450059525809e-09,7.369521853527824e-05,3.239450059525809e-09,7.369868999776435e-05,3.239450059525809e-09,6.432182809143781e-05,3.239450059525809e-09,0.688583366403227
3.246950616285826e-09,7.369519937728231e-05,3.246950616285826e-09,7.369521317437883e-05,3.246950616285826e-09,7.369633612602737e-05,3.246950616285826e-09,6.43704541464592e-05,3.246950616285826e-09,0.6927503423810142
3.254159825933195e-09,7.369497837541266e-05,3.254159825933195e-09,7.369521662157225e-05,3.254159825933195e-09,7.369572881112535e-05,3.254159825933195e-09,6.438389269412671e-05,3.254159825933195e-09,0.696755458851775
3.261467823362942e-09,7.369488941828567e-05,3.261467823362942e-09,7.369521533094313e-05,3.261467823362942e-09,7.369347482355415e-05,3.261467823362942e-09,6.432322107505715e-05,3.261467823362942e-09,0.7008154574238568
3.267074250682615e-09,7.369293695889201e-05,3.267074250682615e-09,7.369520696363557e-05,3.267074250682615e-09,7.369034071669518e-05,3.267074250682615e-09,6.414985551532288e-05,3.267074250682615e-09,0.7039301392681194
3.271528925759872e-09,7.367737570270319e-05,3.271528925759872e-09,7.369512652589778e-05,3.271528925759872e-09,7.369030854426672e-05,3.271528925759872e-09,6.367899044383517e-05,3.271528925759872e-09,0.7064049587554841
3.275483845883065e-09,7.36493272526717e-05,3.275483845883065e-09,7.369505103532235e-05,3.275483845883065e-09,7.369860522869504e-05,3.275483845883065e-09,6.28786577757544e-05,3.275483845883065e-09,0.7086021366017029
3.279521485697277e-09,7.371669160884986e-05,3.279521485697277e-09,7.369567588770276e-05,3.279521485697277e-09,7.370893008817237e-05,3.279521485697277e-09,6.368964454792609e-05,3.279521485697277e-09,0.7108452698318203
3.282944075257344e-09,7.426954384411418e-05,3.282944075257344e-09,7.369903349479351e-05,3.282944075257344e-09,7.371330895158663e-05,3.282944075257344e-09,7.473373216482235e-05,3.282944075257344e-09,0.7127467084763025
3.286376489335965e-09,7.522479334925258e-05,3.286376489335965e-09,7.370140890881693e-05,3.286376489335965e-09,7.371068427892673e-05,3.286376489335965e-09,0.0001004136327533182,3.286376489335965e-09,0.7146536051866473
3.289553102811856e-09,7.49600716235914e-05,3.289553102811856e-09,7.369236863706499e-05,3.289553102811856e-09,7.370665028848326e-05,3.289553102811856e-09,0.0001084435232400477,3.289553102811856e-09,0.7164183904510314
3.291928258117707e-09,7.379940845969212e-05,3.291928258117707e-09,7.36840571829873e-05,3.291928258117707e-09,7.370285876986309e-05,3.291928258117707e-09,6.117652449167852e-05,3.291928258117707e-09,0.7177379211765036
3.294779353608344e-09,7.265548524176534e-05,3.294779353608344e-09,7.36852258216969e-05,3.294779353608344e-09,7.368033202282786e-05,3.294779353608344e-09,-0.0001637038820604587,3.294779353608344e-09,0.7193218631157466
3.298097001797357e-09,6.869785524190777e-05,3.298097001797357e-09,7.369738021791318e-05,3.298097001797357e-09,7.365572974356818e-05,3.298097001797357e-09,-0.0007974745599807475,3.298097001797357e-09,0.7211650009985316
3.302129562844884e-09,5.730955275211138e-05,3.302129562844884e-09,7.371546620181974e-05,3.302129562844884e-09,7.367962885374268e-05,3.302129562844884e-09,-0.001216676850170835,3.302129562844884e-09,0.723405312691602
3.305053046616184e-09,5.461394832341887e-05,3.305053046616184e-09,7.370564424072815e-05,3.305053046616184e-09,7.369557779890606e-05,3.305053046616184e-09,-0.0009768088558874933,3.305053046616184e-09,0.7250294703423241
3.30777206401288e-09,6.30492349445848e-05,3.30777206401288e-09,7.368620417399742e-05,3.30777206401288e-09,7.369163153748601e-05,3.30777206401288e-09,-0.0005981908843513982,3.30777206401288e-09,0.7265400355627109
3.310486936491912e-09,8.257522911350531e-05,3.310486936491912e-09,7.369029124589968e-05,3.310486936491912e-09,7.368822310659624e-05,3.310486936491912e-09,-0.0002740362610808473,3.310486936491912e-09,0.7280482980510619
3.313380916544489e-09,0.0001226736388855043,3.313380916544489e-09,7.371061473548646e-05,3.313380916544489e-09,7.368635309307133e-05,3.313380916544489e-09,-0.0002624021880270757,3.313380916544489e-09,0.7296560647469382
3.315831367679197e-09,0.000183162692915555,3.315831367679197e-09,7.37285278967838e-05,3.315831367679197e-09,7.368921573837019e-05,3.315831367679197e-09,-0.000676035655866847,3.315831367679197e-09,0.7310174264884425
3.31848438532595e-09,0.0003207755991268444,3.31848438532595e-09,7.372082775432565e-05,3.31848438532595e-09,7.369753678056033e-05,3.31848438532595e-09,-0.001516256677528027,3.31848438532595e-09,0.7324913251810835
3.3220777688598e-09,0.0003703805626500753,3.3220777688598e-09,7.367604835479481e-05,3.3220777688598e-09,7.371377432522109e-05,3.3220777688598e-09,-0.002709089934067206,3.3220777688598e-09,0.7344876493665554
3.324817852561417e-09,-0.002652702772995394,3.324817852561417e-09,7.363940058874264e-05,3.324817852561417e-09,7.371870067222944e-05,3.324817852561417e-09,-0.003357307910892649,3.324817852561417e-09,0.736009918089676
3.327786240093262e-09,-0.01053237604374905,3.327786240093262e-09,7.36182431225931e-05,3.327786240093262e-09,7.371609969995807e-05,3.327786240093262e-09,-0.003589562913087312,3.327786240093262e-09,0.7376590222740347
3.330762450980923e-09,-0.01111074927262979,3.330762450980923e-09,7.363142047717551e-05,3.330762450980923e-09,7.371138993573882e-05,3.330762450980923e-09,-0.003170480379508966,3.330762450980923e-09,0.7393124727671794
3.333407553051514e-09,0.02210538815875009,3.333407553051514e-09,7.366699840404117e-05,3.333407553051514e-09,7.370097063828251e-05,3.333407553051514e-09,-0.002358407955590978,3.333407553051514e-09,0.7407819739175076
3.335932454495239e-09,0.1004256438306071,3.335932454495239e-09,7.369987195723809e-05,3.335932454495239e-09,7.368355245871355e-05,3.335932454495239e-09,-0.00164722336535359,3.335932454495239e-09,0.7421846969417997
3.338072532555066e-09,0.1939473486607592,3.338072532555066e-09,7.373462775964458e-05,3.338072532555066e-09,7.368599210382257e-05,3.338072532555066e-09,-0.0009433081146278592,3.338072532555066e-09,0.7433736291972586
3.34063804308239e-09,0.3214972982062886,3.34063804308239e-09,7.376180212968304e-05,3.34063804308239e-09,7.369467409398136e-05,3.34063804308239e-09,0.0002166448569175303,3.34063804308239e-09,0.7447989128235498
3.343453802425782e-09,0.4719670576187401,3.343453802425782e-09,7.374475185329068e-05,3.343453802425782e-09,7.368401896680689e-05,3.343453802425782e-09,0.001442921658454327,3.343453802425782e-09,0.7463632235698786
3.346189697364866e-09,0.6120190595654408,3.346189697364866e-09,7.372222139200635e-05,3.346189697364866e-09,7.367994605345626e-05,3.346189697364866e-09,0.002385799544593712,3.346189697364866e-09,0.7478831652027033
3.349080149565222e-09,0.7320919218134111,3.349080149565222e-09,7.370315260824517e-05,3.349080149565222e-09,7.36798750791303e-05,3.349080149565222e-09,0.002933883764905238,3.349080149565222e-09,0.7494889719806789
3.351618240388097e-09,0.8042392279704705,3.351618240388097e-09,7.369809804304437e-05,3.351618240388097e-09,7.368585685216268e-05,3.351618240388097e-09,0.003058479683637272,3.351618240388097e-09,0.7508990224378319
3.354233821525409e-09,0.8678644333769021,3.354233821525409e-09,7.369870474258193e-05,3.354233821525409e-09,7.369581193784224e-05,3.354233821525409e-09,0.002939691802289829,3.354233821525409e-09,0.7523521230696717
3.357088986965713e-09,1.00510014329995,3.357088986965713e-09,7.369978285418595e-05,3.357088986965713e-09,7.370025373417546e-05,3.357088986965713e-09,0.002627020114543965,3.357088986965713e-09,0.7539383260920627
3.359734589889016e-09,1.335047529585648,3.359734589889016e-09,7.369984100501009e-05,3.359734589889016e-09,7.370281237886217e-05,3.359734589889016e-09,0.002256874770434808,3.359734589889016e-09,0.7554081054938977
3.361815584114716e-09,1.841632757018338,3.361815584114716e-09,7.369944059829389e-05,3.361815584114716e-09,7.370384876970136e-05,3.361815584114716e-09,0.00197350388020561,3.361815584114716e-09,0.7565642133970643
3.3638006360318e-09,2.523144953436755,3.3638006360318e-09,7.369791421314438e-05,3.3638006360318e-09,7.370317095404936e-05,3.3638006360318e-09,0.001729708654625874,3.3638006360318e-09,0.7576670200176665
3.365051949924124e-09,3.001227714204395,3.365051949924124e-09,7.369639261490477e-05,3.365051949924124e-09,7.370211965299638e-05,3.365051949924124e-09,0.001589267646803763,3.365051949924124e-09,0.7583621944022912
3.366762987543033e-09,3.608799890137556,3.366762987543033e-09,7.369433318832393e-05,3.366762987543033e-09,7.370038297700139e-05,3.366762987543033e-09,0.001412351880924704,3.366762987543033e-09,0.7593127708572406
3.368170822540847e-09,3.997680933386208,3.368170822540847e-09,7.36927206476259e-05,3.368170822540847e-09,7.369890137101861e-05,3.368170822540847e-09,0.001277624323193938,3.368170822540847e-09,0.7600949014115818
