/out0 X,/out0 Y,/out1 X,/out1 Y,/out2 X,/out2 Y
0,0.1852738841191382,0,0.07503515359961783,0,0.2472364980310364
2e-05,0.1852738841191382,2e-05,0.07503515359694274,2e-05,0.247278145585212
4e-05,0.1852738841191383,4e-05,0.07503515359961417,4e-05,0.2472782464752842
6.000000000000001e-05,0.1852738841204327,6.000000000000001e-05,0.07503515359958025,6.000000000000001e-05,0.2472782533636575
8.000000000000001e-05,0.1852738841174175,8.000000000000001e-05,0.07503515359956471,8.000000000000001e-05,0.2472782529203843
0.0001,0.1852738841209263,0.0001,0.07503515359968763,0.0001,0.2472782533774102
0.00012,0.1852738841181583,0.00012,0.07503515359942572,0.00012,0.2472782529225042
0.00014,0.1852738841203971,0.00014,0.07503515359992474,0.00014,0.2472782533732558
0.00016,0.185273884118022,0.00016,0.07503515359931169,0.00016,0.2472782529278363
0.00018,0.1852738841198265,0.00018,0.07503515359993521,0.00018,0.2472782533684133
0.0002,0.1852738841168509,0.0002,0.07503515359921564,0.0002,0.2472782529331015
0.00022,0.1852738841192602,0.00022,0.07503515360000956,0.00022,0.2472782533632648
0.00024,0.1852738841205603,0.00024,0.07503515359912924,0.00024,0.2472782529383157
0.00026,0.1852738841189821,0.00026,0.07503515360003658,0.00026,0.2472782533572295
0.00028,0.1852738841194131,0.00028,0.0750351535991781,0.00028,0.2472782529439673
0.0003,0.1852738841181789,0.0003,0.07503515359995587,0.0003,0.2472782533525507
0.00032,0.1852738841195828,0.00032,0.07503515359918152,0.00032,0.2472782529464333
0.00034,0.1852738841176464,0.00034,0.07503515360008443,0.00034,0.2472782533481272
0.00036,0.1852738841217311,0.00036,0.07503515359925594,0.00036,0.2472782529531956
0.00038,0.1852738841165466,0.00038,0.07503515360007072,0.00038,0.2472782533432694
0.0004,0.1852738841213865,0.0004,0.07503515359922844,0.0004,0.2472782529574596
0.00042,0.1852738841178898,0.00042,0.07503515360013559,0.00042,0.2472782533418389
0.00044,0.1852738841209176,0.00044,0.0750351535990624,0.00044,0.2472782529562885
0.00046,0.1852738841174744,0.00046,0.07503515360012873,0.00046,0.2472782533412878
0.00048,0.1852738841219483,0.00048,0.07503515359919354,0.00048,0.2472782529598169
0.0005,0.1852738841165985,0.0005,0.07503515360008972,0.0005,0.2472782533360007
0.0005200000000000001,0.1852738841191163,0.0005200000000000001,0.0750351535992396,0.0005200000000000001,0.2472782529618306
0.0005400000000000001,0.1852738841190907,0.0005400000000000001,0.07503515359989882,0.0005400000000000001,0.2472782533316287
0.0005600000000000002,0.1852738841176895,0.0005600000000000002,0.07503515359930843,0.0005600000000000002,0.2472782529701247
0.0005800000000000002,0.1852738841214473,0.0005800000000000002,0.07503515359997061,0.0005800000000000002,0.2472782533263541
0.0006000000000000003,0.1852738841159899,0.0006000000000000003,0.07503515359933753,0.0006000000000000003,0.247278252971058
0.0006200000000000003,0.1852738841210325,0.0006200000000000003,0.07503515359982907,0.0006200000000000003,0.2472782533241849
0.0006400000000000004,0.1852738841176244,0.0006400000000000004,0.07503515359940918,0.0006400000000000004,0.247278252975901
0.0006600000000000004,0.1852738841206574,0.0006600000000000004,0.07503515359992328,0.0006600000000000004,0.2472782533206672
0.0006800000000000005,0.1852738841177953,0.0006800000000000005,0.07503515359928217,0.0006800000000000005,0.2472782529797445
0.0007000000000000005,0.1852738841211986,0.0007000000000000005,0.07503515360001373,0.0007000000000000005,0.2472782533178541
0.0007200000000000006,0.185273884117457,0.0007200000000000006,0.0750351535992967,0.0007200000000000006,0.247278252980735
0.0007400000000000006,0.1852738841200949,0.0007400000000000006,0.07503515359983709,0.0007400000000000006,0.2472782533128616
0.0007600000000000007,0.1852738841176956,0.0007600000000000007,0.07503515359940087,0.0007600000000000007,0.2472782529859569
0.0007800000000000007,0.1852738841207844,0.0007800000000000007,0.07503515359992319,0.0007800000000000007,0.2472782533117438
0.0008000000000000008,0.1852738841167608,0.0008000000000000008,0.07503515359924831,0.0008000000000000008,0.2472782529884219
0.0008200000000000008,0.1852738841196506,0.0008200000000000008,0.07503515360002815,0.0008200000000000008,0.2472782533103476
0.0008400000000000009,0.1852738841188379,0.0008400000000000009,0.07503515359930391,0.0008400000000000009,0.2472782529897978
0.000860000000000001,0.1852738841196031,0.000860000000000001,0.07503515359994933,0.000860000000000001,0.2472782533078599
0.000880000000000001,0.1852738841190237,0.000880000000000001,0.07503515359935346,0.000880000000000001,0.2472782529903594
0.0009000000000000011,0.1852738841191431,0.0009000000000000011,0.07503515359984396,0.0009000000000000011,0.247278253308756
0.0009200000000000011,0.1852738841192785,0.0009200000000000011,0.07503515359947545,0.0009200000000000011,0.2472782529897994
0.0009400000000000012,0.1852738841195584,0.0009400000000000012,0.07503515359975199,0.0009400000000000012,0.2472782533029572
0.0009600000000000012,0.1852738841190021,0.0009600000000000012,0.07503515359956364,0.0009600000000000012,0.2472782529972768
0.0009800000000000013,0.1852738841189805,0.0009800000000000013,0.07503515359959383,0.0009800000000000013,0.247278253297878
0.001000000000000001,0.1852738841198254,0.001000000000000001,0.07503515359971608,0.001000000000000001,0.2472782529986871
0.001020000000000001,0.1852738841192088,0.001020000000000001,0.07503515359955033,0.001020000000000001,0.2472782532982712
0.001040000000000001,0.1852738841188174,0.001040000000000001,0.07503515359954005,0.001040000000000001,0.2472782530021084
0.001060000000000001,0.185273884119222,0.001060000000000001,0.07503515359961033,0.001060000000000001,0.2472782532952251
0.001080000000000002,0.1852738841188294,0.001080000000000002,0.07503515359962007,0.001080000000000002,0.2472782530022063
0.001100000000000002,0.1852738841171052,0.001100000000000002,0.07503515359959775,0.001100000000000002,0.2472782532931311
0.001120000000000002,0.1852738841209376,0.001120000000000002,0.07503515359954903,0.001120000000000002,0.2472782530047968
0.001140000000000002,0.1852738841170154,0.001140000000000002,0.07503515359965772,0.001140000000000002,0.2472782532906425
0.001160000000000002,0.1852738841213861,0.001160000000000002,0.07503515359967083,0.001160000000000002,0.2472782530063279
0.001180000000000002,0.18527388411737,0.001180000000000002,0.07503515359956306,0.001180000000000002,0.2472782532902345
0.001200000000000002,0.1852738841212774,0.001200000000000002,0.07503515359965229,0.001200000000000002,0.2472782530091827
0.001220000000000002,0.1852738841171639,0.001220000000000002,0.07503515359949919,0.001220000000000002,0.2472782532888822
0.001240000000000002,0.1852738841209371,0.001240000000000002,0.07503515359972723,0.001240000000000002,0.2472782530097977
0.001260000000000002,0.1852738841164787,0.001260000000000002,0.0750351535993842,0.001260000000000002,0.2472782532889734
0.001280000000000002,0.1852738841212703,0.001280000000000002,0.0750351535998337,0.001280000000000002,0.2472782530117226
0.001300000000000002,0.1852738841175267,0.001300000000000002,0.07503515359939111,0.001300000000000002,0.2472782532857247
0.001320000000000002,0.1852738841200232,0.001320000000000002,0.07503515359995494,0.001320000000000002,0.2472782530141286
0.001340000000000002,0.1852738841168909,0.001340000000000002,0.0750351535992793,0.001340000000000002,0.24727825328295
0.001360000000000002,0.1852738841201662,0.001360000000000002,0.07503515359989102,0.001360000000000002,0.2472782530167745
0.001380000000000002,0.1852738841184486,0.001380000000000002,0.0750351535993284,0.001380000000000002,0.2472782532804242
0.001400000000000002,0.1852738841199424,0.001400000000000002,0.07503515359990764,0.001400000000000002,0.2472782530189078
0.001420000000000002,0.1852738841178417,0.001420000000000002,0.07503515359933804,0.001420000000000002,0.2472782532793927
0.001440000000000002,0.1852738841204004,0.001440000000000002,0.07503515359991672,0.001440000000000002,0.2472782530207796
0.001460000000000003,0.1852738841171922,0.001460000000000003,0.07503515359943451,0.001460000000000003,0.2472782532747769
0.001480000000000003,0.1852738841207445,0.001480000000000003,0.07503515359982495,0.001480000000000003,0.2472782530244384
0.001500000000000003,0.1852738841175761,0.001500000000000003,0.07503515359931723,0.001500000000000003,0.2472782532702626
0.001520000000000003,0.1852738841212379,0.001520000000000003,0.07503515359987158,0.001520000000000003,0.2472782530279346
0.001540000000000003,0.185273884116702,0.001540000000000003,0.07503515359936043,0.001540000000000003,0.2472782532681959
0.001560000000000003,0.1852738841209442,0.001560000000000003,0.07503515359986285,0.001560000000000003,0.2472782530304128
0.001580000000000003,0.1852738841189,0.001580000000000003,0.07503515359934738,0.001580000000000003,0.2472782532679207
0.001600000000000003,0.1852738841200802,0.001600000000000003,0.07503515359987764,0.001600000000000003,0.2472782530313774
0.001620000000000003,0.1852738841183732,0.001620000000000003,0.07503515359932446,0.001620000000000003,0.2472782532652434
0.001640000000000003,0.1852738841213285,0.001640000000000003,0.07503515360000985,0.001640000000000003,0.2472782530326758
0.001660000000000003,0.1852738841163858,0.001660000000000003,0.07503515359930261,0.001660000000000003,0.2472782532610055
0.001680000000000003,0.1852738841217368,0.001680000000000003,0.07503515359988963,0.001680000000000003,0.2472782530403061
0.001700000000000003,0.1852738841156758,0.001700000000000003,0.07503515359935452,0.001700000000000003,0.2472782532583804
0.001720000000000003,0.185273884123889,0.001720000000000003,0.07503515359983735,0.001720000000000003,0.2472782530416351
0.001740000000000003,0.1852738841142394,0.001740000000000003,0.07503515359938125,0.001740000000000003,0.2472782532526401
0.001760000000000003,0.185273884124803,0.001760000000000003,0.0750351535997541,0.001760000000000003,0.2472782530457422
0.001780000000000003,0.1852738841136696,0.001780000000000003,0.07503515359948211,0.001780000000000003,0.2472782532515903
0.001800000000000003,0.1852738841258862,0.001800000000000003,0.07503515359978513,0.001800000000000003,0.2472782530463614
0.001820000000000003,0.1852738841124865,0.001820000000000003,0.07503515359954216,0.001820000000000003,0.2472782532519178
0.001840000000000004,0.185273884126566,0.001840000000000004,0.07503515359971762,0.001840000000000004,0.2472782530475597
0.001860000000000004,0.1852738841124636,0.001860000000000004,0.07503515359954087,0.001860000000000004,0.2472782532498832
0.001880000000000004,0.1852738841269951,0.001880000000000004,0.07503515359971888,0.001880000000000004,0.2472782530483828
0.001900000000000004,0.185273884111281,0.001900000000000004,0.07503515359949837,0.001900000000000004,0.2472782532479871
0.001920000000000004,0.1852738841273694,0.001920000000000004,0.07503515359977342,0.001920000000000004,0.247278253051284
0.001940000000000004,0.1852738841118705,0.001940000000000004,0.07503515359945423,0.001940000000000004,0.2472782532463206
0.001960000000000004,0.185273884125821,0.001960000000000004,0.07503515359969133,0.001960000000000004,0.2472782530544786
0.001980000000000004,0.1852738841130478,0.001980000000000004,0.07503515359963406,0.001980000000000004,0.2472782532443007
0.002000000000000004,0.1852738841258973,0.002000000000000004,0.07503515359946793,0.002000000000000004,0.2472782530535681
0.002020000000000004,0.1852738841107102,0.002020000000000004,0.07503515359964472,0.002020000000000004,0.2472782532424969
0.002040000000000004,0.1852738841269307,0.002040000000000004,0.07503515359947348,0.002040000000000004,0.2472782530571484
0.002060000000000004,0.1852738841111126,0.002060000000000004,0.075035153599874,0.002060000000000004,0.2472782532406545
0.002080000000000004,0.1852738841284454,0.002080000000000004,0.07503515359948887,0.002080000000000004,0.2472782530587955
0.002100000000000004,0.1852738841118973,0.002100000000000004,0.07503515359986772,0.002100000000000004,0.2472782532386215
0.002120000000000004,0.1852738841254221,0.002120000000000004,0.07503515359939662,0.002120000000000004,0.2472782530599054
0.002140000000000004,0.1852738841138833,0.002140000000000004,0.07503515359981619,0.002140000000000004,0.2472782532372211
0.002160000000000004,0.1852738841242444,0.002160000000000004,0.07503515359933778,0.002160000000000004,0.2472782530640346
0.002180000000000004,0.1852738841142516,0.002180000000000004,0.07503515359982836,0.002180000000000004,0.2472782532330232
0.002200000000000004,0.185273884124545,0.002200000000000004,0.07503515359928133,0.002200000000000004,0.2472782530673582
0.002220000000000005,0.1852738841139748,0.002220000000000005,0.07503515359995154,0.002220000000000005,0.2472782532302078
0.002240000000000005,0.1852738841249775,0.002240000000000005,0.07503515359940735,0.002240000000000005,0.2472782530686768
0.002260000000000005,0.1852738841115796,0.002260000000000005,0.07503515359979546,0.002260000000000005,0.2472782532280801
0.002280000000000005,0.1852738841266553,0.002280000000000005,0.07503515359939579,0.002280000000000005,0.2472782530719914
0.002300000000000005,0.1852738841114152,0.002300000000000005,0.07503515359974533,0.002300000000000005,0.2472782532264678
0.002320000000000005,0.1852738841270955,0.002320000000000005,0.07503515359946723,0.002320000000000005,0.2472782530736827
0.002340000000000005,0.1852738841114738,0.002340000000000005,0.07503515359991009,0.002340000000000005,0.2472782532233633
0.002360000000000005,0.1852738841261564,0.002360000000000005,0.07503515359940034,0.002360000000000005,0.2472782530719298
0.002380000000000005,0.1852738841129828,0.002380000000000005,0.07503515359982683,0.002380000000000005,0.2472782532254296
0.002400000000000005,0.185273884125516,0.002400000000000005,0.07503515359939963,0.002400000000000005,0.247278253072387
0.002420000000000005,0.1852738841116611,0.002420000000000005,0.07503515359973827,0.002420000000000005,0.2472782532261243
0.002440000000000005,0.1852738841266989,0.002440000000000005,0.07503515359955229,0.002440000000000005,0.2472782530721556
0.002460000000000005,0.1852738841104205,0.002460000000000005,0.075035153599653,0.002460000000000005,0.2472782532208422
0.002480000000000005,0.1852738841261798,0.002480000000000005,0.07503515359960597,0.002480000000000005,0.2472782530762355
0.002500000000000005,0.1852738841126043,0.002500000000000005,0.07503515359962998,0.002500000000000005,0.2472782532211941
0.002520000000000005,0.1852738841244764,0.002520000000000005,0.07503515359949275,0.002520000000000005,0.2472782530787535
0.002540000000000005,0.1852738841137643,0.002540000000000005,0.07503515359971763,0.002540000000000005,0.2472782532205081
0.002560000000000005,0.1852738841249403,0.002560000000000005,0.07503515359955405,0.002560000000000005,0.2472782530778911
0.002580000000000005,0.1852738841136704,0.002580000000000005,0.07503515359978487,0.002580000000000005,0.2472782532197424
0.002600000000000006,0.1852738841242621,0.002600000000000006,0.0750351535993391,0.002600000000000006,0.2472782530796404
0.002620000000000006,0.1852738841148595,0.002620000000000006,0.07503515360001367,0.002620000000000006,0.2472782532145209
0.002640000000000006,0.1852738841234355,0.002640000000000006,0.07503515359918239,0.002640000000000006,0.2472782530830443
0.002660000000000006,0.1852738841174443,0.002660000000000006,0.07503515360020011,0.002660000000000006,0.2472782532160398
0.002680000000000006,0.1852738841214275,0.002680000000000006,0.07503515359910506,0.002680000000000006,0.2472782530816703
0.002700000000000006,0.1852738841185202,0.002700000000000006,0.07503515360005605,0.002700000000000006,0.2472782532151675
0.002720000000000006,0.1852738841192432,0.002720000000000006,0.07503515359926756,0.002720000000000006,0.2472782530805638
0.002740000000000006,0.1852738841204289,0.002740000000000006,0.07503515359992184,0.002740000000000006,0.2472782532147813
0.002760000000000006,0.1852738841192677,0.002760000000000006,0.07503515359936921,0.002760000000000006,0.247278253082819
0.002780000000000006,0.1852738841187945,0.002780000000000006,0.07503515359979263,0.002780000000000006,0.2472782532144247
0.002800000000000006,0.185273884119384,0.002800000000000006,0.07503515359948715,0.002800000000000006,0.2472782530855418
0.002820000000000006,0.1852738841192154,0.002820000000000006,0.07503515359980807,0.002820000000000006,0.2472782532114056
0.002840000000000006,0.1852738841192466,0.002840000000000006,0.07503515359944374,0.002840000000000006,0.247278253088131
0.002860000000000006,0.1852738841205782,0.002860000000000006,0.07503515359971556,0.002860000000000006,0.2472782532093393
0.002880000000000006,0.1852738841168119,0.002880000000000006,0.07503515359945211,0.002880000000000006,0.2472782530914047
0.002900000000000006,0.1852738841209647,0.002900000000000006,0.07503515359981257,0.002900000000000006,0.2472782532064891
0.002920000000000006,0.1852738841181713,0.002920000000000006,0.07503515359945641,0.002920000000000006,0.2472782530921777
0.002940000000000006,0.1852738841200738,0.002940000000000006,0.07503515359978487,0.002940000000000006,0.2472782532051315
0.002960000000000006,0.1852738841170161,0.002960000000000006,0.07503515359950849,0.002960000000000006,0.2472782530938993
0.002980000000000007,0.1852738841215825,0.002980000000000007,0.07503515359975847,0.002980000000000007,0.2472782532021947
0.003000000000000007,0.1852738841170428,0.003000000000000007,0.07503515359937585,0.003000000000000007,0.2472782530970501
