/out0 (Freq=1000) X,/out0 (Freq=1000) Y,/out1 (Freq=1000) X,/out1 (Freq=1000) Y,/out2 (Freq=1000) X,/out2 (Freq=1000) Y
0,0.1844346642841076,0,0.1825815945743142,0,0.1825813986224697
0.01066666666666667,0.1844346692215359,0.01066666666666667,0.1825815945747545,0.01066666666666667,0.1825814335012718
0.02133333333333334,0.1844346760736571,0.02133333333333334,0.1825815945753653,0.02133333333333334,0.1825814335012722
0.032,0.1844346855767991,0.032,0.1825815945762118,0.032,0.1825814335012722
0.04266666666666667,0.1844346987466194,0.04266666666666667,0.1825815945773854,0.04266666666666667,0.1825814335012722
0.05333333333333334,0.184434716981715,0.05333333333333334,0.1825815945790104,0.05333333333333334,0.1825814335012723
0.06400000000000002,0.1844347422041826,0.06400000000000002,0.1825815945812583,0.06400000000000002,0.1825814335012725
0.07466666666666669,0.1844347770494439,0.07466666666666669,0.1825815945843633,0.07466666666666669,0.1825814335012728
0.08533333333333336,0.1844348251212481,0.08533333333333336,0.1825815945886469,0.08533333333333336,0.1825814335012731
0.09600000000000003,0.1844348913319267,0.09600000000000003,0.1825815945945473,0.09600000000000003,0.1825814335012737
0.1066666666666667,0.184434982353081,0.1066666666666667,0.1825815946026584,0.1066666666666667,0.1825814335012744
0.1173333333333334,0.1844351072071811,0.1173333333333334,0.1825815946137842,0.1173333333333334,0.1825814335012753
0.128,0.1844352780360444,0.128,0.1825815946290068,0.128,0.1825814335012764
0.1386666666666667,0.1844355110868405,0.1386666666666667,0.1825815946497748,0.1386666666666667,0.1825814335012785
0.1493333333333333,0.1844358279590895,0.1493333333333333,0.1825815946780125,0.1493333333333333,0.1825814335012807
0.16,0.1844362571552176,0.16,0.1825815947162598,0.16,0.1825814335012839
0.1706666666666667,0.1844368359707681,0.1706666666666667,0.1825815947678417,0.1706666666666667,0.1825814335012884
0.1813333333333333,0.1844376127460996,0.1813333333333333,0.1825815948370659,0.1813333333333333,0.1825814335012939
0.192,0.1844386494776216,0.192,0.1825815949294584,0.192,0.182581433501302
0.2026666666666666,0.1844400247533722,0.2026666666666666,0.182581595052026,0.2026666666666666,0.1825814335013123
0.2133333333333333,0.1844418369373902,0.2133333333333333,0.1825815952135392,0.2133333333333333,0.1825814335013263
0.2239999999999999,0.1844442074864005,0.2239999999999999,0.1825815954248289,0.2239999999999999,0.1825814335013438
0.2346666666666666,0.1844472842504204,0.2346666666666666,0.1825815956990844,0.2346666666666666,0.1825814335013672
0.2453333333333333,0.1844512445985425,0.2453333333333333,0.1825815960521339,0.2453333333333333,0.1825814335013971
0.2559999999999999,0.1844562982319265,0.2559999999999999,0.1825815965027003,0.2559999999999999,0.1825814335014353
0.2666666666666666,0.1844626896013302,0.2666666666666666,0.1825815970726226,0.2666666666666666,0.1825814335014835
0.2773333333333333,0.1844706999273929,0.2773333333333333,0.1825815977870472,0.2773333333333333,0.1825814335015443
0.2879999999999999,0.1844806489092254,0.2879999999999999,0.1825815986745906,0.2879999999999999,0.1825814335016193
0.2986666666666666,0.1844928962778151,0.2986666666666666,0.1825815997674986,0.2986666666666666,0.182581433501712
0.3093333333333332,0.1845078433926658,0.3093333333333332,0.1825816011018091,0.3093333333333332,0.1825814335018252
0.3199999999999999,0.1845259351043331,0.3199999999999999,0.1825816027175527,0.3199999999999999,0.1825814335019618
0.3306666666666666,0.1845476621538532,0.3306666666666666,0.1825816046590031,0.3306666666666666,0.1825814335021267
0.3413333333333332,0.1845735645191175,0.3413333333333332,0.1825816069750278,0.3413333333333332,0.1825814335023228
0.3519999999999999,0.1846042364247436,0.3519999999999999,0.1825816097196042,0.3519999999999999,0.1825814335025554
0.3626666666666665,0.1846403342773354,0.3626666666666665,0.1825816129526067,0.3626666666666665,0.1825814335028297
0.3733333333333332,0.1846825896398651,0.3733333333333332,0.1825816167410838,0.3733333333333332,0.1825814335031508
0.3839999999999998,0.1847318306177514,0.3839999999999998,0.1825816211613029,0.3839999999999998,0.1825814335035257
0.3946666666666665,0.1847890169264946,0.3946666666666665,0.1825816263021053,0.3946666666666665,0.1825814335039609
0.4053333333333332,0.1848552970086269,0.4053333333333332,0.1825816322703022,0.4053333333333332,0.182581433504467
0.4159999999999998,0.1849321011676544,0.4159999999999998,0.1825816391994606,0.4159999999999998,0.1825814335050544
0.4266666666666665,0.1850212957539262,0.4266666666666665,0.1825816472644446,0.4266666666666665,0.1825814335057384
0.4373333333333331,0.1851254469735055,0.4373333333333331,0.1825816567063149,0.4373333333333331,0.1825814335065385
0.4479999999999998,0.1852482967381455,0.4479999999999998,0.1825816678773326,0.4479999999999998,0.1825814335074853
0.4586666666666664,0.1853956874638604,0.4586666666666664,0.1825816813286402,0.4586666666666664,0.1825814335086255
0.4693333333333331,0.185577548459113,0.4693333333333331,0.1825816979992757,0.4693333333333331,0.182581433510039
0.4799999999999998,0.1858127676763502,0.4799999999999998,0.1825817196818219,0.4799999999999998,0.1825814335118767
0.4906666666666664,0.1861434285753162,0.4906666666666664,0.1825817503927414,0.4906666666666664,0.1825814335144803
0.5013333333333331,0.1866860869078124,0.5013333333333331,0.1825818013738666,0.5013333333333331,0.1825814335188015
0.5119999999999998,0.187852052369413,0.5119999999999998,0.1825819135145964,0.5119999999999998,0.1825814335283077
0.5226666666666665,0.1901535141460527,0.5226666666666665,0.1825821453445872,0.5226666666666665,0.1825814335479593
0.5333333333333332,0.1934975610512228,0.5333333333333332,0.1825825085166222,0.5333333333333332,0.1825814335787446
0.5439999999999999,0.1977076267106619,0.5439999999999999,0.1825830134988035,0.5439999999999999,0.1825814336215519
0.5546666666666666,0.2028968702852871,0.5546666666666666,0.1825837177112999,0.5546666666666666,0.1825814336812491
0.5653333333333334,0.2093907117953556,0.5653333333333334,0.1825847427173333,0.5653333333333334,0.182581433768142
0.5760000000000001,0.2177485612612728,0.5760000000000001,0.1825863362098488,0.5760000000000001,0.1825814339032319
0.5866666666666668,0.2294504403521837,0.5866666666666668,0.1825891943011611,0.5866666666666668,0.1825814341455436
0.5973333333333335,0.2501303624635044,0.5973333333333335,0.18259671564134,0.5973333333333335,0.1825814347833017
0.6080000000000002,0.313267403484069,0.6080000000000002,0.1826560496354664,0.6080000000000002,0.1825814398189607
0.6186666666666669,1.137816883117593,0.6186666666666669,1.412611332444515,0.6186666666666669,1.412613502931072
0.6293333333333336,1.404182895572431,0.6293333333333336,1.412613459856781,0.6293333333333336,1.412613502941823
0.6400000000000003,1.434390443794967,0.6400000000000003,1.412613609884629,0.6400000000000003,1.412613502942581
0.6506666666666671,1.434621596507763,0.6506666666666671,1.412613610987409,0.6506666666666671,1.412613502942587
0.6613333333333338,1.434643477818359,0.6613333333333338,1.412613611091762,0.6613333333333338,1.412613502942588
0.6720000000000005,1.434654933887961,0.6720000000000005,1.412613611146398,0.6720000000000005,1.412613502942588
0.6826666666666672,1.434662525717757,0.6826666666666672,1.4126136111826,0.6826666666666672,1.412613502942588
0.6933333333333339,1.434668169012486,0.6933333333333339,1.412613611209513,0.6933333333333339,1.412613502942589
0.7040000000000006,1.434672561706167,0.7040000000000006,1.41261361123046,0.7040000000000006,1.412613502942589
0.7146666666666673,1.43467609177049,0.7146666666666673,1.412613611247296,0.7146666666666673,1.412613502942588
0.7253333333333341,1.434678993914833,0.7253333333333341,1.412613611261134,0.7253333333333341,1.412613502942589
0.7360000000000008,1.434681421366508,0.7360000000000008,1.412613611272708,0.7360000000000008,1.412613502942589
0.7466666666666675,1.434683479840672,0.7466666666666675,1.412613611282528,0.7466666666666675,1.412613502942589
0.7573333333333342,1.434685245322955,0.7573333333333342,1.412613611290946,0.7573333333333342,1.412613502942589
0.7680000000000009,1.434686774165265,0.7680000000000009,1.412613611298235,0.7680000000000009,1.412613502942589
0.7786666666666676,1.434688109197565,0.7786666666666676,1.412613611304602,0.7786666666666676,1.412613502942589
0.7893333333333343,1.434689283622296,0.7893333333333343,1.412613611310201,0.7893333333333343,1.412613502942589
0.800000000000001,1.4346903236009,0.800000000000001,1.41261361131516,0.800000000000001,1.412613502942589
0.8106666666666678,1.434691250030984,0.8106666666666678,1.412613611319577,0.8106666666666678,1.412613502942589
0.8213333333333345,1.434692079802202,0.8213333333333345,1.412613611323533,0.8213333333333345,1.412613502942589
0.8320000000000012,1.434692826704949,0.8320000000000012,1.412613611327098,0.8320000000000012,1.412613502942589
0.8426666666666679,1.434693502100989,0.8426666666666679,1.412613611330318,0.8426666666666679,1.412613502942589
0.8533333333333346,1.434694115426969,0.8533333333333346,1.412613611333243,0.8533333333333346,1.412613502942589
0.8640000000000013,1.434694674577971,0.8640000000000013,1.412613611335909,0.8640000000000013,1.412613502942589
0.874666666666668,1.43469518620348,0.874666666666668,1.412613611338349,0.874666666666668,1.412613502942589
0.8853333333333347,1.434695655938336,0.8853333333333347,1.412613611340588,0.8853333333333347,1.412613502942589
0.8960000000000015,1.43469608858477,0.8960000000000015,1.412613611342651,0.8960000000000015,1.412613502942589
0.9066666666666682,1.434696488257149,0.9066666666666682,1.412613611344557,0.9066666666666682,1.412613502942589
0.9173333333333349,1.43469685849802,0.9173333333333349,1.412613611346322,0.9173333333333349,1.412613502942589
0.9280000000000016,1.434697202371843,0.9280000000000016,1.412613611347963,0.9280000000000016,1.412613502942589
0.9386666666666683,1.434697522541181,0.9386666666666683,1.412613611349488,0.9386666666666683,1.412613502942589
0.949333333333335,1.434697821329059,0.949333333333335,1.412613611350913,0.949333333333335,1.412613502942589
0.9600000000000017,1.43469810077025,0.9600000000000017,1.412613611352245,0.9600000000000017,1.412613502942589
0.9706666666666685,1.43469836265375,0.9706666666666685,1.412613611353494,0.9706666666666685,1.412613502942589
0.9813333333333352,1.434698608558066,0.9813333333333352,1.412613611354666,0.9813333333333352,1.412613502942589
0.9920000000000019,1.434698839880725,0.9920000000000019,1.412613611355769,0.9920000000000019,1.412613502942589
1.002666666666669,1.434699057863035,1.002666666666669,1.412613611356809,1.002666666666669,1.412613502942589
1.013333333333335,1.434699263610956,1.013333333333335,1.41261361135779,1.013333333333335,1.412613502942589
1.024000000000002,1.434699458112795,1.024000000000002,1.412613611358718,1.024000000000002,1.412613502942589
1.034666666666668,1.434699642254197,1.034666666666668,1.412613611359595,1.034666666666668,1.412613502942589
1.045333333333335,1.434699816830981,1.045333333333335,1.412613611360428,1.045333333333335,1.412613502942589
1.056000000000002,1.434699982560102,1.056000000000002,1.412613611361217,1.056000000000002,1.412613502942589
1.066666666666668,1.434700140089068,1.066666666666668,1.412613611361969,1.066666666666668,1.412613502942589
1.077333333333335,1.434700290004067,1.077333333333335,1.412613611362684,1.077333333333335,1.412613502942589
1.088000000000001,1.434700432836992,1.088000000000001,1.412613611363365,1.088000000000001,1.412613502942589
1.098666666666668,1.434700569071527,1.098666666666668,1.412613611364014,1.098666666666668,1.412613502942589
1.109333333333335,1.434700699148446,1.109333333333335,1.412613611364634,1.109333333333335,1.412613502942589
1.120000000000001,1.434700823470239,1.120000000000001,1.412613611365227,1.120000000000001,1.412613502942589
1.130666666666668,1.434700942405144,1.130666666666668,1.412613611365793,1.130666666666668,1.412613502942589
1.141333333333334,1.434701056290708,1.141333333333334,1.412613611366337,1.141333333333334,1.412613502942589
1.152000000000001,1.434701165436887,1.152000000000001,1.412613611366858,1.152000000000001,1.412613502942589
1.162666666666668,1.434701270128813,1.162666666666668,1.412613611367357,1.162666666666668,1.412613502942589
1.173333333333334,1.434701370629209,1.173333333333334,1.412613611367836,1.173333333333334,1.412613502942589
1.184000000000001,1.43470146718054,1.184000000000001,1.412613611368297,1.184000000000001,1.412613502942589
1.194666666666667,1.434701560006935,1.194666666666667,1.412613611368742,1.194666666666667,1.412613502942589
1.205333333333334,1.434701649315872,1.205333333333334,1.412613611369169,1.205333333333334,1.412613502942589
1.216000000000001,1.434701735299692,1.216000000000001,1.412613611369578,1.216000000000001,1.412613502942589
1.226666666666667,1.434701818136965,1.226666666666667,1.412613611369974,1.226666666666667,1.412613502942589
1.237333333333334,1.434701897993686,1.237333333333334,1.412613611370354,1.237333333333334,1.412613502942589
1.248,1.434701975024369,1.248,1.412613611370722,1.248,1.412613502942589
1.258666666666667,1.434702049373016,1.258666666666667,1.412613611371076,1.258666666666667,1.412613502942589
1.269333333333334,1.434702121173998,1.269333333333334,1.412613611371418,1.269333333333334,1.412613502942589
1.28,1.434702190552852,1.28,1.412613611371749,1.28,1.412613502942589
1.290666666666667,1.434702257626987,1.290666666666667,1.41261361137207,1.290666666666667,1.412613502942589
1.301333333333333,1.434702322506335,1.301333333333333,1.412613611372378,1.301333333333333,1.412613502942589
1.312,1.434702385293938,1.312,1.412613611372677,1.312,1.412613502942589
1.322666666666667,1.434702446086474,1.322666666666667,1.412613611372968,1.322666666666667,1.412613502942589
1.333333333333333,1.434702504974751,1.333333333333333,1.412613611373249,1.333333333333333,1.412613502942589
1.344,1.434702562044134,1.344,1.41261361137352,1.344,1.412613502942589
1.354666666666666,1.43470261737496,1.354666666666666,1.412613611373784,1.354666666666666,1.412613502942589
1.365333333333333,1.43470267104289,1.365333333333333,1.41261361137404,1.365333333333333,1.412613502942589
1.376,1.434702723119251,1.376,1.412613611374288,1.376,1.412613502942589
1.386666666666666,1.434702773671347,1.386666666666666,1.412613611374529,1.386666666666666,1.412613502942589
1.397333333333333,1.43470282276273,1.397333333333333,1.412613611374764,1.397333333333333,1.412613502942589
1.407999999999999,1.434702870453465,1.407999999999999,1.412613611374991,1.407999999999999,1.412613502942589
1.418666666666666,1.434702916800356,1.418666666666666,1.412613611375212,1.418666666666666,1.412613502942589
1.429333333333333,1.434702961857183,1.429333333333333,1.412613611375427,1.429333333333333,1.412613502942589
1.439999999999999,1.434703005674876,1.439999999999999,1.412613611375636,1.439999999999999,1.412613502942589
1.450666666666666,1.434703048301728,1.450666666666666,1.412613611375839,1.450666666666666,1.412613502942589
1.461333333333332,1.434703089783544,1.461333333333332,1.412613611376037,1.461333333333332,1.412613502942589
1.471999999999999,1.434703130163804,1.471999999999999,1.41261361137623,1.471999999999999,1.412613502942589
1.482666666666666,1.434703169483814,1.482666666666666,1.412613611376417,1.482666666666666,1.412613502942589
1.493333333333332,1.434703207782839,1.493333333333332,1.412613611376599,1.493333333333332,1.412613502942589
1.503999999999999,1.43470324509822,1.503999999999999,1.412613611376778,1.503999999999999,1.412613502942589
1.514666666666665,1.434703281465504,1.514666666666665,1.412613611376951,1.514666666666665,1.412613502942589
1.525333333333332,1.434703316918534,1.525333333333332,1.41261361137712,1.525333333333332,1.412613502942589
1.535999999999999,1.434703351489566,1.535999999999999,1.412613611377284,1.535999999999999,1.412613502942589
1.546666666666665,1.434703385209353,1.546666666666665,1.412613611377446,1.546666666666665,1.412613502942589
1.557333333333332,1.434703418107229,1.557333333333332,1.412613611377603,1.557333333333332,1.412613502942589
1.567999999999999,1.434703450211195,1.567999999999999,1.412613611377756,1.567999999999999,1.412613502942589
1.578666666666665,1.434703481547995,1.578666666666665,1.412613611377905,1.578666666666665,1.412613502942589
1.589333333333332,1.434703512143183,1.589333333333332,1.412613611378051,1.589333333333332,1.412613502942589
1.6,1.434703542021184,1.6,1.412613611378194,1.6,1.412613502942589
