/vout X,/vout Y,/net06 X,/net06 Y,/net09 X,/net09 Y,/net08 X,/net08 Y,/net07 X,/net07 Y
0,1.538982844750925e-08,0,0,0,0,0,0,0,0
1e-10,1.539027398853704e-08,1e-10,0,1e-10,0,1e-10,0,1e-10,0
3e-10,1.538988012446776e-08,3e-10,0,3e-10,0,3e-10,0,3e-10,0
7e-10,1.538979086905689e-08,7e-10,0,7e-10,0,7e-10,0,7e-10,0
1.5e-09,1.538986309159671e-08,1.5e-09,0,1.5e-09,0,1.5e-09,0,1.5e-09,0
3.1e-09,1.538979831416108e-08,3.1e-09,0,3.1e-09,0,3.1e-09,0,3.1e-09,0
4.675e-09,1.538985878327578e-08,4.675e-09,0,4.675e-09,0,4.675e-09,0,4.675e-09,0
6.25e-09,1.538980204127244e-08,6.25e-09,0,6.25e-09,0,6.25e-09,0,6.25e-09,0
6.312499999999999e-09,0.01716171810189454,6.312499999999999e-09,0,6.312499999999999e-09,0,6.312499999999999e-09,0,6.312499999999999e-09,0.3124999999999987
6.437499999999999e-09,0.05226718123136981,6.437499999999999e-09,0,6.437499999999999e-09,0,6.437499999999999e-09,0,6.437499999999999e-09,0.9374999999999959
6.687499999999998e-09,0.1238671780537062,6.687499999999998e-09,0,6.687499999999998e-09,0,6.687499999999998e-09,0,6.687499999999998e-09,2.187499999999991
6.968749999999999e-09,0.2068466186757284,6.968749999999999e-09,0,6.968749999999999e-09,0,6.968749999999999e-09,0,6.968749999999999e-09,3.593749999999997
7.25e-09,0.2928363878866517,7.25e-09,0,7.25e-09,0,7.25e-09,0,7.25e-09,4.999999999999999
7.380620281461632e-09,0.2931416495530417,7.380620281461632e-09,0,7.380620281461632e-09,0,7.380620281461632e-09,0,7.380620281461632e-09,5
7.59979588520799e-09,0.2931648885058777,7.59979588520799e-09,0,7.59979588520799e-09,0,7.59979588520799e-09,0,7.59979588520799e-09,5
7.813046185803366e-09,0.2931488198710148,7.813046185803366e-09,0,7.813046185803366e-09,0,7.813046185803366e-09,0,7.813046185803366e-09,5
8.239546786994116e-09,0.2931606892152658,8.239546786994116e-09,0,8.239546786994116e-09,0,8.239546786994116e-09,0,8.239546786994116e-09,5
8.840852491746811e-09,0.2931507088241265,8.840852491746811e-09,0,8.840852491746811e-09,0,8.840852491746811e-09,0,8.840852491746811e-09,5
9.83270359721965e-09,0.2931601057905452,9.83270359721965e-09,0,9.83270359721965e-09,0,9.83270359721965e-09,0,9.83270359721965e-09,5
1.116635179860983e-08,0.2931512839506305,1.116635179860983e-08,0,1.116635179860983e-08,0,1.116635179860983e-08,0,1.116635179860983e-08,5
1.25e-08,0.2931598073468106,1.25e-08,0,1.25e-08,0,1.25e-08,0,1.25e-08,5
1.275e-08,0.4527979274101337,1.275e-08,0,1.275e-08,0,1.275e-08,1.249999999999995,1.275e-08,5
1.318875324674147e-08,0.7423949592024892,1.318875324674147e-08,0,1.318875324674147e-08,0,1.318875324674147e-08,3.443766233707339,1.318875324674147e-08,5
1.32665649350561e-08,0.7938218097066724,1.32665649350561e-08,0,1.32665649350561e-08,0,1.32665649350561e-08,3.832824675280505,1.32665649350561e-08,5
1.338328246752805e-08,0.8710245257137604,1.338328246752805e-08,0,1.338328246752805e-08,0,1.338328246752805e-08,4.41641233764025,1.338328246752805e-08,5
1.35e-08,0.9480224610418403,1.35e-08,0,1.35e-08,0,1.35e-08,4.999999999999995,1.35e-08,5
1.351942316763029e-08,0.9424404017155577,1.351942316763029e-08,0,1.351942316763029e-08,0,1.351942316763029e-08,5,1.351942316763029e-08,4.90288416184854
1.355826950289088e-08,0.9297298819216688,1.355826950289088e-08,0,1.355826950289088e-08,0,1.355826950289088e-08,5,1.355826950289088e-08,4.708652485545613
1.362543776907132e-08,0.9074522137342297,1.362543776907132e-08,0,1.362543776907132e-08,0,1.362543776907132e-08,5,1.362543776907132e-08,4.372811154643379
1.372560343856822e-08,0.8744619519326655,1.372560343856822e-08,0,1.372560343856822e-08,0,1.372560343856822e-08,5,1.372560343856822e-08,3.871982807158879
1.388783836558081e-08,0.8207101925293605,1.388783836558081e-08,0,1.388783836558081e-08,0,1.388783836558081e-08,5,1.388783836558081e-08,3.060808172095958
1.41314910642656e-08,0.7402517878374197,1.41314910642656e-08,0,1.41314910642656e-08,0,1.41314910642656e-08,5,1.41314910642656e-08,1.842544678671983
1.45e-08,0.6184337503744096,1.45e-08,0,1.45e-08,0,1.45e-08,5,1.45e-08,0
1.472927016633748e-08,0.6181987469609476,1.472927016633748e-08,0,1.472927016633748e-08,0,1.472927016633748e-08,5,1.472927016633748e-08,0
1.499224816411627e-08,0.6181906599595985,1.499224816411627e-08,0,1.499224816411627e-08,0,1.499224816411627e-08,5,1.499224816411627e-08,0
1.525737793911253e-08,0.618199899176861,1.525737793911253e-08,0,1.525737793911253e-08,0,1.525737793911253e-08,5,1.525737793911253e-08,0
1.578763748910505e-08,0.6181923153818856,1.578763748910505e-08,0,1.578763748910505e-08,0,1.578763748910505e-08,5,1.578763748910505e-08,0
1.684815658909009e-08,0.6181992480320496,1.684815658909009e-08,0,1.684815658909009e-08,0,1.684815658909009e-08,5,1.684815658909009e-08,0
1.875e-08,0.6181926716596441,1.875e-08,0,1.875e-08,0,1.875e-08,5,1.875e-08,0
1.9e-08,0.7004966927657837,1.9e-08,0,1.9e-08,0,1.9e-08,5,1.9e-08,1.249999999999995
1.9375e-08,0.8244737919054244,1.9375e-08,0,1.9375e-08,0,1.9375e-08,5,1.9375e-08,3.125000000000003
1.975e-08,0.9482732711127869,1.975e-08,0,1.975e-08,0,1.975e-08,5,1.975e-08,4.999999999999995
1.999105975355657e-08,0.9485314717191604,1.999105975355657e-08,0,1.999105975355657e-08,0,1.999105975355657e-08,5,1.999105975355657e-08,5
2.027170279464195e-08,0.9485272493331829,2.027170279464195e-08,0,2.027170279464195e-08,0,2.027170279464195e-08,5,2.027170279464195e-08,5
2.054323457698986e-08,0.948529737926323,2.054323457698986e-08,0,2.054323457698986e-08,0,2.054323457698986e-08,5,2.054323457698986e-08,5
2.108629814168568e-08,0.9485283101680236,2.108629814168568e-08,0,2.108629814168568e-08,0,2.108629814168568e-08,5,2.108629814168568e-08,5
2.217242527107732e-08,0.9485291027108831,2.217242527107732e-08,0,2.217242527107732e-08,0,2.217242527107732e-08,5,2.217242527107732e-08,5
2.358621263553866e-08,0.9485288101692618,2.358621263553866e-08,0,2.358621263553866e-08,0,2.358621263553866e-08,5,2.358621263553866e-08,5
2.5e-08,0.948528918929556,2.5e-08,0,2.5e-08,0,2.5e-08,5,2.5e-08,5
2.5015625e-08,0.9678528548532349,2.5015625e-08,0,2.5015625e-08,0.07812500000000587,2.5015625e-08,5,2.5015625e-08,5
2.5046875e-08,1.007179982350494,2.5046875e-08,0,2.5046875e-08,0.2343750000000176,2.5046875e-08,5,2.5046875e-08,5
2.510937500000001e-08,1.07205099562353,2.510937500000001e-08,0,2.510937500000001e-08,0.5468750000000411,2.510937500000001e-08,5,2.510937500000001e-08,5
2.517766887113998e-08,1.123290713918645,2.517766887113998e-08,0,2.517766887113998e-08,0.8883443556999071,2.517766887113998e-08,5,2.517766887113998e-08,5
2.520730919510661e-08,1.142807230378569,2.520730919510661e-08,0,2.520730919510661e-08,1.036545975533035,2.520730919510661e-08,5,2.520730919510661e-08,5
2.526658984303986e-08,1.179340162136306,2.526658984303986e-08,0,2.526658984303986e-08,1.332949215199291,2.526658984303986e-08,5,2.526658984303986e-08,5
2.538515113890636e-08,1.247814496013531,2.538515113890636e-08,0,2.538515113890636e-08,1.925755694531803,2.538515113890636e-08,5,2.538515113890636e-08,5
2.556898260283535e-08,1.348539970244021,2.556898260283535e-08,0,2.556898260283535e-08,2.844913014176739,2.556898260283535e-08,5,2.556898260283535e-08,5
2.578449130141767e-08,1.46328218353979,2.578449130141767e-08,0,2.578449130141767e-08,3.922456507088367,2.578449130141767e-08,5,2.578449130141767e-08,5
2.6e-08,1.576218205162389,2.6e-08,0,2.6e-08,4.999999999999995,2.6e-08,5,2.6e-08,5
2.605490376552988e-08,1.554867695329224,2.605490376552988e-08,0,2.605490376552988e-08,5,2.605490376552988e-08,4.72548117235059,2.605490376552988e-08,4.725481172350586
2.614996478695652e-08,1.517476036642564,2.614996478695652e-08,0,2.614996478695652e-08,5,2.614996478695652e-08,4.250176065217376,2.614996478695652e-08,4.250176065217372
2.623645487849426e-08,1.483469994197096,2.623645487849426e-08,0,2.623645487849426e-08,5,2.623645487849426e-08,3.817725607528687,2.623645487849426e-08,3.817725607528683
2.640323572696476e-08,1.417337800313875,2.640323572696476e-08,0,2.640323572696476e-08,5,2.640323572696476e-08,2.983821365176197,2.640323572696476e-08,2.983821365176193
2.660379951951448e-08,1.33689856594584,2.660379951951448e-08,0,2.660379951951448e-08,5,2.660379951951448e-08,1.981002402427617,2.660379951951448e-08,1.981002402427613
2.7e-08,1.169435341581596,2.7e-08,0,2.7e-08,5,2.7e-08,1.332267629550188e-14,2.7e-08,8.881784197001252e-15
2.715522383283423e-08,1.169458565630877,2.715522383283423e-08,0,2.715522383283423e-08,5,2.715522383283423e-08,0,2.715522383283423e-08,0
2.733869970560926e-08,1.169465140571398,2.733869970560926e-08,0,2.733869970560926e-08,5,2.733869970560926e-08,0,2.733869970560926e-08,0
2.752131168811747e-08,1.169464738201994,2.752131168811747e-08,0,2.752131168811747e-08,5,2.752131168811747e-08,0,2.752131168811747e-08,0
2.788653565313389e-08,1.169460798351957,2.788653565313389e-08,0,2.788653565313389e-08,5,2.788653565313389e-08,0,2.788653565313389e-08,0
2.845624374285839e-08,1.169466345768908,2.845624374285839e-08,0,2.845624374285839e-08,5,2.845624374285839e-08,0,2.845624374285839e-08,0
2.946861170846669e-08,1.169460575704734,2.946861170846669e-08,0,2.946861170846669e-08,5,2.946861170846669e-08,0,2.946861170846669e-08,0
3.125e-08,1.169466687377304,3.125e-08,0,3.125e-08,5,3.125e-08,0,3.125e-08,0
3.15e-08,1.206454212374313,3.15e-08,0,3.15e-08,5,3.15e-08,0,3.15e-08,1.249999999999995
3.1875e-08,1.259633912226908,3.1875e-08,0,3.1875e-08,5,3.1875e-08,0,3.1875e-08,3.125000000000003
3.225e-08,1.311231181511796,3.225e-08,0,3.225e-08,5,3.225e-08,0,3.225e-08,5
3.251973631768791e-08,1.311259264204454,3.251973631768791e-08,0,3.251973631768791e-08,5,3.251973631768791e-08,0,3.251973631768791e-08,5
3.283015276496713e-08,1.311256152180425,3.283015276496713e-08,0,3.283015276496713e-08,5,3.283015276496713e-08,0,3.283015276496713e-08,5
3.313341499347804e-08,1.311242853073657,3.313341499347804e-08,0,3.313341499347804e-08,5,3.313341499347804e-08,0,3.313341499347804e-08,5
3.373993945049986e-08,1.311256786722916,3.373993945049986e-08,0,3.373993945049986e-08,5,3.373993945049986e-08,0,3.373993945049986e-08,5
3.49529883645435e-08,1.311243898035375,3.49529883645435e-08,0,3.49529883645435e-08,5,3.49529883645435e-08,0,3.49529883645435e-08,5
3.622649418227175e-08,1.311255724440479,3.622649418227175e-08,0,3.622649418227175e-08,5,3.622649418227175e-08,0,3.622649418227175e-08,5
3.75e-08,1.311243644725304,3.75e-08,0,3.75e-08,5,3.75e-08,0,3.75e-08,5
3.775e-08,1.37863562146661,3.775e-08,0,3.775e-08,5,3.775e-08,1.249999999999995,3.775e-08,5
3.8125e-08,1.478084461703557,3.8125e-08,0,3.8125e-08,5,3.8125e-08,3.125000000000003,3.8125e-08,5
3.85e-08,1.576247159262827,3.85e-08,0,3.85e-08,5,3.85e-08,5,3.85e-08,5
3.863795647218899e-08,1.55830973046246,3.863795647218899e-08,0,3.863795647218899e-08,5,3.863795647218899e-08,5,3.863795647218899e-08,4.310217639055044
3.882874630144446e-08,1.533320157959291,3.882874630144446e-08,0,3.882874630144446e-08,5,3.882874630144446e-08,5,3.882874630144446e-08,3.356268492777712
3.900530072115684e-08,1.51025453617585,3.900530072115684e-08,0,3.900530072115684e-08,5,3.900530072115684e-08,5,3.900530072115684e-08,2.473496394215771
3.925265036057842e-08,1.477703899495419,3.925265036057842e-08,0,3.925265036057842e-08,5,3.925265036057842e-08,5,3.925265036057842e-08,1.23674819710789
3.95e-08,1.445145956353587,3.95e-08,0,3.95e-08,5,3.95e-08,5,3.95e-08,0
3.971993959638582e-08,1.445096821294606,3.971993959638582e-08,0,3.971993959638582e-08,5,3.971993959638582e-08,5,3.971993959638582e-08,0
3.996788344317015e-08,1.445112267571565,3.996788344317015e-08,0,3.996788344317015e-08,5,3.996788344317015e-08,5,3.996788344317015e-08,0
4.021593552472962e-08,1.445093818590167,4.021593552472962e-08,0,4.021593552472962e-08,5,4.021593552472962e-08,5,4.021593552472962e-08,0
4.071203968784855e-08,1.445111824392023,4.071203968784855e-08,0,4.071203968784855e-08,5,4.071203968784855e-08,5,4.071203968784855e-08,0
4.170424801408641e-08,1.445095389790326,4.170424801408641e-08,0,4.170424801408641e-08,5,4.170424801408641e-08,5,4.170424801408641e-08,0
4.272712400704321e-08,1.445110168842059,4.272712400704321e-08,0,4.272712400704321e-08,5,4.272712400704321e-08,5,4.272712400704321e-08,0
4.375e-08,1.445095351407788,4.375e-08,0,4.375e-08,5,4.375e-08,5,4.375e-08,0
4.411321889158088e-08,1.492923398173858,4.411321889158088e-08,0,4.411321889158088e-08,5,4.411321889158088e-08,5,4.411321889158088e-08,1.816094457904414
4.443160944579044e-08,1.534709759472632,4.443160944579044e-08,0,4.443160944579044e-08,5,4.443160944579044e-08,5,4.443160944579044e-08,3.408047228952229
4.475e-08,1.576245691630097,4.475e-08,0,4.475e-08,5,4.475e-08,5,4.475e-08,5
4.499972094594659e-08,1.576280355390918,4.499972094594659e-08,0,4.499972094594659e-08,5,4.499972094594659e-08,5,4.499972094594659e-08,5
4.52842792458011e-08,1.576268445551485,4.52842792458011e-08,0,4.52842792458011e-08,5,4.52842792458011e-08,5,4.52842792458011e-08,5
4.556511518116898e-08,1.576282994334452,4.556511518116898e-08,0,4.556511518116898e-08,5,4.556511518116898e-08,5,4.556511518116898e-08,5
4.612678705190472e-08,1.576269225418527,4.612678705190472e-08,0,4.612678705190472e-08,5,4.612678705190472e-08,5,4.612678705190472e-08,5
4.725013079337622e-08,1.576283431482668,4.725013079337622e-08,0,4.725013079337622e-08,5,4.725013079337622e-08,5,4.725013079337622e-08,5
4.862506539668811e-08,1.576268697460663,4.862506539668811e-08,0,4.862506539668811e-08,5,4.862506539668811e-08,5,4.862506539668811e-08,5
5e-08,1.576283142222813,5e-08,0,5e-08,5,5e-08,5,5e-08,5
5.011523448832378e-08,1.6959065431316,5.011523448832378e-08,0.576172441618891,5.011523448832378e-08,5,5.011523448832378e-08,5,5.011523448832378e-08,5
5.031178629985703e-08,1.898708955987871,5.031178629985703e-08,1.558931499285148,5.031178629985703e-08,5,5.031178629985703e-08,5,5.031178629985703e-08,5
5.05545934795602e-08,2.147645245351764,5.05545934795602e-08,2.772967397801017,5.05545934795602e-08,5,5.05545934795602e-08,5,5.05545934795602e-08,5
5.077729673978009e-08,2.375265068457383,5.077729673978009e-08,3.886483698900481,5.077729673978009e-08,5,5.077729673978009e-08,5,5.077729673978009e-08,5
5.099999999999999e-08,2.602379846138762,5.099999999999999e-08,4.999999999999979,5.099999999999999e-08,5,5.099999999999999e-08,5,5.099999999999999e-08,5
5.103821210946411e-08,2.568549165002136,5.103821210946411e-08,5,5.103821210946411e-08,4.80893945267943,5.103821210946411e-08,4.808939452679438,5.103821210946411e-08,4.808939452679434
5.111105595390264e-08,2.503388147875373,5.111105595390264e-08,5,5.111105595390264e-08,4.44472023048679,5.111105595390264e-08,4.444720230486798,5.111105595390264e-08,4.444720230486794
5.117551301055999e-08,2.445887133242186,5.117551301055999e-08,5,5.117551301055999e-08,4.122434947200046,5.117551301055999e-08,4.122434947200054,5.117551301055999e-08,4.12243494720005
5.127300274346188e-08,2.358812130849542,5.127300274346188e-08,5,5.127300274346188e-08,3.634986282690582,5.127300274346188e-08,3.634986282690591,5.127300274346188e-08,3.634986282690586
5.141285446079572e-08,2.233840041798455,5.141285446079572e-08,5,5.141285446079572e-08,2.935727696021373,5.141285446079572e-08,2.935727696021382,5.141285446079572e-08,2.935727696021378
5.164817174653687e-08,2.023051495727977,5.164817174653687e-08,5,5.164817174653687e-08,1.759141267315647,5.164817174653687e-08,1.759141267315655,5.164817174653687e-08,1.759141267315651
5.2e-08,1.706200778314908,5.2e-08,5,5.2e-08,0,5.2e-08,1.332267629550188e-14,5.2e-08,8.881784197001252e-15
5.206760657303049e-08,1.706066409259254,5.206760657303049e-08,5,5.206760657303049e-08,0,5.206760657303049e-08,0,5.206760657303049e-08,0
5.218919058903832e-08,1.706153100941997,5.218919058903832e-08,5,5.218919058903832e-08,0,5.218919058903832e-08,0,5.218919058903832e-08,0
5.230338447486694e-08,1.706084861652059,5.230338447486694e-08,5,5.230338447486694e-08,0,5.230338447486694e-08,0,5.230338447486694e-08,0
5.251143672236183e-08,1.706135826314175,5.251143672236183e-08,5,5.251143672236183e-08,0,5.251143672236183e-08,0,5.251143672236183e-08,0
5.275805384733728e-08,1.706094490033655,5.275805384733728e-08,5,5.275805384733728e-08,0,5.275805384733728e-08,0,5.275805384733728e-08,0
5.320900742410466e-08,1.706139309771944,5.320900742410466e-08,5,5.320900742410466e-08,0,5.320900742410466e-08,0,5.320900742410466e-08,0
5.398294760270218e-08,1.706102381931638,5.398294760270218e-08,5,5.398294760270218e-08,0,5.398294760270218e-08,0,5.398294760270218e-08,0
5.523735577664936e-08,1.706133169249901,5.523735577664936e-08,5,5.523735577664936e-08,0,5.523735577664936e-08,0,5.523735577664936e-08,0
5.625e-08,1.706091615133498,5.625e-08,5,5.625e-08,0,5.625e-08,0,5.625e-08,0
5.661279327591291e-08,1.752986668010453,5.661279327591291e-08,5,5.661279327591291e-08,0,5.661279327591291e-08,0,5.661279327591291e-08,1.81396637956457
5.693139663795646e-08,1.794116824258122,5.693139663795646e-08,5,5.693139663795646e-08,0,5.693139663795646e-08,0,5.693139663795646e-08,3.406983189782308
5.725e-08,1.835127944416834,5.725e-08,5,5.725e-08,0,5.725e-08,0,5.725e-08,5
5.750009137594616e-08,1.83516868995474,5.750009137594616e-08,5,5.750009137594616e-08,0,5.750009137594616e-08,0,5.750009137594616e-08,5
5.778500768965167e-08,1.835149377876371,5.778500768965167e-08,5,5.778500768965167e-08,0,5.778500768965167e-08,0,5.778500768965167e-08,5
5.80662687218344e-08,1.835154660263251,5.80662687218344e-08,5,5.80662687218344e-08,0,5.80662687218344e-08,0,5.80662687218344e-08,5
5.862879078619986e-08,1.835149838749028,5.862879078619986e-08,5,5.862879078619986e-08,0,5.862879078619986e-08,0,5.862879078619986e-08,5
5.975383491493076e-08,1.835154281535923,5.975383491493076e-08,5,5.975383491493076e-08,0,5.975383491493076e-08,0,5.975383491493076e-08,5
6.112691745746537e-08,1.835150039348964,6.112691745746537e-08,5,6.112691745746537e-08,0,6.112691745746537e-08,0,6.112691745746537e-08,5
6.25e-08,1.835154178914052,6.25e-08,5,6.25e-08,0,6.25e-08,0,6.25e-08,5
6.27787069763297e-08,1.90681799993075,6.27787069763297e-08,5,6.27787069763297e-08,0,6.27787069763297e-08,1.393534881648493,6.27787069763297e-08,5
6.313935348816484e-08,1.999444231417559,6.313935348816484e-08,5,6.313935348816484e-08,0,6.313935348816484e-08,3.196767440824203,6.313935348816484e-08,5
6.349999999999999e-08,2.09178385282066,6.349999999999999e-08,5,6.349999999999999e-08,0,6.349999999999999e-08,4.999999999999979,6.349999999999999e-08,5
6.363707535874173e-08,2.074295623466274,6.363707535874173e-08,5,6.363707535874173e-08,0,6.363707535874173e-08,5,6.363707535874173e-08,4.314623206291334
6.38240119649467e-08,2.050348191338176,6.38240119649467e-08,5,6.38240119649467e-08,0,6.38240119649467e-08,5,6.38240119649467e-08,3.379940175266487
6.399739886039839e-08,2.028118689617485,6.399739886039839e-08,5,6.399739886039839e-08,0,6.399739886039839e-08,5,6.399739886039839e-08,2.513005698008047
6.424869943019919e-08,1.995924580059684,6.424869943019919e-08,5,6.424869943019919e-08,0,6.424869943019919e-08,5,6.424869943019919e-08,1.256502849004011
6.45e-08,1.963666233609226,6.45e-08,5,6.45e-08,0,6.45e-08,5,6.45e-08,0
6.472215761322903e-08,1.963679704763408,6.472215761322903e-08,5,6.472215761322903e-08,0,6.472215761322903e-08,5,6.472215761322903e-08,0
6.497266158797131e-08,1.96367795071497,6.497266158797131e-08,5,6.497266158797131e-08,0,6.497266158797131e-08,5,6.497266158797131e-08,0
6.522309924596433e-08,1.963665921798076,6.522309924596433e-08,5,6.522309924596433e-08,0,6.522309924596433e-08,5,6.522309924596433e-08,0
6.572397456195038e-08,1.963677203369752,6.572397456195038e-08,5,6.572397456195038e-08,0,6.572397456195038e-08,5,6.572397456195038e-08,0
6.672572519392247e-08,1.963666881332575,6.672572519392247e-08,5,6.672572519392247e-08,0,6.672572519392247e-08,5,6.672572519392247e-08,0
6.773786259696124e-08,1.96367646972488,6.773786259696124e-08,5,6.773786259696124e-08,0,6.773786259696124e-08,5,6.773786259696124e-08,0
6.875e-08,1.96366696573339,6.875e-08,5,6.875e-08,0,6.875e-08,5,6.875e-08,6.617444900424221e-14
6.911298680640714e-08,2.010217223503149,6.911298680640714e-08,5,6.911298680640714e-08,0,6.911298680640714e-08,5,6.911298680640714e-08,1.814934032035665
