/vout X,/vout Y,/net06 X,/net06 Y,/net09 X,/net09 Y,/net08 X,/net08 Y,/net07 X,/net07 Y
0,6.658950081049338e-09,0,0,0,0,0,0,0,0
1e-10,6.658975713300082e-09,1e-10,0,1e-10,0,1e-10,0,1e-10,0
3e-10,6.658975348525719e-09,3e-10,0,3e-10,0,3e-10,0,3e-10,0
7e-10,6.658976220223657e-09,7e-10,0,7e-10,0,7e-10,0,7e-10,0
1.5e-09,6.658975614262631e-09,1.5e-09,0,1.5e-09,0,1.5e-09,0,1.5e-09,0
3.1e-09,6.658975899789995e-09,3.1e-09,0,3.1e-09,0,3.1e-09,0,3.1e-09,0
4.675e-09,6.658975725188102e-09,4.675e-09,0,4.675e-09,0,4.675e-09,0,4.675e-09,0
6.25e-09,6.658975800040362e-09,6.25e-09,0,6.25e-09,0,6.25e-09,0,6.25e-09,0
6.312499999999999e-09,0.01715678409165882,6.312499999999999e-09,0,6.312499999999999e-09,0,6.312499999999999e-09,0,6.312499999999999e-09,0.3124999999999987
6.437499999999999e-09,0.05226133674792759,6.437499999999999e-09,0,6.437499999999999e-09,0,6.437499999999999e-09,0,6.437499999999999e-09,0.9374999999999959
6.687499999999998e-09,0.1238610408159159,6.687499999999998e-09,0,6.687499999999998e-09,0,6.687499999999998e-09,0,6.687499999999998e-09,2.187499999999991
6.968749999999999e-09,0.2068393076156981,6.968749999999999e-09,0,6.968749999999999e-09,0,6.968749999999999e-09,0,6.968749999999999e-09,3.593749999999997
7.25e-09,0.2928290464548437,7.25e-09,0,7.25e-09,0,7.25e-09,0,7.25e-09,4.999999999999999
7.38061575691348e-09,0.293141287456593,7.38061575691348e-09,0,7.38061575691348e-09,0,7.38061575691348e-09,0,7.38061575691348e-09,5
7.599794037756853e-09,0.2931647716510596,7.599794037756853e-09,0,7.599794037756853e-09,0,7.599794037756853e-09,0,7.599794037756853e-09,5
7.813052203493055e-09,0.2931484691537343,7.813052203493055e-09,0,7.813052203493055e-09,0,7.813052203493055e-09,0,7.813052203493055e-09,5
8.239568534965458e-09,0.2931605657837739,8.239568534965458e-09,0,8.239568534965458e-09,0,8.239568534965458e-09,0,8.239568534965458e-09,5
8.840826618862379e-09,0.293150363408036,8.840826618862379e-09,0,8.840826618862379e-09,0,8.840826618862379e-09,0,8.840826618862379e-09,5
9.832577146090919e-09,0.29315997962381,9.832577146090919e-09,0,9.832577146090919e-09,0,9.832577146090919e-09,0,9.832577146090919e-09,5
1.116628857304546e-08,0.2931509404907637,1.116628857304546e-08,0,1.116628857304546e-08,0,1.116628857304546e-08,0,1.116628857304546e-08,5
1.25e-08,0.2931596799093272,1.25e-08,0,1.25e-08,0,1.25e-08,0,1.25e-08,5
1.275e-08,0.4527817039321371,1.275e-08,0,1.275e-08,0,1.275e-08,1.249999999999995,1.275e-08,5
1.285969260993132e-08,0.524917064069959,1.285969260993132e-08,0,1.285969260993132e-08,0,1.285969260993132e-08,1.798463049656591,1.285969260993132e-08,5
1.307907782979396e-08,0.6698517605500438,1.307907782979396e-08,0,1.307907782979396e-08,0,1.307907782979396e-08,2.895389148969784,1.307907782979396e-08,5
1.328953891489698e-08,0.8063897831434917,1.328953891489698e-08,0,1.328953891489698e-08,0,1.328953891489698e-08,3.947694574484889,1.328953891489698e-08,5
1.35e-08,0.9047752780367292,1.35e-08,0,1.35e-08,0,1.35e-08,4.999999999999995,1.35e-08,5
1.351423797360254e-08,0.9023203019681512,1.351423797360254e-08,0,1.351423797360254e-08,0,1.351423797360254e-08,5,1.351423797360254e-08,4.928810131987296
1.354271392080762e-08,0.8970496341783909,1.354271392080762e-08,0,1.354271392080762e-08,0,1.354271392080762e-08,5,1.354271392080762e-08,4.786430395961881
1.359966581521779e-08,0.8860905547314869,1.359966581521779e-08,0,1.359966581521779e-08,0,1.359966581521779e-08,5,1.359966581521779e-08,4.50167092391105
1.368746334205477e-08,0.8678459024867632,1.368746334205477e-08,0,1.368746334205477e-08,0,1.368746334205477e-08,5,1.368746334205477e-08,4.062683289726131
1.382838905935375e-08,0.8335467750400367,1.382838905935375e-08,0,1.382838905935375e-08,0,1.382838905935375e-08,5,1.382838905935375e-08,3.358054703231227
1.403729531417244e-08,0.7706480228566051,1.403729531417244e-08,0,1.403729531417244e-08,0,1.403729531417244e-08,5,1.403729531417244e-08,2.313523429137774
1.426864765708622e-08,0.6948450031284081,1.426864765708622e-08,0,1.426864765708622e-08,0,1.426864765708622e-08,5,1.426864765708622e-08,1.156761714568884
1.45e-08,0.6184954473174431,1.45e-08,0,1.45e-08,0,1.45e-08,5,1.45e-08,0
1.468766132987863e-08,0.6182026983053411,1.468766132987863e-08,0,1.468766132987863e-08,0,1.468766132987863e-08,5,1.468766132987863e-08,0
1.490199155528068e-08,0.6181851582654208,1.490199155528068e-08,0,1.490199155528068e-08,0,1.490199155528068e-08,5,1.490199155528068e-08,0
1.511471974303128e-08,0.6181992237682864,1.511471974303128e-08,0,1.511471974303128e-08,0,1.511471974303128e-08,5,1.511471974303128e-08,0
1.55401761185325e-08,0.6181884246995448,1.55401761185325e-08,0,1.55401761185325e-08,0,1.55401761185325e-08,5,1.55401761185325e-08,0
1.639108886953492e-08,0.6181980664147793,1.639108886953492e-08,0,1.639108886953492e-08,0,1.639108886953492e-08,5,1.639108886953492e-08,0
1.757054443476746e-08,0.6181892176234336,1.757054443476746e-08,0,1.757054443476746e-08,0,1.757054443476746e-08,5,1.757054443476746e-08,0
1.875e-08,0.618197513584672,1.875e-08,0,1.875e-08,0,1.875e-08,5,1.875e-08,0
1.9e-08,0.700441146981823,1.9e-08,0,1.9e-08,0,1.9e-08,5,1.9e-08,1.249999999999995
1.9375e-08,0.8201875372424765,1.9375e-08,0,1.9375e-08,0,1.9375e-08,5,1.9375e-08,3.125000000000003
1.975e-08,0.9048239443693454,1.975e-08,0,1.975e-08,0,1.975e-08,5,1.975e-08,4.999999999999995
1.980329447779056e-08,0.9048376119987028,1.980329447779056e-08,0,1.980329447779056e-08,0,1.980329447779056e-08,5,1.980329447779056e-08,5
1.990988343337168e-08,0.9048451404422707,1.990988343337168e-08,0,1.990988343337168e-08,0,1.990988343337168e-08,5,1.990988343337168e-08,5
2.01203341712112e-08,0.904820055953074,2.01203341712112e-08,0,2.01203341712112e-08,0,2.01203341712112e-08,5,2.01203341712112e-08,5
2.048040648062941e-08,0.9048463535704228,2.048040648062941e-08,0,2.048040648062941e-08,0,2.048040648062941e-08,5,2.048040648062941e-08,5
2.110852349041508e-08,0.9048208954572774,2.110852349041508e-08,0,2.110852349041508e-08,0,2.110852349041508e-08,5,2.110852349041508e-08,5
2.236475750998643e-08,0.9048474633386001,2.236475750998643e-08,0,2.236475750998643e-08,0,2.236475750998643e-08,5,2.236475750998643e-08,5
2.368237875499321e-08,0.9048186418620973,2.368237875499321e-08,0,2.368237875499321e-08,0,2.368237875499321e-08,5,2.368237875499321e-08,5
2.5e-08,0.9048471593266021,2.5e-08,0,2.5e-08,0,2.5e-08,5,2.5e-08,5
2.5015625e-08,0.9156852755129375,2.5015625e-08,0,2.5015625e-08,0.07812500000000587,2.5015625e-08,5,2.5015625e-08,5
2.5046875e-08,0.9366497113835921,2.5046875e-08,0,2.5046875e-08,0.2343750000000176,2.5046875e-08,5,2.5046875e-08,5
2.510937500000001e-08,0.9756317288187788,2.510937500000001e-08,0,2.510937500000001e-08,0.5468750000000411,2.510937500000001e-08,5,2.510937500000001e-08,5
2.519193179585523e-08,1.023829635202609,2.519193179585523e-08,0,2.519193179585523e-08,0.9596589792761515,2.519193179585523e-08,5,2.519193179585523e-08,5
2.532961754225747e-08,1.100534682847655,2.532961754225747e-08,0,2.532961754225747e-08,1.648087711287352,2.532961754225747e-08,5,2.532961754225747e-08,5
2.55187178230818e-08,1.202349902872468,2.55187178230818e-08,0,2.55187178230818e-08,2.593589115409028,2.55187178230818e-08,5,2.55187178230818e-08,5
2.57593589115409e-08,1.329259037953129,2.57593589115409e-08,0,2.57593589115409e-08,3.796794557704503,2.57593589115409e-08,5,2.57593589115409e-08,5
2.6e-08,1.454564455094532,2.6e-08,0,2.6e-08,4.999999999999995,2.6e-08,5,2.6e-08,5
2.605804540622554e-08,1.43210623585012,2.605804540622554e-08,0,2.605804540622554e-08,5,2.605804540622554e-08,4.709772968872304,2.605804540622554e-08,4.7097729688723
2.615981073948578e-08,1.392340365564024,2.615981073948578e-08,0,2.615981073948578e-08,5,2.615981073948578e-08,4.200946302571118,2.615981073948578e-08,4.200946302571115
2.625200419741344e-08,1.356328346516655,2.625200419741344e-08,0,2.625200419741344e-08,5,2.625200419741344e-08,3.739979012932816,2.625200419741344e-08,3.739979012932811
2.642682986082221e-08,1.287615014077048,2.642682986082221e-08,0,2.642682986082221e-08,5,2.642682986082221e-08,2.865850695888943,2.642682986082221e-08,2.865850695888939
2.663741207797908e-08,1.204187053315026,2.663741207797908e-08,0,2.663741207797908e-08,5,2.663741207797908e-08,1.812939610104622,2.663741207797908e-08,1.812939610104618
2.7e-08,1.056678398884626,2.7e-08,0,2.7e-08,5,2.7e-08,1.332267629550188e-14,2.7e-08,8.881784197001252e-15
2.710842743540514e-08,1.056659870476614,2.710842743540514e-08,0,2.710842743540514e-08,5,2.710842743540514e-08,0,2.710842743540514e-08,0
2.72775740860107e-08,1.056652016183374,2.72775740860107e-08,0,2.72775740860107e-08,5,2.72775740860107e-08,0,2.72775740860107e-08,0
2.744345809984866e-08,1.056660834210716,2.744345809984866e-08,0,2.744345809984866e-08,5,2.744345809984866e-08,0,2.744345809984866e-08,0
2.777522612752458e-08,1.056647276367792,2.777522612752458e-08,0,2.777522612752458e-08,5,2.777522612752458e-08,0,2.777522612752458e-08,0
2.825875685953953e-08,1.056662789337879,2.825875685953953e-08,0,2.825875685953953e-08,5,2.825875685953953e-08,0,2.825875685953953e-08,0
2.912140792656556e-08,1.056647068006912,2.912140792656556e-08,0,2.912140792656556e-08,5,2.912140792656556e-08,0,2.912140792656556e-08,0
3.018570396328278e-08,1.056662868535672,3.018570396328278e-08,0,3.018570396328278e-08,5,3.018570396328278e-08,0,3.018570396328278e-08,0
3.125e-08,1.056646645866158,3.125e-08,0,3.125e-08,5,3.125e-08,0,3.125e-08,0
3.15e-08,1.091212647168254,3.15e-08,0,3.15e-08,5,3.15e-08,0,3.15e-08,1.249999999999995
3.1875e-08,1.142169302352926,3.1875e-08,0,3.1875e-08,5,3.1875e-08,0,3.1875e-08,3.125000000000003
3.225e-08,1.192430120612259,3.225e-08,0,3.225e-08,5,3.225e-08,0,3.225e-08,5
3.252036564670301e-08,1.192457836479734,3.252036564670301e-08,0,3.252036564670301e-08,5,3.252036564670301e-08,0,3.252036564670301e-08,5
3.283115571086049e-08,1.19239457919483,3.283115571086049e-08,0,3.283115571086049e-08,5,3.283115571086049e-08,0,3.283115571086049e-08,5
3.313512506546368e-08,1.192482886214052,3.313512506546368e-08,0,3.313512506546368e-08,5,3.313512506546368e-08,0,3.313512506546368e-08,5
3.374306377467007e-08,1.192407947238374,3.374306377467007e-08,0,3.374306377467007e-08,5,3.374306377467007e-08,0,3.374306377467007e-08,5
3.495894119308283e-08,1.192465109282924,3.495894119308283e-08,0,3.495894119308283e-08,5,3.495894119308283e-08,0,3.495894119308283e-08,5
3.622947059654141e-08,1.192416226463225,3.622947059654141e-08,0,3.622947059654141e-08,5,3.622947059654141e-08,0,3.622947059654141e-08,5
3.75e-08,1.192461395916868,3.75e-08,0,3.75e-08,5,3.75e-08,0,3.75e-08,5
3.775e-08,1.258694197085266,3.775e-08,0,3.775e-08,5,3.775e-08,1.249999999999995,3.775e-08,5
3.8125e-08,1.357039151976186,3.8125e-08,0,3.8125e-08,5,3.8125e-08,3.125000000000003,3.8125e-08,5
3.85e-08,1.454614166325286,3.85e-08,0,3.85e-08,5,3.85e-08,5,3.85e-08,5
3.863802727636499e-08,1.436742678883102,3.863802727636499e-08,0,3.863802727636499e-08,5,3.863802727636499e-08,5,3.863802727636499e-08,4.30986361817504
3.882886378409006e-08,1.411911380475308,3.882886378409006e-08,0,3.882886378409006e-08,5,3.882886378409006e-08,5,3.882886378409006e-08,3.355681079549672
3.900547811845239e-08,1.388974087942941,3.900547811845239e-08,0,3.900547811845239e-08,5,3.900547811845239e-08,5,3.900547811845239e-08,2.472609407738022
3.92527390592262e-08,1.356698674260403,3.92527390592262e-08,0,3.92527390592262e-08,5,3.92527390592262e-08,5,3.92527390592262e-08,1.236304703868999
3.95e-08,1.324417787632239,3.95e-08,0,3.95e-08,5,3.95e-08,5,3.95e-08,0
3.972006467346934e-08,1.324381375501252,3.972006467346934e-08,0,3.972006467346934e-08,5,3.972006467346934e-08,5,3.972006467346934e-08,0
3.996812079904672e-08,1.324391493485536,3.996812079904672e-08,0,3.996812079904672e-08,5,3.996812079904672e-08,5,3.996812079904672e-08,0
4.021629901049813e-08,1.324379912127484,4.021629901049813e-08,0,4.021629901049813e-08,5,4.021629901049813e-08,5,4.021629901049813e-08,0
4.071265543340094e-08,1.324390869038196,4.071265543340094e-08,0,4.071265543340094e-08,5,4.071265543340094e-08,5,4.071265543340094e-08,0
4.170536827920656e-08,1.324380600558096,4.170536827920656e-08,0,4.170536827920656e-08,5,4.170536827920656e-08,5,4.170536827920656e-08,0
4.272768413960328e-08,1.324390265337464,4.272768413960328e-08,0,4.272768413960328e-08,5,4.272768413960328e-08,5,4.272768413960328e-08,0
4.375e-08,1.32438067651939,4.375e-08,0,4.375e-08,5,4.375e-08,5,4.375e-08,0
4.411339566045412e-08,1.371833638382332,4.411339566045412e-08,0,4.411339566045412e-08,5,4.411339566045412e-08,5,4.411339566045412e-08,1.816978302270598
4.443169783022706e-08,1.41332113746055,4.443169783022706e-08,0,4.443169783022706e-08,5,4.443169783022706e-08,5,4.443169783022706e-08,3.408489151135288
4.475e-08,1.454581473528723,4.475e-08,0,4.475e-08,5,4.475e-08,5,4.475e-08,5
4.49998307712433e-08,1.454650303777974,4.49998307712433e-08,0,4.49998307712433e-08,5,4.49998307712433e-08,5,4.49998307712433e-08,5
4.528449881595628e-08,1.454617785455538,4.528449881595628e-08,0,4.528449881595628e-08,5,4.528449881595628e-08,5,4.528449881595628e-08,5
4.556550001073464e-08,1.454628187007291,4.556550001073464e-08,0,4.556550001073464e-08,5,4.556550001073464e-08,5,4.556550001073464e-08,5
4.612750240029136e-08,1.454618118249636,4.612750240029136e-08,0,4.612750240029136e-08,5,4.612750240029136e-08,5,4.612750240029136e-08,5
4.72515071794048e-08,1.454627830254543,4.72515071794048e-08,0,4.72515071794048e-08,5,4.72515071794048e-08,5,4.72515071794048e-08,5
4.86257535897024e-08,1.454617970273558,4.86257535897024e-08,0,4.86257535897024e-08,5,4.86257535897024e-08,5,4.86257535897024e-08,5
5e-08,1.454627687371239,5e-08,0,5e-08,5,5e-08,5,5e-08,5
5.011524595932176e-08,1.573757237052374,5.011524595932176e-08,0.5762297966088127,5.011524595932176e-08,5,5.011524595932176e-08,5,5.011524595932176e-08,5
5.031185837035259e-08,1.776056594511127,5.031185837035259e-08,1.559291851762969,5.031185837035259e-08,5,5.031185837035259e-08,5,5.031185837035259e-08,5
5.055475460929452e-08,2.024703468890149,5.055475460929452e-08,2.773773046472587,5.055475460929452e-08,5,5.055475460929452e-08,5,5.055475460929452e-08,5
5.077737730464725e-08,2.25196465484222,5.077737730464725e-08,3.886886523236283,5.077737730464725e-08,5,5.077737730464725e-08,5,5.077737730464725e-08,5
5.099999999999999e-08,2.478872402361439,5.099999999999999e-08,4.999999999999979,5.099999999999999e-08,5,5.099999999999999e-08,5,5.099999999999999e-08,5
5.103820735438789e-08,2.445048246437089,5.103820735438789e-08,5,5.103820735438789e-08,4.808963228060527,5.103820735438789e-08,4.808963228060535,5.103820735438789e-08,4.808963228060532
5.111103534505921e-08,2.379952291874115,5.111103534505921e-08,5,5.111103534505921e-08,4.444823274703944,5.111103534505921e-08,4.444823274703952,5.111103534505921e-08,4.444823274703948
5.117547700040946e-08,2.322503267742384,5.117547700040946e-08,5,5.117547700040946e-08,4.122614997952663,5.117547700040946e-08,4.122614997952671,5.117547700040946e-08,4.122614997952667
5.127280891525905e-08,2.235647872997297,5.127280891525905e-08,5,5.127280891525905e-08,3.635955423704754,5.127280891525905e-08,3.635955423704762,5.127280891525905e-08,3.635955423704758
5.141179968460515e-08,2.111559853540698,5.141179968460515e-08,5,5.141179968460515e-08,2.941001576974228,5.141179968460515e-08,2.941001576974237,5.141179968460515e-08,2.941001576974232
5.164612569826569e-08,1.90194160402986,5.164612569826569e-08,5,5.164612569826569e-08,1.769371508671516,5.164612569826569e-08,1.769371508671525,5.164612569826569e-08,1.76937150867152
5.2e-08,1.583985434609668,5.2e-08,5,5.2e-08,0,5.2e-08,1.332267629550188e-14,5.2e-08,8.881784197001252e-15
5.206772070752824e-08,1.583857695021792,5.206772070752824e-08,5,5.206772070752824e-08,0,5.206772070752824e-08,0,5.206772070752824e-08,0
5.218960550136888e-08,1.583935703395022,5.218960550136888e-08,5,5.218960550136888e-08,0,5.218960550136888e-08,0,5.218960550136888e-08,0
5.230417987541276e-08,1.583878989251667,5.230417987541276e-08,5,5.230417987541276e-08,0,5.230417987541276e-08,0,5.230417987541276e-08,0
5.251291226126942e-08,1.583917753248011,5.251291226126942e-08,5,5.251291226126942e-08,0,5.251291226126942e-08,0,5.251291226126942e-08,0
5.275965148845417e-08,1.58388809670978,5.275965148845417e-08,5,5.275965148845417e-08,0,5.275965148845417e-08,0,5.275965148845417e-08,0
5.321082487972308e-08,1.58391983653304,5.321082487972308e-08,5,5.321082487972308e-08,0,5.321082487972308e-08,0,5.321082487972308e-08,0
5.398108792686467e-08,1.583893173671788,5.398108792686467e-08,5,5.398108792686467e-08,0,5.398108792686467e-08,0,5.398108792686467e-08,0
5.522670951461541e-08,1.583915896786685,5.522670951461541e-08,5,5.522670951461541e-08,0,5.522670951461541e-08,0,5.522670951461541e-08,0
5.625e-08,1.583886029341658,5.625e-08,5,5.625e-08,0,5.625e-08,0,5.625e-08,0
5.661384762234389e-08,1.63076126692956,5.661384762234389e-08,5,5.661384762234389e-08,0,5.661384762234389e-08,0,5.661384762234389e-08,1.819238111719444
5.693192381117194e-08,1.671700645511008,5.693192381117194e-08,5,5.693192381117194e-08,0,5.693192381117194e-08,0,5.693192381117194e-08,3.409619055859728
5.725e-08,1.712548558811589,5.725e-08,5,5.725e-08,0,5.725e-08,0,5.725e-08,5
5.749993241329191e-08,1.712582700510419,5.749993241329191e-08,5,5.749993241329191e-08,0,5.749993241329191e-08,0,5.749993241329191e-08,5
5.778462899208501e-08,1.712566767953615,5.778462899208501e-08,5,5.778462899208501e-08,0,5.778462899208501e-08,0,5.778462899208501e-08,5
5.806570627506648e-08,1.712570943164066,5.806570627506648e-08,5,5.806570627506648e-08,0,5.806570627506648e-08,0,5.806570627506648e-08,5
5.862786084102942e-08,1.712567218637379,5.862786084102942e-08,5,5.862786084102942e-08,0,5.862786084102942e-08,0,5.862786084102942e-08,5
5.97521699729553e-08,1.712570605276956,5.97521699729553e-08,5,5.97521699729553e-08,0,5.97521699729553e-08,0,5.97521699729553e-08,5
6.112608498647765e-08,1.712567428596281,6.112608498647765e-08,5,6.112608498647765e-08,0,6.112608498647765e-08,0,6.112608498647765e-08,5
6.25e-08,1.712570511358417,6.25e-08,5,6.25e-08,0,6.25e-08,0,6.25e-08,5
6.277879901749448e-08,1.784101269773829,6.277879901749448e-08,5,6.277879901749448e-08,0,6.277879901749448e-08,1.393995087472418,6.277879901749448e-08,5
6.313939950874724e-08,1.876536848215224,6.313939950874724e-08,5,6.313939950874724e-08,0,6.313939950874724e-08,3.196997543736231,6.313939950874724e-08,5
6.349999999999999e-08,1.968739511077914,6.349999999999999e-08,5,6.349999999999999e-08,0,6.349999999999999e-08,4.999999999999979,6.349999999999999e-08,5
6.363708743226959e-08,1.951268759327094,6.363708743226959e-08,5,6.363708743226959e-08,0,6.363708743226959e-08,5,6.363708743226959e-08,4.314562838652018
6.382402449953099e-08,1.92735489315068,6.382402449953099e-08,5,6.382402449953099e-08,0,6.382402449953099e-08,5,6.382402449953099e-08,3.379877502345013
6.399741530613241e-08,1.905162062680581,6.399741530613241e-08,5,6.399741530613241e-08,0,6.399741530613241e-08,5,6.399741530613241e-08,2.512923469337944
6.424870765306621e-08,1.87301702181321,6.424870765306621e-08,5,6.424870765306621e-08,0,6.424870765306621e-08,5,6.424870765306621e-08,1.25646173466896
6.45e-08,1.840819287226051,6.45e-08,5,6.45e-08,0,6.45e-08,5,6.45e-08,0
6.47221893876894e-08,1.840828446882825,6.47221893876894e-08,5,6.47221893876894e-08,0,6.47221893876894e-08,5,6.47221893876894e-08,0
6.497273261067829e-08,1.84082744788167,6.497273261067829e-08,5,6.497273261067829e-08,0,6.497273261067829e-08,5,6.497273261067829e-08,0
6.522321260362825e-08,1.84081748715256,6.522321260362825e-08,5,6.522321260362825e-08,0,6.522321260362825e-08,5,6.522321260362825e-08,0
6.572417258952817e-08,1.840826693799298,6.572417258952817e-08,5,6.572417258952817e-08,0,6.572417258952817e-08,5,6.572417258952817e-08,0
6.672609256132801e-08,1.840818205142102,6.672609256132801e-08,5,6.672609256132801e-08,0,6.672609256132801e-08,5,6.672609256132801e-08,0
6.7738046280664e-08,1.840826185867011,6.7738046280664e-08,5,6.7738046280664e-08,0,6.7738046280664e-08,5,6.7738046280664e-08,0
6.875e-08,1.840818311147236,6.875e-08,5,6.875e-08,0,6.875e-08,5,6.875e-08,6.617444900424221e-14
