/vout X,/vout Y,/net06 X,/net06 Y,/net09 X,/net09 Y,/net08 X,/net08 Y,/net07 X,/net07 Y
0,6.011816057448828e-07,0,0,0,0,0,0,0,0
1e-10,6.025781574424606e-07,1e-10,0,1e-10,0,1e-10,0,1e-10,0
3e-10,6.013452510203959e-07,3e-10,0,3e-10,0,3e-10,0,3e-10,0
7e-10,6.010570996148437e-07,7e-10,0,7e-10,0,7e-10,0,7e-10,0
1.5e-09,6.012895266853297e-07,1.5e-09,0,1.5e-09,0,1.5e-09,0,1.5e-09,0
3.1e-09,6.010802663185705e-07,3.1e-09,0,3.1e-09,0,3.1e-09,0,3.1e-09,0
4.675e-09,6.012755351158364e-07,4.675e-09,0,4.675e-09,0,4.675e-09,0,4.675e-09,0
6.25e-09,6.010934154109112e-07,6.25e-09,0,6.25e-09,0,6.25e-09,0,6.25e-09,0
6.312499999999999e-09,0.01717383784523438,6.312499999999999e-09,0,6.312499999999999e-09,0,6.312499999999999e-09,0,6.312499999999999e-09,0.3124999999999987
6.437499999999999e-09,0.05228107494334106,6.437499999999999e-09,0,6.437499999999999e-09,0,6.437499999999999e-09,0,6.437499999999999e-09,0.9374999999999959
6.687499999999998e-09,0.1238818394143403,6.687499999999998e-09,0,6.687499999999998e-09,0,6.687499999999998e-09,0,6.687499999999998e-09,2.187499999999991
6.968749999999999e-09,0.206864986307958,6.968749999999999e-09,0,6.968749999999999e-09,0,6.968749999999999e-09,0,6.968749999999999e-09,3.593749999999997
7.25e-09,0.2928571320060764,7.25e-09,0,7.25e-09,0,7.25e-09,0,7.25e-09,4.999999999999999
7.380623025752282e-09,0.2931422923907468,7.380623025752282e-09,0,7.380623025752282e-09,0,7.380623025752282e-09,0,7.380623025752282e-09,5
7.599787009175357e-09,0.2931648800518179,7.599787009175357e-09,0,7.599787009175357e-09,0,7.599787009175357e-09,0,7.599787009175357e-09,5
7.813010682166052e-09,0.2931494366014614,7.813010682166052e-09,0,7.813010682166052e-09,0,7.813010682166052e-09,0,7.813010682166052e-09,5
8.239458028147443e-09,0.2931606981313133,8.239458028147443e-09,0,8.239458028147443e-09,0,8.239458028147443e-09,0,8.239458028147443e-09,5
8.840864228057706e-09,0.2931513112898061,8.840864228057706e-09,0,8.840864228057706e-09,0,8.840864228057706e-09,0,8.840864228057706e-09,5
9.832942964459872e-09,0.2931601220214196,9.832942964459872e-09,0,9.832942964459872e-09,0,9.832942964459872e-09,0,9.832942964459872e-09,5
1.116647148222994e-08,0.2931518811088058,1.116647148222994e-08,0,1.116647148222994e-08,0,1.116647148222994e-08,0,1.116647148222994e-08,5
1.25e-08,0.2931598269966094,1.25e-08,0,1.25e-08,0,1.25e-08,0,1.25e-08,5
1.275e-08,0.4528470850038938,1.275e-08,0,1.275e-08,0,1.275e-08,1.249999999999995,1.275e-08,5
1.318871489771158e-08,0.7424440464408095,1.318871489771158e-08,0,1.318871489771158e-08,0,1.318871489771158e-08,3.443574488557927,1.318871489771158e-08,5
1.35e-08,0.9483517185261512,1.35e-08,0,1.35e-08,0,1.35e-08,4.999999999999995,1.35e-08,5
1.361789710105595e-08,0.9100439961348774,1.361789710105595e-08,0,1.361789710105595e-08,0,1.361789710105595e-08,5,1.361789710105595e-08,4.410514494720234
1.378291607318831e-08,0.8554327228595734,1.378291607318831e-08,0,1.378291607318831e-08,0,1.378291607318831e-08,5,1.378291607318831e-08,3.585419634058455
1.392854102100242e-08,0.8072606068916609,1.392854102100242e-08,0,1.392854102100242e-08,0,1.392854102100242e-08,5,1.392854102100242e-08,2.857294894987874
1.421979091663066e-08,0.7109965620430928,1.421979091663066e-08,0,1.421979091663066e-08,0,1.421979091663066e-08,5,1.421979091663066e-08,1.401045416846712
1.45e-08,0.6184454851620856,1.45e-08,0,1.45e-08,0,1.45e-08,5,1.45e-08,0
1.470837451035234e-08,0.618198772564194,1.470837451035234e-08,0,1.470837451035234e-08,0,1.470837451035234e-08,5,1.470837451035234e-08,0
1.494818425211025e-08,0.618191092636867,1.494818425211025e-08,0,1.494818425211025e-08,0,1.494818425211025e-08,5,1.494818425211025e-08,0
1.518269624776485e-08,0.6181999244189089,1.518269624776485e-08,0,1.518269624776485e-08,0,1.518269624776485e-08,5,1.518269624776485e-08,0
1.565172023907404e-08,0.6181927099845923,1.565172023907404e-08,0,1.565172023907404e-08,0,1.565172023907404e-08,5,1.565172023907404e-08,0
1.658976822169243e-08,0.6181992898028887,1.658976822169243e-08,0,1.658976822169243e-08,0,1.658976822169243e-08,5,1.658976822169243e-08,0
1.766988411084621e-08,0.6181930987158017,1.766988411084621e-08,0,1.766988411084621e-08,0,1.766988411084621e-08,5,1.766988411084621e-08,0
1.875e-08,0.618199015574304,1.875e-08,0,1.875e-08,0,1.875e-08,5,1.875e-08,0
1.907767550672033e-08,0.7262076193892828,1.907767550672033e-08,0,1.907767550672033e-08,0,1.907767550672033e-08,5,1.907767550672033e-08,1.638377533601659
1.941383775336016e-08,0.8373311352222855,1.941383775336016e-08,0,1.941383775336016e-08,0,1.941383775336016e-08,5,1.941383775336016e-08,3.319188766800827
1.975e-08,0.9486346117450672,1.975e-08,0,1.975e-08,0,1.975e-08,5,1.975e-08,4.999999999999995
1.997811415490863e-08,0.948834031257934,1.997811415490863e-08,0,1.997811415490863e-08,0,1.997811415490863e-08,5,1.997811415490863e-08,5
2.024190505808805e-08,0.9488303532909877,2.024190505808805e-08,0,2.024190505808805e-08,0,2.024190505808805e-08,5,2.024190505808805e-08,5
2.049857068860382e-08,0.9488317669160483,2.049857068860382e-08,0,2.049857068860382e-08,0,2.049857068860382e-08,5,2.049857068860382e-08,5
2.101190194963537e-08,0.948831504360108,2.101190194963537e-08,0,2.101190194963537e-08,0,2.101190194963537e-08,5,2.101190194963537e-08,5
2.203856447169847e-08,0.9488311645762701,2.203856447169847e-08,0,2.203856447169847e-08,0,2.203856447169847e-08,5,2.203856447169847e-08,5
2.351928223584923e-08,0.9488319423127384,2.351928223584923e-08,0,2.351928223584923e-08,0,2.351928223584923e-08,5,2.351928223584923e-08,5
2.5e-08,0.9488310067957558,2.5e-08,0,2.5e-08,0,2.5e-08,5,2.5e-08,5
2.514944920902932e-08,1.145923765963073,2.514944920902932e-08,0,2.514944920902932e-08,0.7472460451466301,2.514944920902932e-08,5,2.514944920902932e-08,5
2.542176307200235e-08,1.507166179873384,2.542176307200235e-08,0,2.542176307200235e-08,2.108815360011747,2.542176307200235e-08,5,2.542176307200235e-08,5
2.549792922610495e-08,1.608280593343277,2.549792922610495e-08,0,2.549792922610495e-08,2.48964613052478,2.549792922610495e-08,5,2.549792922610495e-08,5
2.565026153431017e-08,1.810485160665416,2.565026153431017e-08,0,2.565026153431017e-08,3.251307671550848,2.565026153431017e-08,5,2.565026153431017e-08,5
2.56939788425214e-08,1.868065741537429,2.56939788425214e-08,0,2.56939788425214e-08,3.469894212606987,2.56939788425214e-08,5,2.56939788425214e-08,5
2.571583749662701e-08,1.895973901099409,2.571583749662701e-08,0,2.571583749662701e-08,3.579187483135065,2.571583749662701e-08,5,2.571583749662701e-08,5
2.575955480483824e-08,1.946002971649891,2.575955480483824e-08,0,2.575955480483824e-08,3.797774024191221,2.575955480483824e-08,5,2.575955480483824e-08,5
2.584303735041369e-08,2.014728578215153,2.584303735041369e-08,0,2.584303735041369e-08,4.215186752068468,2.584303735041369e-08,5,2.584303735041369e-08,5
2.586265768161198e-08,2.028027139135246,2.586265768161198e-08,0,2.586265768161198e-08,4.313288408059905,2.586265768161198e-08,5,2.586265768161198e-08,5
2.590189834400855e-08,2.053406475474772,2.590189834400855e-08,0,2.590189834400855e-08,4.509491720042778,2.590189834400855e-08,5,2.590189834400855e-08,5
2.595094917200428e-08,2.083293049692613,2.595094917200428e-08,0,2.595094917200428e-08,4.754745860021386,2.595094917200428e-08,5,2.595094917200428e-08,5
2.6e-08,2.112075945792805,2.6e-08,0,2.6e-08,4.999999999999995,2.6e-08,5,2.6e-08,5
2.602452541399786e-08,2.101538236316085,2.602452541399786e-08,0,2.602452541399786e-08,5,2.602452541399786e-08,4.877372930010704,2.602452541399786e-08,4.8773729300107
2.606323515595634e-08,2.084377002900324,2.606323515595634e-08,0,2.606323515595634e-08,5,2.606323515595634e-08,4.68382422021828,2.606323515595634e-08,4.683824220218276
2.610084152773375e-08,2.067362078327902,2.610084152773375e-08,0,2.610084152773375e-08,5,2.610084152773375e-08,4.495792361331238,2.610084152773375e-08,4.495792361331234
2.617605427128857e-08,2.031729474819783,2.617605427128857e-08,0,2.617605427128857e-08,5,2.617605427128857e-08,4.119728643557153,2.617605427128857e-08,4.119728643557149
2.628050399471442e-08,1.974273750347549,2.628050399471442e-08,0,2.628050399471442e-08,5,2.628050399471442e-08,3.597480026427891,2.628050399471442e-08,3.597480026427887
2.643606714815232e-08,1.842190088565639,2.643606714815232e-08,0,2.643606714815232e-08,5,2.643606714815232e-08,2.819664259238414,2.643606714815232e-08,2.81966425923841
2.658704574498361e-08,1.691781520249634,2.658704574498361e-08,0,2.658704574498361e-08,5,2.658704574498361e-08,2.064771275081939,2.658704574498361e-08,2.064771275081935
2.675286692468486e-08,1.526879130757232,2.675286692468486e-08,0,2.675286692468486e-08,5,2.675286692468486e-08,1.235665376575716,2.675286692468486e-08,1.235665376575711
2.687643346234243e-08,1.403662207574244,2.687643346234243e-08,0,2.687643346234243e-08,5,2.687643346234243e-08,0.6178326882878649,2.687643346234243e-08,0.6178326882878604
2.7e-08,1.280928594259067,2.7e-08,0,2.7e-08,5,2.7e-08,1.332267629550188e-14,2.7e-08,8.881784197001252e-15
2.707988339787954e-08,1.280125042315823,2.707988339787954e-08,0,2.707988339787954e-08,5,2.707988339787954e-08,0,2.707988339787954e-08,0
2.717289744524401e-08,1.280153397391821,2.717289744524401e-08,0,2.717289744524401e-08,5,2.717289744524401e-08,0,2.717289744524401e-08,0
2.726302525155415e-08,1.280165113377645,2.726302525155415e-08,0,2.726302525155415e-08,5,2.726302525155415e-08,0,2.726302525155415e-08,0
2.744328086417443e-08,1.280138319278357,2.744328086417443e-08,0,2.744328086417443e-08,5,2.744328086417443e-08,0,2.744328086417443e-08,0
2.77118904026629e-08,1.280167930342645,2.77118904026629e-08,0,2.77118904026629e-08,5,2.77118904026629e-08,0,2.77118904026629e-08,0
2.824910947963984e-08,1.280138645193362,2.824910947963984e-08,0,2.824910947963984e-08,5,2.824910947963984e-08,0,2.824910947963984e-08,0
2.932354763359371e-08,1.280167603318684,2.932354763359371e-08,0,2.932354763359371e-08,5,2.932354763359371e-08,0,2.932354763359371e-08,0
3.125e-08,1.280138774883806,3.125e-08,0,3.125e-08,5,3.125e-08,0,3.125e-08,0
3.163842760294903e-08,1.408749955471384,3.163842760294903e-08,0,3.163842760294903e-08,5,3.163842760294903e-08,0,3.163842760294903e-08,1.942138014745159
3.225e-08,1.611693395085954,3.225e-08,0,3.225e-08,5,3.225e-08,0,3.225e-08,5
3.240644887013127e-08,1.611922179354846,3.240644887013127e-08,0,3.240644887013127e-08,5,3.240644887013127e-08,0,3.240644887013127e-08,5
3.27193466103938e-08,1.61190942555459,3.27193466103938e-08,0,3.27193466103938e-08,5,3.27193466103938e-08,0,3.27193466103938e-08,5
3.303036196575441e-08,1.611925641726453,3.303036196575441e-08,0,3.303036196575441e-08,5,3.303036196575441e-08,0,3.303036196575441e-08,5
3.365239267647564e-08,1.611911442617641,3.365239267647564e-08,0,3.365239267647564e-08,5,3.365239267647564e-08,0,3.365239267647564e-08,5
3.488067803014276e-08,1.611924128960941,3.488067803014276e-08,0,3.488067803014276e-08,5,3.488067803014276e-08,0,3.488067803014276e-08,5
3.619033901507138e-08,1.611913088666613,3.619033901507138e-08,0,3.619033901507138e-08,5,3.619033901507138e-08,0,3.619033901507138e-08,5
3.75e-08,1.611923601106289,3.75e-08,0,3.75e-08,5,3.75e-08,0,3.75e-08,5
3.775e-08,1.777446372455953,3.775e-08,0,3.775e-08,5,3.775e-08,1.249999999999995,3.775e-08,5
3.785808086953816e-08,1.848958161850798,3.785808086953816e-08,0,3.785808086953816e-08,5,3.785808086953816e-08,1.79040434769082,3.785808086953816e-08,5
3.791212130430724e-08,1.884038532240368,3.791212130430724e-08,0,3.791212130430724e-08,5,3.791212130430724e-08,2.060606521536232,3.791212130430724e-08,5
3.802020217384541e-08,1.946723380299278,3.802020217384541e-08,0,3.802020217384541e-08,5,3.802020217384541e-08,2.601010869227058,3.802020217384541e-08,5
3.81993392380732e-08,2.019353343641139,3.81993392380732e-08,0,3.81993392380732e-08,5,3.81993392380732e-08,3.496696190365993,3.81993392380732e-08,5
3.823692183331405e-08,2.031935342396388,3.823692183331405e-08,0,3.823692183331405e-08,5,3.823692183331405e-08,3.684609166570254,3.823692183331405e-08,5
3.831208702379575e-08,2.056012978221828,3.831208702379575e-08,0,3.831208702379575e-08,5,3.831208702379575e-08,4.060435118978774,3.831208702379575e-08,5
3.840604351189788e-08,2.084559058313711,3.840604351189788e-08,0,3.840604351189788e-08,5,3.840604351189788e-08,4.53021755948941,3.840604351189788e-08,5
3.85e-08,2.112080100691808,3.85e-08,0,3.85e-08,5,3.85e-08,5,3.85e-08,5
3.854697824405106e-08,2.105325281451651,3.854697824405106e-08,0,3.854697824405106e-08,5,3.854697824405106e-08,5,3.854697824405106e-08,4.765108779744703
3.862615351133784e-08,2.093729421658632,3.862615351133784e-08,0,3.862615351133784e-08,5,3.862615351133784e-08,5,3.862615351133784e-08,4.369232443310795
3.870359022030242e-08,2.082250834418526,3.870359022030242e-08,0,3.870359022030242e-08,5,3.870359022030242e-08,5,3.870359022030242e-08,3.982048898487896
3.885846363823158e-08,2.058750497735816,3.885846363823158e-08,0,3.885846363823158e-08,5,3.885846363823158e-08,5,3.885846363823158e-08,3.207681808842099
3.909924269060563e-08,2.019764831236825,3.909924269060563e-08,0,3.909924269060563e-08,5,3.909924269060563e-08,5,3.909924269060563e-08,2.003786546971833
3.95e-08,1.936538867413562,3.95e-08,0,3.95e-08,5,3.95e-08,5,3.95e-08,0
3.962665230271102e-08,1.93646755473744,3.962665230271102e-08,0,3.962665230271102e-08,5,3.962665230271102e-08,5,3.962665230271102e-08,0
3.968975666309207e-08,1.936475614946212,3.968975666309207e-08,0,3.968975666309207e-08,5,3.968975666309207e-08,5,3.968975666309207e-08,0
3.981596538385417e-08,1.93647674541537,3.981596538385417e-08,0,3.981596538385417e-08,5,3.981596538385417e-08,5,3.981596538385417e-08,0
4.006838282537838e-08,1.936474003577618,4.006838282537838e-08,0,4.006838282537838e-08,5,4.006838282537838e-08,5,4.006838282537838e-08,0
4.057321770842679e-08,1.936477141811449,4.057321770842679e-08,0,4.057321770842679e-08,5,4.057321770842679e-08,5,4.057321770842679e-08,0
4.158288747452362e-08,1.936474018225405,4.158288747452362e-08,0,4.158288747452362e-08,5,4.158288747452362e-08,5,4.158288747452362e-08,0
4.266644373726181e-08,1.936477125207962,4.266644373726181e-08,0,4.266644373726181e-08,5,4.266644373726181e-08,5,4.266644373726181e-08,0
4.375e-08,1.936474035278879,4.375e-08,0,4.375e-08,5,4.375e-08,5,4.375e-08,0
4.4e-08,1.992501206857039,4.4e-08,0,4.4e-08,5,4.4e-08,5,4.4e-08,1.249999999999995
4.4375e-08,2.056153930984517,4.4375e-08,0,4.4375e-08,5,4.4375e-08,5,4.4375e-08,3.125000000000003
4.446875e-08,2.070543280743685,4.446875e-08,0,4.446875e-08,5,4.446875e-08,5,4.446875e-08,3.593750000000005
4.4609375e-08,2.091589346426454,4.4609375e-08,0,4.4609375e-08,5,4.4609375e-08,5,4.4609375e-08,4.296874999999992
4.475e-08,2.112064221076292,4.475e-08,0,4.475e-08,5,4.475e-08,5,4.475e-08,5
4.491433149466171e-08,2.112098497274906,4.491433149466171e-08,0,4.491433149466171e-08,5,4.491433149466171e-08,5,4.491433149466171e-08,5
4.509730050514147e-08,2.112077795719641,4.509730050514147e-08,0,4.509730050514147e-08,5,4.509730050514147e-08,5,4.509730050514147e-08,5
4.528555771670741e-08,2.112096055805323,4.528555771670741e-08,0,4.528555771670741e-08,5,4.528555771670741e-08,5,4.528555771670741e-08,5
4.566207213983931e-08,2.112079503416478,4.566207213983931e-08,0,4.566207213983931e-08,5,4.566207213983931e-08,5,4.566207213983931e-08,5
4.64151009861031e-08,2.112096484001191,4.64151009861031e-08,0,4.64151009861031e-08,5,4.64151009861031e-08,5,4.64151009861031e-08,5
4.792115867863068e-08,2.112079817722503,4.792115867863068e-08,0,4.792115867863068e-08,5,4.792115867863068e-08,5,4.792115867863068e-08,5
4.896057933931534e-08,2.11209495339642,4.896057933931534e-08,0,4.896057933931534e-08,5,4.896057933931534e-08,5,4.896057933931534e-08,5
5e-08,2.112079935717266,5e-08,0,5e-08,5,5e-08,5,5e-08,5
5.00625e-08,2.182292989002106,5.00625e-08,0.3124999999999904,5.00625e-08,5,5.00625e-08,5,5.00625e-08,5
5.018749999999999e-08,2.317333322180324,5.018749999999999e-08,0.9374999999999711,5.018749999999999e-08,5,5.018749999999999e-08,5,5.018749999999999e-08,5
5.023608076404802e-08,2.368740150237491,5.023608076404802e-08,1.180403820240098,5.023608076404802e-08,5,5.023608076404802e-08,5,5.023608076404802e-08,5
5.033324229214407e-08,2.470703096320448,5.033324229214407e-08,1.666211460720352,5.033324229214407e-08,5,5.033324229214407e-08,5,5.033324229214407e-08,5
5.049565710606147e-08,2.639419800040016,5.049565710606147e-08,2.478285530307343,5.049565710606147e-08,5,5.049565710606147e-08,5,5.049565710606147e-08,5
5.075516942223388e-08,2.90664738172903,5.075516942223388e-08,3.775847111169402,5.075516942223388e-08,5,5.075516942223388e-08,5,5.075516942223388e-08,5
5.099999999999999e-08,3.157566069671165,5.099999999999999e-08,4.999999999999979,5.099999999999999e-08,5,5.099999999999999e-08,5,5.099999999999999e-08,5
5.104004886916396e-08,3.12191652157304,5.104004886916396e-08,5,5.104004886916396e-08,4.799755654180181,5.104004886916396e-08,4.799755654180189,5.104004886916396e-08,4.799755654180185
5.111805652796121e-08,3.051892174286888,5.111805652796121e-08,5,5.111805652796121e-08,4.409717360193913,5.111805652796121e-08,4.409717360193921,5.111805652796121e-08,4.409717360193918
5.118627760963918e-08,2.990671898639254,5.118627760963918e-08,5,5.118627760963918e-08,4.068611951804066,5.118627760963918e-08,4.068611951804074,5.118627760963918e-08,4.068611951804069
5.129950419921394e-08,2.88909387761724,5.129950419921394e-08,5,5.129950419921394e-08,3.502479003930282,5.129950419921394e-08,3.50247900393029,5.129950419921394e-08,3.502479003930286
5.145502305732993e-08,2.749064527411147,5.145502305732993e-08,5,5.145502305732993e-08,2.72488471335035,5.145502305732993e-08,2.724884713350359,5.145502305732993e-08,2.724884713350354
5.168434991731323e-08,2.541591017195552,5.168434991731323e-08,5,5.168434991731323e-08,1.578250413433851,5.168434991731323e-08,1.57825041343386,5.168434991731323e-08,1.578250413433855
5.2e-08,2.250445708927851,5.2e-08,5,5.2e-08,0,5.2e-08,1.332267629550188e-14,5.2e-08,8.881784197001252e-15
5.206435073825483e-08,2.250445774802817,5.206435073825483e-08,5,5.206435073825483e-08,0,5.206435073825483e-08,0,5.206435073825483e-08,0
5.217897367601331e-08,2.250519251014827,5.217897367601331e-08,5,5.217897367601331e-08,0,5.217897367601331e-08,0,5.217897367601331e-08,0
5.228602052639567e-08,2.250469471627895,5.228602052639567e-08,5,5.228602052639567e-08,0,5.228602052639567e-08,0,5.228602052639567e-08,0
5.248538358814648e-08,2.250493493331704,5.248538358814648e-08,5,5.248538358814648e-08,0,5.248538358814648e-08,0,5.248538358814648e-08,0
5.272190678834668e-08,2.250481119232974,5.272190678834668e-08,5,5.272190678834668e-08,0,5.272190678834668e-08,0,5.272190678834668e-08,0
5.316012997430059e-08,2.250493199127264,5.316012997430059e-08,5,5.316012997430059e-08,0,5.316012997430059e-08,0,5.316012997430059e-08,0
5.39576706429781e-08,2.250483213766173,5.39576706429781e-08,5,5.39576706429781e-08,0,5.39576706429781e-08,0,5.39576706429781e-08,0
5.527866002645069e-08,2.250491684426524,5.527866002645069e-08,5,5.527866002645069e-08,0,5.527866002645069e-08,0,5.527866002645069e-08,0
5.625e-08,2.250481144631346,5.625e-08,5,5.625e-08,0,5.625e-08,0,5.625e-08,0
5.66081337949487e-08,2.298468665353354,5.66081337949487e-08,5,5.66081337949487e-08,0,5.66081337949487e-08,0,5.66081337949487e-08,1.790668974743505
5.692906689747435e-08,2.341085455720819,5.692906689747435e-08,5,5.692906689747435e-08,0,5.692906689747435e-08,0,5.692906689747435e-08,3.395334487371758
5.725e-08,2.383443169929876,5.725e-08,5,5.725e-08,0,5.725e-08,0,5.725e-08,5
5.75004599566509e-08,2.383456998925056,5.75004599566509e-08,5,5.75004599566509e-08,0,5.75004599566509e-08,0,5.75004599566509e-08,5
5.77859876515109e-08,2.383432499082247,5.77859876515109e-08,5,5.77859876515109e-08,0,5.77859876515109e-08,0,5.77859876515109e-08,5
5.806762557712502e-08,2.383464710521603,5.806762557712502e-08,5,5.806762557712502e-08,0,5.806762557712502e-08,0,5.806762557712502e-08,5
5.863090142835325e-08,2.383434716413988,5.863090142835325e-08,5,5.863090142835325e-08,0,5.863090142835325e-08,0,5.863090142835325e-08,5
