/vout X,/vout Y,/net06 X,/net06 Y,/net09 X,/net09 Y,/net08 X,/net08 Y,/net07 X,/net07 Y
0,7.256582989107595e-05,0,0,0,0,0,0,0,0
1e-10,7.256571731377378e-05,1e-10,0,1e-10,0,1e-10,0,1e-10,0
3e-10,7.256570766143173e-05,3e-10,0,3e-10,0,3e-10,0,3e-10,0
7e-10,7.256570767705694e-05,7e-10,0,7e-10,0,7e-10,0,7e-10,0
1.5e-09,7.256570769507398e-05,1.5e-09,0,1.5e-09,0,1.5e-09,0,1.5e-09,0
3.1e-09,7.256570764816781e-05,3.1e-09,0,3.1e-09,0,3.1e-09,0,3.1e-09,0
4.675e-09,7.256570771239374e-05,4.675e-09,0,4.675e-09,0,4.675e-09,0,4.675e-09,0
6.25e-09,7.256570763101556e-05,6.25e-09,0,6.25e-09,0,6.25e-09,0,6.25e-09,0
6.312499999999999e-09,0.0172522470117664,6.312499999999999e-09,0,6.312499999999999e-09,0,6.312499999999999e-09,0,6.312499999999999e-09,0.3124999999999987
6.437499999999999e-09,0.0523575188018645,6.437499999999999e-09,0,6.437499999999999e-09,0,6.437499999999999e-09,0,6.437499999999999e-09,0.9374999999999959
6.687499999999998e-09,0.1239529725016023,6.687499999999998e-09,0,6.687499999999998e-09,0,6.687499999999998e-09,0,6.687499999999998e-09,2.187499999999991
6.968749999999999e-09,0.2069320785848646,6.968749999999999e-09,0,6.968749999999999e-09,0,6.968749999999999e-09,0,6.968749999999999e-09,3.593749999999997
7.25e-09,0.2929195395272457,7.25e-09,0,7.25e-09,0,7.25e-09,0,7.25e-09,4.999999999999999
7.380617544305138e-09,0.2931927614617175,7.380617544305138e-09,0,7.380617544305138e-09,0,7.380617544305138e-09,0,7.380617544305138e-09,5
7.599774299741122e-09,0.2932148740006023,7.599774299741122e-09,0,7.599774299741122e-09,0,7.599774299741122e-09,0,7.599774299741122e-09,5
7.812981823688874e-09,0.2931998318420174,7.812981823688874e-09,0,7.812981823688874e-09,0,7.812981823688874e-09,0,7.812981823688874e-09,5
8.239396871584378e-09,0.2932107282929288,8.239396871584378e-09,0,8.239396871584378e-09,0,8.239396871584378e-09,0,8.239396871584378e-09,5
8.840833213905357e-09,0.2932016893376854,8.840833213905357e-09,0,8.840833213905357e-09,0,8.840833213905357e-09,0,8.840833213905357e-09,5
9.832941572408101e-09,0.2932101633175984,9.832941572408101e-09,0,9.832941572408101e-09,0,9.832941572408101e-09,0,9.832941572408101e-09,5
1.116647078620405e-08,0.293202253271749,1.116647078620405e-08,0,1.116647078620405e-08,0,1.116647078620405e-08,0,1.116647078620405e-08,5
1.25e-08,0.2932098731041463,1.25e-08,0,1.25e-08,0,1.25e-08,0,1.25e-08,5
1.275e-08,0.4529154500559914,1.275e-08,0,1.275e-08,0,1.275e-08,1.249999999999995,1.275e-08,5
1.31887093152499e-08,0.742505984911821,1.31887093152499e-08,0,1.31887093152499e-08,0,1.31887093152499e-08,3.443546576249486,1.31887093152499e-08,5
1.35e-08,0.9484136971912412,1.35e-08,0,1.35e-08,0,1.35e-08,4.999999999999995,1.35e-08,5
1.361789409177217e-08,0.910041455193212,1.361789409177217e-08,0,1.361789409177217e-08,0,1.361789409177217e-08,5,1.361789409177217e-08,4.410529541139158
1.3782902815019e-08,0.855435354493062,1.3782902815019e-08,0,1.3782902815019e-08,0,1.3782902815019e-08,5,1.3782902815019e-08,3.585485924905006
1.392850356507302e-08,0.8072750457646658,1.392850356507302e-08,0,1.392850356507302e-08,0,1.392850356507302e-08,5,1.392850356507302e-08,2.857482174634901
1.421970506518106e-08,0.7110315834024021,1.421970506518106e-08,0,1.421970506518106e-08,0,1.421970506518106e-08,5,1.421970506518106e-08,1.401474674094692
1.45e-08,0.6184590439059298,1.45e-08,0,1.45e-08,0,1.45e-08,5,1.45e-08,0
1.470840581598705e-08,0.6182291708304506,1.470840581598705e-08,0,1.470840581598705e-08,0,1.470840581598705e-08,5,1.470840581598705e-08,0
1.49482377170356e-08,0.6182218004241726,1.49482377170356e-08,0,1.49482377170356e-08,0,1.49482377170356e-08,5,1.49482377170356e-08,0
1.518277168781657e-08,0.6182303393615092,1.518277168781657e-08,0,1.518277168781657e-08,0,1.518277168781657e-08,5,1.518277168781657e-08,0
1.56518396293785e-08,0.618223402644351,1.56518396293785e-08,0,1.56518396293785e-08,0,1.56518396293785e-08,5,1.56518396293785e-08,0
1.658997551250236e-08,0.6182297114888464,1.658997551250236e-08,0,1.658997551250236e-08,0,1.658997551250236e-08,5,1.658997551250236e-08,0
1.766998775625118e-08,0.6182237876212806,1.766998775625118e-08,0,1.766998775625118e-08,0,1.766998775625118e-08,5,1.766998775625118e-08,0
1.875e-08,0.6182294402804008,1.875e-08,0,1.875e-08,0,1.875e-08,5,1.875e-08,0
1.907766605177093e-08,0.7262480590240135,1.907766605177093e-08,0,1.907766605177093e-08,0,1.907766605177093e-08,5,1.907766605177093e-08,1.638330258854662
1.941383302588547e-08,0.8373719932194559,1.941383302588547e-08,0,1.941383302588547e-08,0,1.941383302588547e-08,5,1.941383302588547e-08,3.319165129427337
1.975e-08,0.948675335658511,1.975e-08,0,1.975e-08,0,1.975e-08,5,1.975e-08,4.999999999999995
1.997811224174919e-08,0.9488326329882969,1.997811224174919e-08,0,1.997811224174919e-08,0,1.997811224174919e-08,5,1.997811224174919e-08,5
2.024188789555687e-08,0.9488457424594485,2.024188789555687e-08,0,2.024188789555687e-08,0,2.024188789555687e-08,5,2.024188789555687e-08,5
2.049851082130567e-08,0.9488531814308062,2.049851082130567e-08,0,2.049851082130567e-08,0,2.049851082130567e-08,5,2.049851082130567e-08,5
2.101175667280328e-08,0.9488444340109257,2.101175667280328e-08,0,2.101175667280328e-08,0,2.101175667280328e-08,5,2.101175667280328e-08,5
2.203824837579849e-08,0.9488535288673016,2.203824837579849e-08,0,2.203824837579849e-08,0,2.203824837579849e-08,5,2.203824837579849e-08,5
2.351912418789924e-08,0.9488443013823297,2.351912418789924e-08,0,2.351912418789924e-08,0,2.351912418789924e-08,5,2.351912418789924e-08,5
2.5e-08,0.9488536985294229,2.5e-08,0,2.5e-08,0,2.5e-08,5,2.5e-08,5
2.51788080830207e-08,1.184968820174948,2.51788080830207e-08,0,2.51788080830207e-08,0.8940404151034818,2.51788080830207e-08,5,2.51788080830207e-08,5
2.54856617467558e-08,1.592184443625748,2.54856617467558e-08,0,2.54856617467558e-08,2.428308733779017,2.54856617467558e-08,5,2.54856617467558e-08,5
2.57428308733779e-08,1.933759031776738,2.57428308733779e-08,0,2.57428308733779e-08,3.714154366889514,2.57428308733779e-08,5,2.57428308733779e-08,5
2.6e-08,2.275599396420394,2.6e-08,0,2.6e-08,4.999999999999995,2.6e-08,5,2.6e-08,5
2.605313558163737e-08,2.224005142107712,2.605313558163737e-08,0,2.605313558163737e-08,5,2.605313558163737e-08,4.734322091813148,2.605313558163737e-08,4.734322091813144
2.615007389953574e-08,2.127178377486468,2.615007389953574e-08,0,2.615007389953574e-08,5,2.615007389953574e-08,4.249630502321308,2.615007389953574e-08,4.249630502321304
2.623714565617135e-08,2.040382957605953,2.623714565617135e-08,0,2.623714565617135e-08,5,2.623714565617135e-08,3.814271719143235,2.623714565617135e-08,3.814271719143231
2.638796192482251e-08,1.89011243075019,2.638796192482251e-08,0,2.638796192482251e-08,5,2.638796192482251e-08,3.060190375887467,2.638796192482251e-08,3.060190375887463
2.656533268759466e-08,1.713381409612233,2.656533268759466e-08,0,2.656533268759466e-08,5,2.656533268759466e-08,2.173336562026723,2.656533268759466e-08,2.173336562026718
2.678266634379733e-08,1.496997822759513,2.678266634379733e-08,0,2.678266634379733e-08,5,2.678266634379733e-08,1.08666828101336,2.678266634379733e-08,1.086668281013356
2.7e-08,1.280723910989171,2.7e-08,0,2.7e-08,5,2.7e-08,1.332267629550188e-14,2.7e-08,8.881784197001252e-15
2.710587213111315e-08,1.280109064723237,2.710587213111315e-08,0,2.710587213111315e-08,5,2.710587213111315e-08,0,2.710587213111315e-08,0
2.723406052199345e-08,1.280183628249592,2.723406052199345e-08,0,2.723406052199345e-08,5,2.723406052199345e-08,0,2.723406052199345e-08,0
2.735490611294046e-08,1.28015697316067,2.735490611294046e-08,0,2.735490611294046e-08,5,2.735490611294046e-08,0,2.735490611294046e-08,0
2.759659729483449e-08,1.28016533087079,2.759659729483449e-08,0,2.759659729483449e-08,5,2.759659729483449e-08,0,2.759659729483449e-08,0
2.793370031101404e-08,1.280162907978599,2.793370031101404e-08,0,2.793370031101404e-08,5,2.793370031101404e-08,0,2.793370031101404e-08,0
2.85304853009219e-08,1.280164563145076,2.85304853009219e-08,0,2.85304853009219e-08,5,2.85304853009219e-08,0,2.85304853009219e-08,0
2.972405528073762e-08,1.280163522481,2.972405528073762e-08,0,2.972405528073762e-08,5,2.972405528073762e-08,0,2.972405528073762e-08,0
3.125e-08,1.280164281973892,3.125e-08,0,3.125e-08,5,3.125e-08,0,3.125e-08,0
3.161087021037618e-08,1.399622801172894,3.161087021037618e-08,0,3.161087021037618e-08,5,3.161087021037618e-08,0,3.161087021037618e-08,1.804351051880904
3.193043510518809e-08,1.505715426738779,3.193043510518809e-08,0,3.193043510518809e-08,5,3.193043510518809e-08,0,3.193043510518809e-08,3.402175525940458
3.225e-08,1.611709188162246,3.225e-08,0,3.225e-08,5,3.225e-08,0,3.225e-08,5
3.24723504898581e-08,1.611923028789564,3.24723504898581e-08,0,3.24723504898581e-08,5,3.24723504898581e-08,0,3.24723504898581e-08,5
3.272881975462022e-08,1.611922039708824,3.272881975462022e-08,0,3.272881975462022e-08,5,3.272881975462022e-08,0,3.272881975462022e-08,5
3.297894935531812e-08,1.61192874320829,3.297894935531812e-08,0,3.297894935531812e-08,5,3.297894935531812e-08,0,3.297894935531812e-08,5
3.347920855671392e-08,1.611923872157948,3.347920855671392e-08,0,3.347920855671392e-08,5,3.347920855671392e-08,0,3.347920855671392e-08,5
3.447972695950554e-08,1.611927976924663,3.447972695950554e-08,0,3.447972695950554e-08,5,3.447972695950554e-08,0,3.447972695950554e-08,5
3.598986347975276e-08,1.611924377174769,3.598986347975276e-08,0,3.598986347975276e-08,5,3.598986347975276e-08,0,3.598986347975276e-08,5
3.75e-08,1.611927729512008,3.75e-08,0,3.75e-08,5,3.75e-08,0,3.75e-08,5
3.775431658068357e-08,1.780431944371936,3.775431658068357e-08,0,3.775431658068357e-08,5,3.775431658068357e-08,1.271582903417838,3.775431658068357e-08,5
3.812715829034178e-08,2.028145845144456,3.812715829034178e-08,0,3.812715829034178e-08,5,3.812715829034178e-08,3.135791451708925,3.812715829034178e-08,5
3.85e-08,2.275945448281267,3.85e-08,0,3.85e-08,5,3.85e-08,5,3.85e-08,5
3.862245166695218e-08,2.235808310946025,3.862245166695218e-08,0,3.862245166695218e-08,5,3.862245166695218e-08,5,3.862245166695218e-08,4.387741665239112
3.879544682609836e-08,2.178267289612406,3.879544682609836e-08,0,3.879544682609836e-08,5,3.879544682609836e-08,5,3.879544682609836e-08,3.522765869508174
3.89541633714516e-08,2.125546803625726,3.89541633714516e-08,0,3.89541633714516e-08,5,3.89541633714516e-08,5,3.89541633714516e-08,2.729183142741975
3.927159646215808e-08,2.020061690132255,3.927159646215808e-08,0,3.927159646215808e-08,5,3.927159646215808e-08,5,3.927159646215808e-08,1.142017689209576
3.95e-08,1.944188553276761,3.95e-08,0,3.95e-08,5,3.95e-08,5,3.95e-08,0
3.968793761076356e-08,1.94399738510993,3.968793761076356e-08,0,3.968793761076356e-08,5,3.968793761076356e-08,5,3.968793761076356e-08,0
3.99105552316038e-08,1.944012278954269,3.99105552316038e-08,0,3.99105552316038e-08,5,3.99105552316038e-08,5,3.99105552316038e-08,0
4.012322050124438e-08,1.944007538991436,4.012322050124438e-08,0,4.012322050124438e-08,5,4.012322050124438e-08,5,4.012322050124438e-08,0
4.054855104052555e-08,1.944008093775947,4.054855104052555e-08,0,4.054855104052555e-08,5,4.054855104052555e-08,5,4.054855104052555e-08,0
4.139921211908788e-08,1.944008743361131,4.139921211908788e-08,0,4.139921211908788e-08,5,4.139921211908788e-08,5,4.139921211908788e-08,0
4.257460605954394e-08,1.944007928489095,4.257460605954394e-08,0,4.257460605954394e-08,5,4.257460605954394e-08,5,4.257460605954394e-08,0
4.375e-08,1.944009324861461,4.375e-08,0,4.375e-08,5,4.375e-08,5,4.375e-08,0
4.408480069845692e-08,2.055060796134834,4.408480069845692e-08,0,4.408480069845692e-08,5,4.408480069845692e-08,5,4.408480069845692e-08,1.674003492284607
4.441740034922846e-08,2.165586116907133,4.441740034922846e-08,0,4.441740034922846e-08,5,4.441740034922846e-08,5,4.441740034922846e-08,3.337001746142293
4.475e-08,2.276117192674775,4.475e-08,0,4.475e-08,5,4.475e-08,5,4.475e-08,5
4.497675382691088e-08,2.276300407509386,4.497675382691088e-08,0,4.497675382691088e-08,5,4.497675382691088e-08,5,4.497675382691088e-08,5
4.523886548258393e-08,2.276289476581862,4.523886548258393e-08,0,4.523886548258393e-08,5,4.523886548258393e-08,5,4.523886548258393e-08,5
4.549397869966776e-08,2.276296626943459,4.549397869966776e-08,0,4.549397869966776e-08,5,4.549397869966776e-08,5,4.549397869966776e-08,5
4.600420513383542e-08,2.276291768326019,4.600420513383542e-08,0,4.600420513383542e-08,5,4.600420513383542e-08,5,4.600420513383542e-08,5
4.702465800217073e-08,2.276295310034323,4.702465800217073e-08,0,4.702465800217073e-08,5,4.702465800217073e-08,5,4.702465800217073e-08,5
4.851232900108536e-08,2.27629274691443,4.851232900108536e-08,0,4.851232900108536e-08,5,4.851232900108536e-08,5,4.851232900108536e-08,5
5e-08,2.276295013389633,5e-08,0,5e-08,5,5e-08,5,5e-08,5
5.010582492234708e-08,2.556154058243682,5.010582492234708e-08,0.5291246117353909,5.010582492234708e-08,5,5.010582492234708e-08,5,5.010582492234708e-08,5
5.027748353320467e-08,3.012506326709158,5.027748353320467e-08,1.387417666023338,5.027748353320467e-08,5,5.027748353320467e-08,5,5.027748353320467e-08,5
5.033604684032317e-08,3.168041147577338,5.033604684032317e-08,1.680234201615872,5.033604684032317e-08,5,5.033604684032317e-08,5,5.033604684032317e-08,5
5.036532849388243e-08,3.245686910873091,5.036532849388243e-08,1.826642469412139,5.036532849388243e-08,5,5.036532849388243e-08,5,5.036532849388243e-08,5
5.042389180100093e-08,3.39928104129436,5.042389180100093e-08,2.119459005004672,5.042389180100093e-08,5,5.042389180100093e-08,5,5.042389180100093e-08,5
5.048160710986619e-08,3.508612948324597,5.048160710986619e-08,2.408035549330948,5.048160710986619e-08,5,5.048160710986619e-08,5,5.048160710986619e-08,5
5.053830980837381e-08,3.581302672114362,5.053830980837381e-08,2.691549041869057,5.053830980837381e-08,5,5.053830980837381e-08,5,5.053830980837381e-08,5
5.054521274451372e-08,3.589571205744843,5.054521274451372e-08,2.726063722568607,5.054521274451372e-08,5,5.054521274451372e-08,5,5.054521274451372e-08,5
5.055901861679354e-08,3.60569893555195,5.055901861679354e-08,2.795093083967705,5.055901861679354e-08,5,5.055901861679354e-08,5,5.055901861679354e-08,5
5.058663036135318e-08,3.637373235752785,5.058663036135318e-08,2.933151806765903,5.058663036135318e-08,5,5.058663036135318e-08,5,5.058663036135318e-08,5
5.064185385047246e-08,3.698712262815958,5.064185385047246e-08,3.209269252362299,5.064185385047246e-08,5,5.064185385047246e-08,5,5.064185385047246e-08,5
5.075230082871102e-08,3.817688820415984,5.075230082871102e-08,3.761504143555089,5.075230082871102e-08,5,5.075230082871102e-08,5,5.075230082871102e-08,5
5.087615041435551e-08,3.948214999881497,5.087615041435551e-08,4.38075207177755,5.087615041435551e-08,5,5.087615041435551e-08,5,5.087615041435551e-08,5
5.099999999999999e-08,4.077498553921941,5.099999999999999e-08,4.999999999999979,5.099999999999999e-08,5,5.099999999999999e-08,5,5.099999999999999e-08,5
5.102844775106859e-08,4.051900556109633,5.102844775106859e-08,5,5.102844775106859e-08,4.85776124465705,5.102844775106859e-08,4.857761244657059,5.102844775106859e-08,4.857761244657055
5.107890794370981e-08,4.005688193186028,5.107890794370981e-08,5,5.107890794370981e-08,4.60546028145093,5.107890794370981e-08,4.605460281450938,5.107890794370981e-08,4.605460281450934
5.11245016638938e-08,3.963942288062413,5.11245016638938e-08,5,5.11245016638938e-08,4.377491680530972,5.11245016638938e-08,4.37749168053098,5.11245016638938e-08,4.377491680530976
5.120866139888327e-08,3.88663594755168,5.120866139888327e-08,5,5.120866139888327e-08,3.956693005583618,5.120866139888327e-08,3.956693005583626,5.120866139888327e-08,3.956693005583622
5.132021192081296e-08,3.783072672716643,5.132021192081296e-08,5,5.132021192081296e-08,3.398940395935177,5.132021192081296e-08,3.398940395935185,5.132021192081296e-08,3.398940395935181
5.149752812934994e-08,3.61230351376027,5.149752812934994e-08,5,5.149752812934994e-08,2.512359353250273,5.149752812934994e-08,2.512359353250281,5.149752812934994e-08,2.512359353250277
5.152646215783373e-08,3.582746188651477,5.152646215783373e-08,5,5.152646215783373e-08,2.367689210831351,5.152646215783373e-08,2.36768921083136,5.152646215783373e-08,2.367689210831355
5.15843302148013e-08,3.518544246788954,5.15843302148013e-08,5,5.15843302148013e-08,2.078348925993508,5.15843302148013e-08,2.078348925993517,5.15843302148013e-08,2.078348925993512
5.160386647346184e-08,3.494359262748891,5.160386647346184e-08,5,5.160386647346184e-08,1.980667632690762,5.160386647346184e-08,1.98066763269077,5.160386647346184e-08,1.980667632690766
5.164293899078294e-08,3.432447081094548,5.164293899078294e-08,5,5.164293899078294e-08,1.785305046085268,5.164293899078294e-08,1.785305046085277,5.164293899078294e-08,1.785305046085272
5.170173070896758e-08,3.304469324325166,5.170173070896758e-08,5,5.170173070896758e-08,1.491346455162061,5.170173070896758e-08,1.491346455162069,5.170173070896758e-08,1.491346455162065
5.176339952477263e-08,3.159424246055881,5.176339952477263e-08,5,5.176339952477263e-08,1.183002376136809,5.176339952477263e-08,1.183002376136818,5.176339952477263e-08,1.183002376136813
5.182708339776049e-08,3.013011955564604,5.182708339776049e-08,5,5.182708339776049e-08,0.8645830111975537,5.182708339776049e-08,0.8645830111975616,5.182708339776049e-08,0.8645830111975572
5.19175241243215e-08,2.801074780412576,5.19175241243215e-08,5,5.19175241243215e-08,0.4123793783925018,5.19175241243215e-08,0.4123793783925098,5.19175241243215e-08,0.4123793783925054
5.2e-08,2.610674147776083,5.2e-08,5,5.2e-08,0,5.2e-08,1.332267629550188e-14,5.2e-08,8.881784197001252e-15
5.204180859085292e-08,2.608488913376661,5.204180859085292e-08,5,5.204180859085292e-08,0,5.204180859085292e-08,0,5.204180859085292e-08,0
5.209367579771004e-08,2.608595206784472,5.209367579771004e-08,5,5.209367579771004e-08,0,5.209367579771004e-08,0,5.209367579771004e-08,0
5.214236081600544e-08,2.608726650879529,5.214236081600544e-08,5,5.214236081600544e-08,0,5.214236081600544e-08,0,5.214236081600544e-08,0
5.223973085259626e-08,2.608592554382509,5.223973085259626e-08,5,5.223973085259626e-08,0,5.223973085259626e-08,0,5.223973085259626e-08,0
5.237554161501542e-08,2.608705800028663,5.237554161501542e-08,5,5.237554161501542e-08,0,5.237554161501542e-08,0,5.237554161501542e-08,0
5.260293584032219e-08,2.608600569877949,5.260293584032219e-08,5,5.260293584032219e-08,0,5.260293584032219e-08,0,5.260293584032219e-08,0
5.298301407578804e-08,2.608701457117951,5.298301407578804e-08,5,5.298301407578804e-08,0,5.298301407578804e-08,0,5.298301407578804e-08,0
5.362727772037841e-08,2.608603550414181,5.362727772037841e-08,5,5.362727772037841e-08,0,5.362727772037841e-08,0,5.362727772037841e-08,0
5.475306426732366e-08,2.608700127947232,5.475306426732366e-08,5,5.475306426732366e-08,0,5.475306426732366e-08,0,5.475306426732366e-08,0
5.625e-08,2.60860512436291,5.625e-08,5,5.625e-08,0,5.625e-08,0,5.625e-08,0
5.660867318237352e-08,2.727664462103407,5.660867318237352e-08,5,5.660867318237352e-08,0,5.660867318237352e-08,0,5.660867318237352e-08,1.793365911867604
5.692933659118676e-08,2.834221583098561,5.692933659118676e-08,5,5.692933659118676e-08,0,5.692933659118676e-08,0,5.692933659118676e-08,3.396682955933807
5.725e-08,2.940750321218345,5.725e-08,5,5.725e-08,0,5.725e-08,0,5.725e-08,5
5.747266572061251e-08,2.940950932045521,5.747266572061251e-08,5,5.747266572061251e-08,0,5.747266572061251e-08,0,5.747266572061251e-08,5
5.772953541847812e-08,2.94093822994558,5.772953541847812e-08,5,5.772953541847812e-08,0,5.772953541847812e-08,0,5.772953541847812e-08,5
5.798001754891762e-08,2.940946829556645,5.798001754891762e-08,5,5.798001754891762e-08,0,5.798001754891762e-08,0,5.798001754891762e-08,5
5.848098180979662e-08,2.940940878563454,5.848098180979662e-08,5,5.848098180979662e-08,0,5.848098180979662e-08,0,5.848098180979662e-08,5
5.948291033155462e-08,2.940945296115458,5.948291033155462e-08,5,5.948291033155462e-08,0,5.948291033155462e-08,0,5.948291033155462e-08,5
6.099145516577731e-08,2.940941974805273,6.099145516577731e-08,5,6.099145516577731e-08,0,6.099145516577731e-08,0,6.099145516577731e-08,5
6.25e-08,2.940944972608575,6.25e-08,5,6.25e-08,0,6.25e-08,0,6.25e-08,5
