/vout X,/vout Y,/net06 X,/net06 Y,/net09 X,/net09 Y,/net08 X,/net08 Y,/net07 X,/net07 Y
0,0.09335340312922184,0,0,0,0,0,0,0,0
1e-10,0.09335340334921031,1e-10,0,1e-10,0,1e-10,0,1e-10,0
3e-10,0.09335340330506661,3e-10,0,3e-10,0,3e-10,0,3e-10,0
7e-10,0.09335340329399494,7e-10,0,7e-10,0,7e-10,0,7e-10,0
1.5e-09,0.09335340330181854,1.5e-09,0,1.5e-09,0,1.5e-09,0,1.5e-09,0
3.1e-09,0.09335340329509073,3.1e-09,0,3.1e-09,0,3.1e-09,0,3.1e-09,0
4.675e-09,0.0933534033012189,4.675e-09,0,4.675e-09,0,4.675e-09,0,4.675e-09,0
6.25e-09,0.09335340329562318,6.25e-09,0,6.25e-09,0,6.25e-09,0,6.25e-09,0
6.312499999999999e-09,0.11081478009406,6.312499999999999e-09,0,6.312499999999999e-09,0,6.312499999999999e-09,0,6.312499999999999e-09,0.3124999999999987
6.437499999999999e-09,0.1465873145592037,6.437499999999999e-09,0,6.437499999999999e-09,0,6.437499999999999e-09,0,6.437499999999999e-09,0.9374999999999959
6.687499999999998e-09,0.2196170633932119,6.687499999999998e-09,0,6.687499999999998e-09,0,6.687499999999998e-09,0,6.687499999999998e-09,2.187499999999991
6.968749999999999e-09,0.3043079530211502,6.968749999999999e-09,0,6.968749999999999e-09,0,6.968749999999999e-09,0,6.968749999999999e-09,3.593749999999997
7.25e-09,0.3918742979590958,7.25e-09,0,7.25e-09,0,7.25e-09,0,7.25e-09,4.999999999999999
7.390625e-09,0.3921791056813806,7.390625e-09,0,7.390625e-09,0,7.390625e-09,0,7.390625e-09,5
7.612173520059221e-09,0.3921924181383096,7.612173520059221e-09,0,7.612173520059221e-09,0,7.612173520059221e-09,0,7.612173520059221e-09,5
7.82806488787382e-09,0.3921818147835458,7.82806488787382e-09,0,7.82806488787382e-09,0,7.82806488787382e-09,0,7.82806488787382e-09,5
8.259847623503019e-09,0.3921902692725507,8.259847623503019e-09,0,8.259847623503019e-09,0,8.259847623503019e-09,0,8.259847623503019e-09,5
8.912278900769116e-09,0.3921829027142264,8.912278900769116e-09,0,8.912278900769116e-09,0,8.912278900769116e-09,0,8.912278900769116e-09,5
1.001789376247884e-08,0.3921900370088648,1.001789376247884e-08,0,1.001789376247884e-08,0,1.001789376247884e-08,0,1.001789376247884e-08,5
1.125894688123942e-08,0.3921833732294385,1.125894688123942e-08,0,1.125894688123942e-08,0,1.125894688123942e-08,0,1.125894688123942e-08,5
1.25e-08,0.392189813017252,1.25e-08,0,1.25e-08,0,1.25e-08,0,1.25e-08,5
1.275e-08,0.5512992541598681,1.275e-08,0,1.275e-08,0,1.275e-08,1.249999999999995,1.275e-08,5
1.317088686725171e-08,0.8180280636241423,1.317088686725171e-08,0,1.317088686725171e-08,0,1.317088686725171e-08,3.35443433625854,1.317088686725171e-08,5
1.35e-08,1.021691160449275,1.35e-08,0,1.35e-08,0,1.35e-08,4.999999999999995,1.35e-08,5
1.352722980027984e-08,1.013825969318176,1.352722980027984e-08,0,1.352722980027984e-08,0,1.352722980027984e-08,5,1.352722980027984e-08,4.863850998600805
1.358168940083952e-08,0.9970111604483027,1.358168940083952e-08,0,1.358168940083952e-08,0,1.358168940083952e-08,5,1.358168940083952e-08,4.591552995802407
1.369060860195888e-08,0.9634036118556756,1.369060860195888e-08,0,1.369060860195888e-08,0,1.369060860195888e-08,5,1.369060860195888e-08,4.046956990205611
1.382723936893287e-08,0.9212823031672054,1.382723936893287e-08,0,1.382723936893287e-08,0,1.382723936893287e-08,5,1.382723936893287e-08,3.363803155335629
1.407514872884208e-08,0.8444586573598196,1.407514872884208e-08,0,1.407514872884208e-08,0,1.407514872884208e-08,5,1.407514872884208e-08,2.124256355789603
1.45e-08,0.7115424364704247,1.45e-08,0,1.45e-08,0,1.45e-08,5,1.45e-08,0
1.474148594832966e-08,0.7112662863221677,1.474148594832966e-08,0,1.474148594832966e-08,0,1.474148594832966e-08,5,1.474148594832966e-08,0
1.502330101059403e-08,0.711269245846839,1.502330101059403e-08,0,1.502330101059403e-08,0,1.502330101059403e-08,5,1.502330101059403e-08,0
1.530901985012754e-08,0.7112644836306939,1.530901985012754e-08,0,1.530901985012754e-08,0,1.530901985012754e-08,5,1.530901985012754e-08,0
1.588045752919456e-08,0.7112681452125444,1.588045752919456e-08,0,1.588045752919456e-08,0,1.588045752919456e-08,5,1.588045752919456e-08,0
1.702333288732859e-08,0.7112648082569,1.702333288732859e-08,0,1.702333288732859e-08,0,1.702333288732859e-08,5,1.702333288732859e-08,0
1.875e-08,0.7112679802719634,1.875e-08,0,1.875e-08,0,1.875e-08,5,1.875e-08,0
1.9e-08,0.7895658005210219,1.9e-08,0,1.9e-08,0,1.9e-08,5,1.9e-08,1.249999999999995
1.909375e-08,0.8188605836576756,1.909375e-08,0,1.909375e-08,0,1.909375e-08,5,1.909375e-08,1.718749999999997
1.928125e-08,0.8771136143638902,1.928125e-08,0,1.928125e-08,0,1.928125e-08,5,1.928125e-08,2.656250000000001
1.9515625e-08,0.9496035979024238,1.9515625e-08,0,1.9515625e-08,0,1.9515625e-08,5,1.9515625e-08,3.82812499999999
1.975e-08,1.021841398490335,1.975e-08,0,1.975e-08,0,1.975e-08,5,1.975e-08,4.999999999999995
1.98671875e-08,1.022017412292223,1.98671875e-08,0,1.98671875e-08,0,1.98671875e-08,5,1.98671875e-08,5
2.006414582824601e-08,1.021995269275967,2.006414582824601e-08,0,2.006414582824601e-08,0,2.006414582824601e-08,5,2.006414582824601e-08,5
2.025690225951626e-08,1.022007304901016,2.025690225951626e-08,0,2.025690225951626e-08,0,2.025690225951626e-08,5,2.025690225951626e-08,5
2.064241512205676e-08,1.02199845771032,2.064241512205676e-08,0,2.064241512205676e-08,0,2.064241512205676e-08,5,2.064241512205676e-08,5
2.139161024843076e-08,1.022005917811664,2.139161024843076e-08,0,2.139161024843076e-08,0,2.139161024843076e-08,5,2.139161024843076e-08,5
2.276958420319727e-08,1.021999367629135,2.276958420319727e-08,0,2.276958420319727e-08,0,2.276958420319727e-08,5,2.276958420319727e-08,5
2.388479210159864e-08,1.022005463987757,2.388479210159864e-08,0,2.388479210159864e-08,0,2.388479210159864e-08,5,2.388479210159864e-08,5
2.5e-08,1.021999822526568,2.5e-08,0,2.5e-08,0,2.5e-08,5,2.5e-08,5
2.50625e-08,1.098366531939932,2.50625e-08,0,2.50625e-08,0.3124999999999904,2.50625e-08,5,2.50625e-08,5
2.518749999999999e-08,1.253062138603582,2.518749999999999e-08,0,2.518749999999999e-08,0.9374999999999711,2.518749999999999e-08,5,2.518749999999999e-08,5
2.543225045294532e-08,1.559878717634264,2.543225045294532e-08,0,2.543225045294532e-08,2.161252264726585,2.543225045294532e-08,5,2.543225045294532e-08,5
2.567858628430232e-08,1.875420608956927,2.567858628430232e-08,0,2.567858628430232e-08,3.392931421511617,2.567858628430232e-08,5,2.567858628430232e-08,5
2.6e-08,2.295534219161228,2.6e-08,0,2.6e-08,4.999999999999995,2.6e-08,5,2.6e-08,5
2.605750284451915e-08,2.239977254495848,2.605750284451915e-08,0,2.605750284451915e-08,5,2.605750284451915e-08,4.71248577740425,2.605750284451915e-08,4.712485777404246
2.616457415078195e-08,2.13433560861618,2.616457415078195e-08,0,2.616457415078195e-08,5,2.616457415078195e-08,4.177129246090252,2.616457415078195e-08,4.177129246090248
2.626337418292666e-08,2.037465755439662,2.626337418292666e-08,0,2.626337418292666e-08,5,2.626337418292666e-08,3.683129085366682,2.626337418292666e-08,3.683129085366678
2.642829276310672e-08,1.87671178105278,2.642829276310672e-08,0,2.642829276310672e-08,5,2.642829276310672e-08,2.858536184466415,2.642829276310672e-08,2.858536184466411
2.662456305569642e-08,1.687342724195373,2.662456305569642e-08,0,2.662456305569642e-08,5,2.662456305569642e-08,1.877184721517891,2.662456305569642e-08,1.877184721517887
2.7e-08,1.331806991312088,2.7e-08,0,2.7e-08,5,2.7e-08,1.332267629550188e-14,2.7e-08,8.881784197001252e-15
2.709477063412231e-08,1.331322770116131,2.709477063412231e-08,0,2.709477063412231e-08,5,2.709477063412231e-08,0,2.709477063412231e-08,0
2.725165368472958e-08,1.331411578939873,2.725165368472958e-08,0,2.725165368472958e-08,5,2.725165368472958e-08,0,2.725165368472958e-08,0
2.740533240748299e-08,1.331348255474326,2.740533240748299e-08,0,2.740533240748299e-08,5,2.740533240748299e-08,0,2.740533240748299e-08,0
2.771268985298981e-08,1.331389491208603,2.771268985298981e-08,0,2.771268985298981e-08,5,2.771268985298981e-08,0,2.771268985298981e-08,0
2.811669834749266e-08,1.331358460621254,2.811669834749266e-08,0,2.811669834749266e-08,5,2.811669834749266e-08,0,2.811669834749266e-08,0
2.883103489289325e-08,1.331387277722592,2.883103489289325e-08,0,2.883103489289325e-08,5,2.883103489289325e-08,0,2.883103489289325e-08,0
3.025113659146707e-08,1.331360883141732,3.025113659146707e-08,0,3.025113659146707e-08,5,3.025113659146707e-08,0,3.025113659146707e-08,0
3.125e-08,1.331385028861198,3.125e-08,0,3.125e-08,5,3.125e-08,0,3.125e-08,0
3.157383358184692e-08,1.432539777689268,3.157383358184692e-08,0,3.157383358184692e-08,5,3.157383358184692e-08,0,3.157383358184692e-08,1.619167909234613
3.191191679092346e-08,1.539087673697949,3.191191679092346e-08,0,3.191191679092346e-08,5,3.191191679092346e-08,0,3.191191679092346e-08,3.309583954617312
3.225e-08,1.646433518900701,3.225e-08,0,3.225e-08,5,3.225e-08,0,3.225e-08,5
3.248040034029997e-08,1.646593345643463,3.248040034029997e-08,0,3.248040034029997e-08,5,3.248040034029997e-08,0,3.248040034029997e-08,5
3.274654735151864e-08,1.646572806000607,3.274654735151864e-08,0,3.274654735151864e-08,5,3.274654735151864e-08,0,3.274654735151864e-08,5
3.300573143220954e-08,1.646593891101497,3.300573143220954e-08,0,3.300573143220954e-08,5,3.300573143220954e-08,0,3.300573143220954e-08,5
3.352409959359134e-08,1.646574981587299,3.352409959359134e-08,0,3.352409959359134e-08,5,3.352409959359134e-08,0,3.352409959359134e-08,5
3.456083591635495e-08,1.646592875407151,3.456083591635495e-08,0,3.456083591635495e-08,5,3.456083591635495e-08,0,3.456083591635495e-08,5
3.603041795817748e-08,1.646575707197486,3.603041795817748e-08,0,3.603041795817748e-08,5,3.603041795817748e-08,0,3.603041795817748e-08,5
3.75e-08,1.646592494665971,3.75e-08,0,3.75e-08,5,3.75e-08,0,3.75e-08,5
3.775e-08,1.806511687055623,3.775e-08,0,3.775e-08,5,3.775e-08,1.249999999999995,3.775e-08,5
3.8125e-08,2.049820989023292,3.8125e-08,0,3.8125e-08,5,3.8125e-08,3.125000000000003,3.8125e-08,5
3.85e-08,2.295822766509911,3.85e-08,0,3.85e-08,5,3.85e-08,5,3.85e-08,5
3.86228660086976e-08,2.255881170765958,3.86228660086976e-08,0,3.86228660086976e-08,5,3.86228660086976e-08,5,3.86228660086976e-08,4.385669956512006
3.879660984027437e-08,2.198709889124622,3.879660984027437e-08,0,3.879660984027437e-08,5,3.879660984027437e-08,5,3.879660984027437e-08,3.516950798628142
3.895604745459545e-08,2.14643203042607,3.895604745459545e-08,0,3.895604745459545e-08,5,3.895604745459545e-08,5,3.895604745459545e-08,2.719762727022745
3.927492268323761e-08,2.042118750901738,3.927492268323761e-08,0,3.927492268323761e-08,5,3.927492268323761e-08,5,3.927492268323761e-08,1.125386583811951
3.95e-08,1.96881813332278,3.95e-08,0,3.95e-08,5,3.95e-08,5,3.95e-08,0
3.968720194582441e-08,1.968652609369792,3.968720194582441e-08,0,3.968720194582441e-08,5,3.968720194582441e-08,5,3.968720194582441e-08,0
3.99094041487271e-08,1.968667712911231,3.99094041487271e-08,0,3.99094041487271e-08,5,3.99094041487271e-08,5,3.99094041487271e-08,0
4.01213423970768e-08,1.96865648425277,4.01213423970768e-08,0,4.01213423970768e-08,5,4.01213423970768e-08,5,4.01213423970768e-08,0
4.05452188937762e-08,1.968664087585616,4.05452188937762e-08,0,4.05452188937762e-08,5,4.05452188937762e-08,5,4.05452188937762e-08,0
4.139297188717499e-08,1.968657577122232,4.139297188717499e-08,0,4.139297188717499e-08,5,4.139297188717499e-08,5,4.139297188717499e-08,0
4.257148594358749e-08,1.968663909471298,4.257148594358749e-08,0,4.257148594358749e-08,5,4.257148594358749e-08,5,4.257148594358749e-08,0
4.375e-08,1.968658125349933,4.375e-08,0,4.375e-08,5,4.375e-08,5,4.375e-08,0
4.40858798770747e-08,2.078004021908711,4.40858798770747e-08,0,4.40858798770747e-08,5,4.40858798770747e-08,5,4.40858798770747e-08,1.679399385373497
4.441793993853735e-08,2.186758989514675,4.441793993853735e-08,0,4.441793993853735e-08,5,4.441793993853735e-08,5,4.441793993853735e-08,3.339699692686738
4.475e-08,2.29601464561051,4.475e-08,0,4.475e-08,5,4.475e-08,5,4.475e-08,5
4.497695290678194e-08,2.296145764191473,4.497695290678194e-08,0,4.497695290678194e-08,5,4.497695290678194e-08,5,4.497695290678194e-08,5
4.523909110097962e-08,2.29613266627878,4.523909110097962e-08,0,4.523909110097962e-08,5,4.523909110097962e-08,5,4.523909110097962e-08,5
4.549437101955679e-08,2.296142294226361,4.549437101955679e-08,0,4.549437101955679e-08,5,4.549437101955679e-08,5,4.549437101955679e-08,5
4.600493085671114e-08,2.296135045905483,4.600493085671114e-08,0,4.600493085671114e-08,5,4.600493085671114e-08,5,4.600493085671114e-08,5
4.702605053101983e-08,2.296140938021453,4.702605053101983e-08,0,4.702605053101983e-08,5,4.702605053101983e-08,5,4.702605053101983e-08,5
4.851302526550991e-08,2.296136042842559,4.851302526550991e-08,0,4.851302526550991e-08,5,4.851302526550991e-08,5,4.851302526550991e-08,5
5e-08,2.296140620278959,5e-08,0,5e-08,5,5e-08,5,5e-08,5
5.00625e-08,2.459756068511215,5.00625e-08,0.3124999999999904,5.00625e-08,5,5.00625e-08,5,5.00625e-08,5
5.018348252780475e-08,2.780489347002313,5.018348252780475e-08,0.9174126390237443,5.018348252780475e-08,5,5.018348252780475e-08,5,5.018348252780475e-08,5
5.041384313314663e-08,3.390545200973392,5.041384313314663e-08,2.069215665733184,5.041384313314663e-08,5,5.041384313314663e-08,5,5.041384313314663e-08,5
5.059338726022264e-08,3.864127484512737,5.059338726022264e-08,2.966936301113207,5.059338726022264e-08,5,5.059338726022264e-08,5,5.059338726022264e-08,5
5.064421385269481e-08,3.9979452101223,5.064421385269481e-08,3.22106926347407,5.064421385269481e-08,5,5.064421385269481e-08,5,5.064421385269481e-08,5
5.06696271489309e-08,4.064625538546916,5.06696271489309e-08,3.348135744654501,5.06696271489309e-08,5,5.06696271489309e-08,5,5.06696271489309e-08,5
5.072045374140307e-08,4.197908850620967,5.072045374140307e-08,3.602268707015364,5.072045374140307e-08,5,5.072045374140307e-08,5,5.072045374140307e-08,5
5.074586703763916e-08,4.262961732685131,5.074586703763916e-08,3.729335188195796,5.074586703763916e-08,5,5.074586703763916e-08,5,5.074586703763916e-08,5
5.07585736857572e-08,4.29406575468621,5.07585736857572e-08,3.792868428785995,5.07585736857572e-08,5,5.07585736857572e-08,5,5.07585736857572e-08,5
5.078398698199328e-08,4.348843256125241,5.078398698199328e-08,3.919934909966393,5.078398698199328e-08,5,5.078398698199328e-08,5,5.078398698199328e-08,5
5.083034425804932e-08,4.421646203812942,5.083034425804932e-08,4.151721290246636,5.083034425804932e-08,5,5.083034425804932e-08,5,5.083034425804932e-08,5
5.084487506928074e-08,4.440684739693033,5.084487506928074e-08,4.224375346403694,5.084487506928074e-08,5,5.084487506928074e-08,5,5.084487506928074e-08,5
5.087393669174356e-08,4.476842609816948,5.087393669174356e-08,4.369683458717813,5.087393669174356e-08,5,5.087393669174356e-08,5,5.087393669174356e-08,5
5.093205993666921e-08,4.544378714408406,5.093205993666921e-08,4.660299683346049,5.093205993666921e-08,5,5.093205993666921e-08,5,5.093205993666921e-08,5
5.099999999999999e-08,4.61997743988486,5.099999999999999e-08,4.999999999999979,5.099999999999999e-08,5,5.099999999999999e-08,5,5.099999999999999e-08,5
5.102080413048502e-08,4.600403020122601,5.102080413048502e-08,5,5.102080413048502e-08,4.895979347574869,5.102080413048502e-08,4.895979347574877,5.102080413048502e-08,4.895979347574873
5.105487546134522e-08,4.567186993478942,5.105487546134522e-08,5,5.105487546134522e-08,4.725622693273871,5.105487546134522e-08,4.72562269327388,5.105487546134522e-08,4.725622693273875
5.10870269947514e-08,4.535267682582356,5.10870269947514e-08,5,5.10870269947514e-08,4.564865026242993,5.10870269947514e-08,4.564865026243001,5.10870269947514e-08,4.564865026242997
5.115133006156375e-08,4.469366346473886,5.115133006156375e-08,5,5.115133006156375e-08,4.243349692181237,5.115133006156375e-08,4.243349692181245,5.115133006156375e-08,4.243349692181241
5.12318858858911e-08,4.372889098457862,5.12318858858911e-08,5,5.12318858858911e-08,3.840570570544494,5.12318858858911e-08,3.840570570544502,5.12318858858911e-08,3.840570570544497
5.135019802213642e-08,4.131202683693339,5.135019802213642e-08,5,5.135019802213642e-08,3.249009889317874,5.135019802213642e-08,3.249009889317882,5.135019802213642e-08,3.249009889317878
5.143630238988874e-08,3.931678183669458,5.143630238988874e-08,5,5.143630238988874e-08,2.818488050556261,5.143630238988874e-08,2.818488050556269,5.143630238988874e-08,2.818488050556265
5.152607630354457e-08,3.725987118599035,5.152607630354457e-08,5,5.152607630354457e-08,2.369618482277157,5.152607630354457e-08,2.369618482277166,5.152607630354457e-08,2.369618482277161
5.164034249385512e-08,3.460801126776834,5.164034249385512e-08,5,5.164034249385512e-08,1.79828753072437,5.164034249385512e-08,1.798287530724378,5.164034249385512e-08,1.798287530724374
5.184200548602917e-08,2.994833473650891,5.184200548602917e-08,5,5.184200548602917e-08,0.7899725698541529,5.184200548602917e-08,0.7899725698541609,5.184200548602917e-08,0.7899725698541564
5.2e-08,2.627161640639448,5.2e-08,5,5.2e-08,0,5.2e-08,1.332267629550188e-14,5.2e-08,8.881784197001252e-15
5.204179027235229e-08,2.626416839415872,5.204179027235229e-08,5,5.204179027235229e-08,0,5.204179027235229e-08,0,5.204179027235229e-08,0
5.211631009556592e-08,2.626618324938368,5.211631009556592e-08,5,5.211631009556592e-08,0,5.211631009556592e-08,0,5.211631009556592e-08,0
5.218211501099614e-08,2.626697020159163,5.218211501099614e-08,5,5.218211501099614e-08,0,5.218211501099614e-08,0,5.218211501099614e-08,0
5.230784018068326e-08,2.626552480820581,5.230784018068326e-08,5,5.230784018068326e-08,0,5.230784018068326e-08,0,5.230784018068326e-08,0
5.246069081029496e-08,2.626695058894647,5.246069081029496e-08,5,5.246069081029496e-08,0,5.246069081029496e-08,0,5.246069081029496e-08,0
5.272214207717279e-08,2.626556239409193,5.272214207717279e-08,5,5.272214207717279e-08,0,5.272214207717279e-08,0,5.272214207717279e-08,0
5.315564070075835e-08,2.626686702595468,5.315564070075835e-08,5,5.315564070075835e-08,0,5.315564070075835e-08,0,5.315564070075835e-08,0
5.384346058312993e-08,2.626561813661109,5.384346058312993e-08,5,5.384346058312993e-08,0,5.384346058312993e-08,0,5.384346058312993e-08,0
5.500939497754309e-08,2.626684096790759,5.500939497754309e-08,5,5.500939497754309e-08,0,5.500939497754309e-08,0,5.500939497754309e-08,0
5.625e-08,2.626568745115395,5.625e-08,5,5.625e-08,0,5.625e-08,0,5.625e-08,0
5.658991352496351e-08,2.739089002456976,5.658991352496351e-08,5,5.658991352496351e-08,0,5.658991352496351e-08,0,5.658991352496351e-08,1.699567624817546
5.691995676248176e-08,2.848485688608168,5.691995676248176e-08,5,5.691995676248176e-08,0,5.691995676248176e-08,0,5.691995676248176e-08,3.349783812408795
5.725e-08,2.957856811573029,5.725e-08,5,5.725e-08,0,5.725e-08,0,5.725e-08,5
5.747599012991069e-08,2.958026127888004,5.747599012991069e-08,5,5.747599012991069e-08,0,5.747599012991069e-08,0,5.747599012991069e-08,5
5.773709411653516e-08,2.958017856496759,5.773709411653516e-08,5,5.773709411653516e-08,0,5.773709411653516e-08,0,5.773709411653516e-08,5
5.799132555296027e-08,2.958016495364526,5.799132555296027e-08,5,5.799132555296027e-08,0,5.799132555296027e-08,0,5.799132555296027e-08,5
5.849978842581051e-08,2.958020522857608,5.849978842581051e-08,5,5.849978842581051e-08,0,5.849978842581051e-08,0,5.849978842581051e-08,5
5.951671417151098e-08,2.958014024706066,5.951671417151098e-08,5,5.951671417151098e-08,0,5.951671417151098e-08,0,5.951671417151098e-08,5
6.100835708575549e-08,2.958022502155454,6.100835708575549e-08,5,6.100835708575549e-08,0,6.100835708575549e-08,0,6.100835708575549e-08,5
6.25e-08,2.958013870705301,6.25e-08,5,6.25e-08,0,6.25e-08,0,6.25e-08,5
6.275357138602633e-08,3.125680746429337,6.275357138602633e-08,5,6.275357138602633e-08,0,6.275357138602633e-08,1.267856930131673,6.275357138602633e-08,5
6.312678569301316e-08,3.372642382257526,6.312678569301316e-08,5,6.312678569301316e-08,0,6.312678569301316e-08,3.133928465065792,6.312678569301316e-08,5
6.349999999999999e-08,3.61907246874701,6.349999999999999e-08,5,6.349999999999999e-08,0,6.349999999999999e-08,4.999999999999979,6.349999999999999e-08,5
6.36226180556264e-08,3.57919670182914,6.36226180556264e-08,5,6.36226180556264e-08,0,6.36226180556264e-08,5,6.36226180556264e-08,4.386909721867962
