/Aout X,/Aout Y,/Bout X,/Bout Y,/Cout X,/Cout Y,/Vin X,/Vin Y
0,0.4957364671687201,0,0.7010178116878569,0,1.082073834629685,0,0.45
5e-06,0.4965082104349651,5e-06,0.7053519410592999,5e-06,1.093062167244115,5e-06,0.4501570537953907
1.290163721524084e-05,0.4977304734764987,1.290163721524084e-05,0.712251430517098,1.290163721524084e-05,1.109802483533743,1.290163721524084e-05,0.4504048731249147
2.393798923760701e-05,0.4994318914568235,2.393798923760701e-05,0.7218801897038446,2.393798923760701e-05,1.132168322107844,2.393798923760701e-05,0.4507492018709093
4.393798923760701e-05,0.5024744861578513,4.393798923760701e-05,0.7391787645292474,4.393798923760701e-05,1.168555518400443,4.393798923760701e-05,0.4513628854233511
6.393798923760701e-05,0.5054228160758114,6.393798923760701e-05,0.7560284512105019,6.393798923760701e-05,1.198719123949502,6.393798923760701e-05,0.4519550754585184
8.393798923760701e-05,0.5082286431578714,8.393798923760701e-05,0.7721319184788759,8.393798923760701e-05,1.222332581990425,8.393798923760701e-05,0.4525164327857994
0.000103937989237607,0.5108456173790239,0.000103937989237607,0.7872019352519829,0.000103937989237607,1.240088166289014,0.000103937989237607,0.4530381044648042
0.000123937989237607,0.5132300818582929,0.000123937989237607,0.8009676909742721,0.000123937989237607,1.253131427045259,0.000123937989237607,0.4535118634215235
0.000143937989237607,0.5153419647058827,0.000143937989237607,0.8131819110112305,0.000143937989237607,1.262590419840659,0.000143937989237607,0.4539302381941998
0.000163937989237607,0.5171454986965534,0.000163937989237607,0.8236254424960644,0.000163937989237607,1.269357653995751,0.000163937989237607,0.4542866307627431
0.000183937989237607,0.5186099873872791,0.000183937989237607,0.8321122578764938,0.000183937989237607,1.274101197769514,0.000183937989237607,0.4545754206034487
0.000203937989237607,0.5197103595038925,0.000203937989237607,0.8384918477127569,0.000203937989237607,1.277275784687293,0.000203937989237607,0.4547920533280143
0.000223937989237607,0.5204277348961134,0.000223937989237607,0.8426521532402567,0.000223937989237607,1.279187561506679,0.000223937989237607,0.4549331125089632
0.000243937989237607,0.5207497491548974,0.000243937989237607,0.8445201905930861,0.000243937989237607,1.280006059261321,0.000243937989237607,0.4549963735587471
0.000263937989237607,0.5206708657401875,0.000263937989237607,0.8440635718113574,0.000263937989237607,1.279810488270176,0.000263937989237607,0.4549808388128207
0.000283937989237607,0.5201924302539659,0.000283937989237607,0.8412900724423831,0.000283937989237607,1.278577633333208,0.000283937989237607,0.4548867532634073
0.000303937989237607,0.5193227018537759,0.000303937989237607,0.8362482999651617,0.000303937989237607,1.276201988904265,0.000303937989237607,0.454715600695825
0.000323937989237607,0.518076625226105,0.000323937989237607,0.8290264706394367,0.000323937989237607,1.272457308732149,0.000323937989237607,0.4544700802883062
0.000343937989237607,0.5164755844345823,0.000343937989237607,0.819752162142558,0.000343937989237607,1.266991312147749,0.000343937989237607,0.4541540640443443
0.000363937989237607,0.5145469100459507,0.000363937989237607,0.8085899043129094,0.000363937989237607,1.259264139088804,0.000363937989237607,0.4537725357288855
0.000383937989237607,0.5123233880262591,0.000383937989237607,0.7957393784122998,0.000383937989237607,1.248531159810199,0.000383937989237607,0.4533315122713786
0.000403937989237607,0.5098425479776473,0.000403937989237607,0.781431105364942,0.000403937989237607,1.233795629651158,0.000403937989237607,0.4528379488752031
0.000423937989237607,0.5071459850115156,0.000423937989237607,0.7659225071583292,0.000423937989237607,1.213892847504655,0.000423937989237607,0.4522996293299572
0.000443937989237607,0.5042784977619303,0.000443937989237607,0.749491403252318,0.000443937989237607,1.187762405673104,0.000443937989237607,0.4517250432564459
0.000463937989237607,0.5012873002177815,0.000463937989237607,0.732430074075277,0.000463937989237607,1.155087886906832,0.000463937989237607,0.4511232522202895
0.000483937989237607,0.4982210923815124,0.000483937989237607,0.715037263082268,0.000483937989237607,1.116549926575347,0.000483937989237607,0.4505037468256208
0.0005039379892376071,0.4951292474637682,0.0005039379892376071,0.697611441210145,0.0005039379892376071,1.073368468608501,0.0005039379892376071,0.4498762970425882
0.0005239379892376071,0.4920609011571879,0.0005239379892376071,0.6804428401315622,0.0005239379892376071,1.026878925086635,0.0005239379892376071,0.4492507981290907
0.0005439379892376072,0.4890641964188406,0.0005439379892376072,0.6638076305622649,0.0005439379892376072,0.9784981261719794,0.0005439379892376072,0.4486371145766489
0.0005639379892376072,0.4861854676991443,0.0005639379892376072,0.6479616794295128,0.0005639379892376072,0.9296765752418893,0.0005639379892376072,0.4480449245414816
0.0005839379892376073,0.4834686103296968,0.0005839379892376073,0.6331370599925259,0.0005839379892376073,0.881873063967531,0.0005839379892376073,0.4474835672142006
0.0006039379892376073,0.480954414769956,0.0006039379892376073,0.6195385437159248,0.0006039379892376073,0.8364488120375843,0.0006039379892376073,0.4469618955351958
0.0006239379892376074,0.4786801018975403,0.0006239379892376074,0.6073429524097173,0.0006239379892376074,0.7946341696577107,0.0006239379892376074,0.4464881365784765
0.0006439379892376074,0.4766788321793269,0.0006439379892376074,0.5966983756031404,0.0006439379892376074,0.7574534479762199,0.0006439379892376074,0.4460697618058003
0.0006639379892376075,0.4749794151524291,0.0006639379892376075,0.5877258753920819,0.0006639379892376075,0.7257413168487534,0.0006639379892376075,0.445713369237257
0.0006839379892376075,0.4736059849856972,0.0006839379892376075,0.5805205449126157,0.0006839379892376075,0.700124844712281,0.0006839379892376075,0.4454245793965513
0.0007039379892376076,0.4725778604219669,0.0007039379892376076,0.5751543950749052,0.0007039379892376076,0.681083658643875,0.0007039379892376076,0.4452079466719857
0.0007239379892376076,0.471909351140233,0.0007239379892376076,0.5716779090601884,0.0007239379892376076,0.6687465991674142,0.0007239379892376076,0.4450668874910368
0.0007439379892376077,0.4716097246027916,0.0007439379892376077,0.5701227432756464,0.0007439379892376077,0.6632185421188435,0.0007439379892376077,0.4450036264412529
0.0007639379892376078,0.4716830989651072,0.0007639379892376078,0.5705024510227305,0.0007639379892376078,0.6645534286631644,0.0007639379892376078,0.4450191611871793
0.0007839379892376078,0.4721284769269974,0.0007839379892376078,0.5728138767073266,0.0007839379892376078,0.6727444678080616,0.0007839379892376078,0.4451132467365928
0.0008039379892376079,0.4729396958332908,0.0008039379892376079,0.5770362795531444,0.0008039379892376079,0.687690153068592,0.0008039379892376079,0.4452843993041751
0.0008239379892376079,0.4741055151829669,0.0008239379892376079,0.583131046338441,0.0008239379892376079,0.7093323606982332,0.0008239379892376079,0.4455299197116939
0.000843937989237608,0.4756096269951151,0.000843937989237608,0.5910392875280955,0.000843937989237608,0.7373827047607872,0.000843937989237608,0.4458459359556557
0.000863937989237608,0.4774308173364465,0.000863937989237608,0.600680429983893,0.000863937989237608,0.7713096426471495,0.000863937989237608,0.4462274642711145
0.0008839379892376081,0.4795430708388357,0.0008839379892376081,0.6119492254692828,0.0008839379892376081,0.810400366295838,0.0008839379892376081,0.4466684877286214
0.0009039379892376081,0.4819158485862304,0.0009039379892376081,0.624714404763868,0.0009039379892376081,0.8537550853644563,0.0009039379892376081,0.4471620511247969
0.0009239379892376082,0.484514331738756,0.0009239379892376082,0.6388164593230939,0.0009239379892376082,0.9002574174322981,0.0009239379892376082,0.4477003706700429
0.0009439379892376082,0.4872998566420357,0.0009439379892376082,0.6540677475987172,0.0009439379892376082,0.9486279498756743,0.0009439379892376082,0.4482749567435542
0.0009639379892376083,0.4902303290051265,0.0009639379892376083,0.6702523324136446,0.0009639379892376083,0.9974506346854187,0.0009639379892376083,0.4488767477797106
0.0009839379892376083,0.4932608344765482,0.0009839379892376083,0.6871286134830102,0.0009839379892376083,1.045269394998574,0.0009839379892376083,0.4494962531743793
0.001003937989237608,0.4963442251005039,0.001003937989237608,0.7044319606846684,0.001003937989237608,1.090634193298584,0.001003937989237608,0.4501237029574118
0.001023937989237608,0.4994318906584347,0.001023937989237608,0.7218801820083308,0.001023937989237608,1.132168690942783,0.001023937989237608,0.4507492018709094
0.001043937989237608,0.5024744859857223,0.001043937989237608,0.7391787621260572,0.001043937989237608,1.168556206652822,0.001043937989237608,0.4513628854233512
0.001063937989237609,0.5054228158703913,0.001063937989237609,0.7560284495356916,0.001063937989237609,1.198719284785719,0.001063937989237609,0.4519550754585185
0.001083937989237609,0.5082286433451311,0.001083937989237609,0.7721319201716,0.001083937989237609,1.222332435264105,0.001083937989237609,0.4525164327857994
0.001103937989237609,0.5108456171884427,0.001103937989237609,0.7872019335526382,0.001103937989237609,1.240088298235646,0.001103937989237609,0.4530381044648043
0.001123937989237609,0.5132300820589083,0.001123937989237609,0.8009676927260465,0.001123937989237609,1.253131301267405,0.001123937989237609,0.4535118634215235
0.001143937989237609,0.5153419645006398,0.001143937989237609,0.8131819092461493,0.001143937989237609,1.26259054225763,0.001143937989237609,0.4539302381941998
0.001163937989237609,0.5171454989002027,0.001163937989237609,0.8236254442698236,0.001163937989237609,1.269357533590958,0.001163937989237609,0.4542866307627431
0.001183937989237609,0.5186099871850792,0.001183937989237609,0.8321122561206238,0.001183937989237609,1.274101316982129,0.001183937989237609,0.4545754206034488
0.001203937989237609,0.5197103597141649,0.001203937989237609,0.8384918495019292,0.001203937989237609,1.277275666359204,0.001203937989237609,0.4547920533280143
0.001223937989237609,0.5204277346761736,0.001223937989237609,0.8426521513995883,0.001223937989237609,1.279187679289519,0.001223937989237609,0.4549331125089632
0.001243937989237609,0.5207497493694395,0.001243937989237609,0.8445201923873201,0.001243937989237609,1.280005941783633,0.001243937989237609,0.4549963735587471
0.001263937989237609,0.5206708655260259,0.001263937989237609,0.8440635700435689,0.001263937989237609,1.279810605816805,0.001263937989237609,0.4549808388128207
0.001283937989237609,0.5201924304735919,0.001283937989237609,0.8412900742432806,0.001283937989237609,1.278577515462878,0.001283937989237609,0.4548867532634072
0.001303937989237609,0.5193227016129909,0.001303937989237609,0.8362482980483416,0.001303937989237609,1.276202107552034,0.001303937989237609,0.454715600695825
0.001323937989237609,0.5180766254803573,0.001323937989237609,0.8290264726300366,0.001323937989237609,1.27245718883619,0.001323937989237609,0.4544700802883062
0.001343937989237609,0.516475584177559,0.001343937989237609,0.8197521601393826,0.001343937989237609,1.266991434065524,0.001343937989237609,0.4541540640443443
0.001363937989237609,0.5145469102870563,0.001363937989237609,0.8085899062351165,0.001363937989237609,1.259264014231516,0.001363937989237609,0.4537725357288855
0.001383937989237609,0.5123233877693332,0.001383937989237609,0.795739376399065,0.001383937989237609,1.248531288852555,0.001383937989237609,0.4533315122713786
0.001403937989237609,0.5098425482428303,0.001403937989237609,0.7814311074225609,0.001403937989237609,1.233795494572689,0.001403937989237609,0.4528379488752031
0.001423937989237609,0.507145984732429,0.001423937989237609,0.7659225050226391,0.001423937989237609,1.213892991095884,0.001423937989237609,0.4522996293299572
0.00144393798923761,0.5042784980472588,0.00144393798923761,0.7494914054206901,0.00144393798923761,1.187762251629473,0.00144393798923761,0.4517250432564457
0.00146393798923761,0.5012872999271802,0.00146393798923761,0.7324300718929414,0.00146393798923761,1.155088050423428,0.00146393798923761,0.4511232522202894
0.00148393798923761,0.4982210926708207,0.00148393798923761,0.7150372652439836,0.00148393798923761,1.116549756530171,0.00148393798923761,0.4505037468256207
0.00150393798923761,0.4951292471639016,0.00150393798923761,0.6976114390083051,0.00150393798923761,1.073368643156,0.00150393798923761,0.4498762970425882
0.00152393798923761,0.4920609014377224,0.00152393798923761,0.6804428421927649,0.00152393798923761,1.026878746233906,0.00152393798923761,0.4492507981290906
0.00154393798923761,0.4890641961354893,0.00154393798923761,0.6638076285142946,0.00154393798923761,0.9784983088323363,0.00154393798923761,0.4486371145766488
0.00156393798923761,0.486185467991952,0.00156393798923761,0.6479616814938756,0.00156393798923761,0.9296763888935202,0.00156393798923761,0.4480449245414815
0.00158393798923761,0.4834686100294797,0.00158393798923761,0.6331370579234383,0.00158393798923761,0.8818732539842891,0.00158393798923761,0.4474835672142005
0.00160393798923761,0.4809544150668494,0.00160393798923761,0.6195385457294261,0.00160393798923761,0.83644861827474,0.00160393798923761,0.4469618955351957
0.00162393798923761,0.4786801015958074,0.00162393798923761,0.6073429503944139,0.00162393798923761,0.7946343667308484,0.00162393798923761,0.4464881365784765
0.00164393798923761,0.4766788325006001,0.00164393798923761,0.5966983777041156,0.00164393798923761,0.7574532482603989,0.00164393798923761,0.4460697618058002
0.00166393798923761,0.4749794148378689,0.00166393798923761,0.5877258733400038,0.00166393798923761,0.7257415191491815,0.00166393798923761,0.4457133692372569
0.00168393798923761,0.4736059852874371,0.00168393798923761,0.5805205468686588,0.00168393798923761,0.7001246404616912,0.00168393798923761,0.4454245793965512
0.00170393798923761,0.4725778601315182,0.00170393798923761,0.5751543931955991,0.00170393798923761,0.6810838638481467,0.00170393798923761,0.4452079466719857
0.00172393798923761,0.4719093513977287,0.00172393798923761,0.5716779107423162,0.00172393798923761,0.6687463927220072,0.00172393798923761,0.4450668874910368
0.00174393798923761,0.471609724329968,0.00174393798923761,0.5701227415269389,0.00174393798923761,0.663218747924861,0.00174393798923761,0.4450036264412529
0.00176393798923761,0.4716830992391172,0.00176393798923761,0.5705024527767465,0.00176393798923761,0.6645532241764683,0.00176393798923761,0.4450191611871793
0.00178393798923761,0.4721284766700845,0.00178393798923761,0.5728138750438534,0.00178393798923761,0.6727446704329715,0.00178393798923761,0.4451132467365928
0.00180393798923761,0.4729396960955065,0.00180393798923761,0.5770362812526868,0.00180393798923761,0.687689953545065,0.00180393798923761,0.4452843993041751
0.001823937989237611,0.4741055149278253,0.001823937989237611,0.5831310446966458,0.001823937989237611,0.7093325570588862,0.001823937989237611,0.4455299197116939
0.001843937989237611,0.475609627239334,0.001843937989237611,0.5910392891235714,0.001843937989237611,0.7373825125829785,0.001843937989237611,0.4458459359556557
0.001863937989237611,0.4774308170978306,0.001863937989237611,0.6006804284036266,0.001863937989237611,0.7713098299213784,0.001863937989237611,0.4462274642711145
0.001883937989237611,0.4795430710654502,0.001883937989237611,0.6119492269833334,0.001883937989237611,0.8104001842436656,0.001883937989237611,0.4466684877286214
0.001903937989237611,0.4819158483707685,0.001903937989237611,0.6247144032890938,0.001903937989237611,0.8537552617610166,0.001903937989237611,0.447162051124797
0.001923937989237611,0.4845143319604183,0.001923937989237611,0.6388164608412177,0.001923937989237611,0.9002572471422686,0.001923937989237611,0.4477003706700429
0.001943937989237611,0.4872998563983596,0.001943937989237611,0.6540677459502564,0.001943937989237611,0.9486281137196951,0.001943937989237611,0.4482749567435543
0.001963937989237611,0.4902303292585719,0.001963937989237611,0.6702523341241216,0.001963937989237611,0.9974504770680787,0.001963937989237611,0.4488767477797107
0.001983937989237611,0.493260834209548,0.001983937989237611,0.6871286116927771,0.001983937989237611,1.045269546340818,0.001983937989237611,0.4494962531743794
0.002003937989237611,0.4963442253673305,0.002003937989237611,0.7044319624827035,0.002003937989237611,1.09063404834453,0.002003937989237611,0.4501237029574119
0.002023937989237611,0.4994318904043826,0.002023937989237611,0.7218801802911224,0.002023937989237611,1.13216882858298,0.002023937989237611,0.4507492018709094
0.002043937989237611,0.5024744862497605,0.002043937989237611,0.7391787638952317,0.002043937989237611,1.16855607929608,0.002043937989237611,0.4513628854233513
0.002063937989237611,0.5054228156071883,0.002063937989237611,0.7560284477792258,0.002063937989237611,1.198719399076674,0.002063937989237611,0.4519550754585185
0.002083937989237611,0.5082286436082677,0.002083937989237611,0.7721319219320993,0.002083937989237611,1.222332333135627,0.002083937989237611,0.4525164327857995
0.002103937989237611,0.5108456169360557,0.002103937989237611,0.7872019318620744,0.002103937989237611,1.240088392437761,0.002103937989237611,0.4530381044648044
0.002123937989237611,0.5132300823057137,0.002123937989237611,0.8009676943708318,0.002123937989237611,1.253131211802111,0.002123937989237611,0.4535118634215236
0.002143937989237611,0.5153419642549585,0.002143937989237611,0.813181907616116,0.002143937989237611,1.262590629023486,0.002143937989237611,0.4539302381941999
0.002163937989237611,0.5171454991455802,0.002163937989237611,0.8236254458661165,0.002163937989237611,1.269357448479353,0.002163937989237611,0.4542866307627431
0.002183937989237611,0.5186099869430921,0.002183937989237611,0.8321122545761231,0.002183937989237611,1.274101401086662,0.002183937989237611,0.4545754206034488
0.002203937989237612,0.5197103599593385,0.002203937989237612,0.8384918510576175,0.002203937989237612,1.277275583012268,0.002203937989237612,0.4547920533280144
0.002223937989237612,0.5204277344407272,0.002223937989237612,0.8426521499078704,0.002223937989237612,1.279187762221221,0.002223937989237612,0.4549331125089632
0.002243937989237612,0.5207497496043818,0.002243937989237612,0.8445201938852426,0.002243937989237612,1.280005859118825,0.002243937989237612,0.4549963735587471
0.002263937989237612,0.5206708652969817,0.002263937989237612,0.8440635685685735,0.002263937989237612,1.279810688522248,0.002263937989237612,0.4549808388128207
0.002283937989237612,0.5201924306909123,0.002283937989237612,0.8412900756230692,0.002283937989237612,1.278577432434244,0.002283937989237612,0.4548867532634072
0.002303937989237612,0.5193227014049836,0.002303937989237612,0.8362482967160746,0.002303937989237612,1.276202191283486,0.002303937989237612,0.4547156006958249
0.002323937989237612,0.5180766256843032,0.002323937989237612,0.8290264739361113,0.002323937989237612,1.272457104026996,0.002323937989237612,0.4544700802883061
0.002343937989237612,0.5164755839723791,0.002343937989237612,0.819752158824963,0.002343937989237612,1.26699152054689,0.002343937989237612,0.4541540640443442
0.002363937989237612,0.5145469104921337,0.002363937989237612,0.8085899075206385,0.002363937989237612,1.25926392535304,0.002363937989237612,0.4537725357288854
0.002383937989237612,0.5123233875850896,0.002383937989237612,0.7957393752493016,0.002383937989237612,1.248531381336799,0.002383937989237612,0.4533315122713785
0.002403937989237612,0.509842548437778,0.002403937989237612,0.7814311086322218,0.002403937989237612,1.233795397216503,0.002403937989237612,0.452837948875203
0.002423937989237612,0.5071459845533571,0.002423937989237612,0.7659225039353709,0.002423937989237612,1.213893095539932,0.002423937989237612,0.452299629329957
0.002443937989237612,0.5042784982181829,0.002443937989237612,0.7494914064439425,0.002443937989237612,1.187762138566634,0.002443937989237612,0.4517250432564457
0.002463937989237612,0.5012872997689443,0.002463937989237612,0.7324300709618768,0.002463937989237612,1.155088171713653,0.002463937989237612,0.4511232522202893
