/Aout X,/Aout Y,/Bout X,/Bout Y,/Cout X,/Cout Y,/Vin X,/Vin Y
0,0.4957364671687201,0,0.7010178116878587,0,1.41192723119548,0,0.45
0.0001,0.4957364671687197,0.0001,0.7010178116878569,0.0001,1.411927228430783,0.0001,0.45
0.0002,0.4957364671687205,0.0002,0.7010178116878593,0.0002,1.411927228430541,0.0002,0.45
0.0003,0.4957364671779963,0.0003,0.7010178117364627,0.0003,1.411927228466713,0.0003,0.45
0.0004,0.4957364671494279,0.0004,0.701017811585964,0.0004,1.411927228352971,0.0004,0.45
0.0005,0.4957364671817361,0.0005,0.701017811749855,0.0005,1.411927228479634,0.0005,0.45
0.0006000000000000001,0.4957364671511494,0.0006000000000000001,0.7010178116048734,0.0006000000000000001,1.41192722836604,0.0006000000000000001,0.45
0.0007000000000000001,0.4957364671792291,0.0007000000000000001,0.7010178117255881,0.0007000000000000001,1.411927228460196,0.0007000000000000001,0.45
0.0008000000000000001,0.4957364671476921,0.0008000000000000001,0.7010178115975962,0.0008000000000000001,1.411927228360909,0.0008000000000000001,0.45
0.0009000000000000002,0.4957364671933437,0.0009000000000000002,0.7010178118047306,0.0009000000000000002,1.411927228521066,0.0009000000000000002,0.45
0.001,0.4957364671499471,0.001,0.7010178116065897,0.001,1.411927228366026,0.001,0.45
0.0011,0.495736467186142,0.0011,0.7010178117648689,0.0011,1.411927228491867,0.0011,0.45
0.0012,0.4957364671415,0.0012,0.7010178115625152,0.0012,1.411927228333089,0.0012,0.45
0.0013,0.4957364672041308,0.0013,0.7010178118562764,0.0013,1.411927228560215,0.0013,0.45
0.0014,0.4957364671345146,0.0014,0.701017811527465,0.0014,1.411927228307267,0.0014,0.45
0.0015,0.4957364672021267,0.0015,0.7010178118409603,0.0015,1.411927228549696,0.0015,0.45
0.001600000000000001,0.495736467139745,0.001600000000000001,0.7010178115641224,0.001600000000000001,1.411927228334275,0.001600000000000001,0.45
0.001700000000000001,0.4957364672037243,0.001700000000000001,0.7010178118428393,0.001700000000000001,1.411927228550451,0.001700000000000001,0.45
0.001800000000000001,0.4957364671437128,0.001800000000000001,0.7010178115922814,0.001800000000000001,1.411927228356138,0.001800000000000001,0.45
0.001900000000000001,0.4957364672040654,0.001900000000000001,0.7010178118451834,0.001900000000000001,1.411927228550458,0.001900000000000001,0.45
0.002,0.4957364671378813,0.002,0.7010178115557347,0.002,1.411927228330728,0.002,0.45
0.0021,0.4957364671889673,0.0021,0.7010178117636486,0.0021,1.411927228488182,0.0021,0.45
0.0022,0.4957364671511886,0.0022,0.7010178116258389,0.0022,1.411927228380611,0.0022,0.45
0.0023,0.4957364671919409,0.0023,0.7010178117980774,0.0023,1.41192722851606,0.0023,0.45
0.0024,0.4957364671549914,0.0024,0.7010178116263646,0.0024,1.411927228382807,0.0024,0.45
0.0025,0.4957364671882101,0.0025,0.7010178117859573,0.0025,1.411927228505438,0.0025,0.45
0.002599999999999999,0.4957364671643872,0.002599999999999999,0.7010178116772111,0.002599999999999999,1.411927228424629,0.002599999999999999,0.45
0.002699999999999999,0.4957364671689739,0.002699999999999999,0.7010178116653627,0.002699999999999999,1.411927228410647,0.002699999999999999,0.45
0.002799999999999999,0.4957364671621237,0.002799999999999999,0.7010178116769566,0.002799999999999999,1.411927228423133,0.002799999999999999,0.45
0.002899999999999999,0.4957364671737199,0.002899999999999999,0.7010178116865073,0.002899999999999999,1.411927228428471,0.002899999999999999,0.45
0.002999999999999999,0.4957364671601475,0.002999999999999999,0.7010178116841321,0.002999999999999999,1.411927228428415,0.002999999999999999,0.45
0.003099999999999999,0.4957364671701419,0.003099999999999999,0.701017811654771,0.003099999999999999,1.411927228403445,0.003099999999999999,0.45
0.003199999999999998,0.4957364671724717,0.003199999999999998,0.7010178117518477,0.003199999999999998,1.41192722848281,0.003199999999999998,0.45
0.003299999999999998,0.4957364671593818,0.003299999999999998,0.7010178116031158,0.003299999999999998,1.411927228362301,0.003299999999999998,0.45
0.003399999999999998,0.4957364671810405,0.003399999999999998,0.7010178117760972,0.003399999999999998,1.411927228502103,0.003399999999999998,0.45
0.003499999999999998,0.495736467168598,0.003499999999999998,0.7010178116734243,0.003499999999999998,1.411927228415353,0.003499999999999998,0.45
0.003599999999999998,0.4957364671707302,0.003599999999999998,0.7010178117116845,0.003599999999999998,1.411927228454459,0.003599999999999998,0.45
0.003699999999999998,0.4957364671592373,0.003699999999999998,0.7010178116214426,0.003699999999999998,1.411927228371726,0.003699999999999998,0.45
0.003799999999999997,0.4957364671805083,0.003799999999999997,0.7010178117629747,0.003799999999999997,1.411927228496221,0.003799999999999997,0.45
0.003899999999999997,0.4957364671549658,0.003899999999999997,0.7010178115902885,0.003899999999999997,1.411927228349524,0.003899999999999997,0.45
0.003999999999999997,0.495736467182592,0.003999999999999997,0.7010178117938428,0.003999999999999997,1.41192722851711,0.003999999999999997,0.45
0.004099999999999998,0.4957364671521617,0.004099999999999998,0.7010178115518318,0.004099999999999998,1.411927228322156,0.004099999999999998,0.45
0.004199999999999998,0.4957364671860103,0.004199999999999998,0.7010178118216792,0.004199999999999998,1.411927228536667,0.004199999999999998,0.45
0.004299999999999998,0.4957364671546013,0.004299999999999998,0.7010178115784214,0.004299999999999998,1.411927228344041,0.004299999999999998,0.45
0.004399999999999999,0.4957364671799493,0.004399999999999999,0.701017811775452,0.004399999999999999,1.411927228499977,0.004399999999999999,0.45
0.004499999999999999,0.4957364671702585,0.004499999999999999,0.7010178116637156,0.004499999999999999,1.411927228409225,0.004499999999999999,0.45
0.004599999999999999,0.4957364671629842,0.004599999999999999,0.7010178116912511,0.004599999999999999,1.411927228435511,0.004599999999999999,0.45
0.004699999999999999,0.495736467173066,0.004699999999999999,0.701017811680374,0.004699999999999999,1.411927228422008,0.004699999999999999,0.45
0.0048,0.4957364671636681,0.0048,0.7010178116847868,0.0048,1.411927228430951,0.0048,0.45
0.0049,0.4957364671693364,0.0049,0.7010178116538317,0.0049,1.411927228401597,0.0049,0.45
0.005,0.4957364671704146,0.005,0.7010178117258946,0.005,1.411927228461199,0.005,0.45
0.0051,0.4957364671588411,0.0051,0.7010178116142592,0.0051,1.411927228372949,0.0051,0.45
0.005200000000000001,0.4957364671795462,0.005200000000000001,0.7010178117662124,0.005200000000000001,1.411927228490763,0.005200000000000001,0.45
0.005300000000000001,0.4957364671516222,0.005300000000000001,0.7010178115797495,0.005300000000000001,1.411927228348233,0.005300000000000001,0.45
0.005400000000000001,0.495736467181651,0.005400000000000001,0.7010178117772446,0.005400000000000001,1.41192722849896,0.005400000000000001,0.45
0.005500000000000001,0.4957364671550035,0.005500000000000001,0.7010178116008176,0.005500000000000001,1.411927228362066,0.005500000000000001,0.45
0.005600000000000002,0.495736467193043,0.005600000000000002,0.7010178118333907,0.005600000000000002,1.411927228543071,0.005600000000000002,0.45
0.005700000000000002,0.4957364671265534,0.005700000000000002,0.7010178114468244,0.005700000000000002,1.411927228247685,0.005700000000000002,0.45
0.005800000000000002,0.4957364672126941,0.005800000000000002,0.7010178119404002,0.005800000000000002,1.411927228623657,0.005800000000000002,0.45
0.005900000000000002,0.495736467125986,0.005900000000000002,0.7010178114356728,0.005900000000000002,1.411927228236563,0.005900000000000002,0.45
0.006000000000000003,0.495736467204246,0.006000000000000003,0.7010178118933382,0.006000000000000003,1.411927228588468,0.006000000000000003,0.45
0.006100000000000003,0.4957364671385883,0.006100000000000003,0.7010178115147365,0.006100000000000003,1.411927228296923,0.006100000000000003,0.45
0.006200000000000003,0.4957364672018421,0.006200000000000003,0.7010178118809784,0.006200000000000003,1.411927228580107,0.006200000000000003,0.45
0.006300000000000004,0.4957364671205934,0.006300000000000004,0.701017811402008,0.006300000000000004,1.411927228210545,0.006300000000000004,0.45
0.006400000000000004,0.4957364672126255,0.006400000000000004,0.7010178119620069,0.006400000000000004,1.411927228642622,0.006400000000000004,0.45
0.006500000000000004,0.4957364671169583,0.006500000000000004,0.7010178113725924,0.006500000000000004,1.411927228187405,0.006500000000000004,0.45
0.006600000000000004,0.4957364672116008,0.006600000000000004,0.7010178119452266,0.006600000000000004,1.411927228631309,0.006600000000000004,0.45
0.006700000000000005,0.4957364671277227,0.006700000000000005,0.701017811440927,0.006700000000000005,1.411927228238417,0.006700000000000005,0.45
0.006800000000000005,0.4957364671960386,0.006800000000000005,0.7010178118675651,0.006800000000000005,1.411927228571559,0.006800000000000005,0.45
0.006900000000000005,0.4957364671481249,0.006900000000000005,0.7010178115444657,0.006900000000000005,1.411927228317703,0.006900000000000005,0.45
0.007000000000000005,0.4957364671909121,0.007000000000000005,0.7010178118451647,0.007000000000000005,1.411927228554475,0.007000000000000005,0.45
0.007100000000000006,0.4957364671390612,0.007100000000000006,0.7010178114931832,0.007100000000000006,1.411927228277352,0.007100000000000006,0.45
0.007200000000000006,0.4957364671882972,0.007200000000000006,0.7010178118162772,0.007200000000000006,1.41192722853386,0.007200000000000006,0.45
0.007300000000000006,0.4957364671520044,0.007300000000000006,0.7010178115883864,0.007300000000000006,1.411927228346824,0.007300000000000006,0.45
0.007400000000000006,0.4957364671862649,0.007400000000000006,0.7010178117911522,0.007400000000000006,1.411927228516228,0.007400000000000006,0.45
0.007500000000000007,0.4957364671445564,0.007500000000000007,0.7010178115510791,0.007500000000000007,1.411927228319745,0.007500000000000007,0.45
0.007600000000000007,0.4957364671936103,0.007600000000000007,0.7010178118292049,0.007600000000000007,1.411927228545362,0.007600000000000007,0.45
0.007700000000000007,0.4957364671409807,0.007700000000000007,0.7010178115204696,0.007700000000000007,1.411927228297833,0.007700000000000007,0.45
0.007800000000000007,0.4957364671936148,0.007800000000000007,0.7010178118342241,0.007800000000000007,1.411927228546109,0.007800000000000007,0.45
0.007900000000000008,0.495736467144712,0.007900000000000008,0.7010178115490199,0.007900000000000008,1.41192722832008,0.007900000000000008,0.45
0.008000000000000007,0.4957364671893825,0.008000000000000007,0.7010178118059345,0.008000000000000007,1.411927228523236,0.008000000000000007,0.45
0.008100000000000007,0.4957364671500787,0.008100000000000007,0.7010178115910189,0.008100000000000007,1.411927228354812,0.008100000000000007,0.45
0.008200000000000006,0.4957364671957574,0.008200000000000006,0.7010178118374297,0.008200000000000006,1.411927228546758,0.008200000000000006,0.45
0.008300000000000005,0.4957364671392571,0.008300000000000005,0.7010178115331963,0.008300000000000005,1.411927228309804,0.008300000000000005,0.45
0.008400000000000005,0.495736467195708,0.008400000000000005,0.7010178118170202,0.008400000000000005,1.411927228531406,0.008400000000000005,0.45
0.008500000000000004,0.4957364671418497,0.008500000000000004,0.7010178115612339,0.008500000000000004,1.411927228331998,0.008500000000000004,0.45
0.008600000000000003,0.4957364672054833,0.008600000000000003,0.7010178118766897,0.008600000000000003,1.411927228576284,0.008600000000000003,0.45
0.008700000000000003,0.4957364671313982,0.008700000000000003,0.701017811502506,0.008700000000000003,1.411927228287644,0.008700000000000003,0.45
0.008800000000000002,0.4957364672071888,0.008800000000000002,0.701017811890951,0.008800000000000002,1.411927228586046,0.008800000000000002,0.45
0.008900000000000002,0.4957364671240917,0.008900000000000002,0.70101781145903,0.008900000000000002,1.411927228255431,0.008900000000000002,0.45
0.009000000000000001,0.4957364672181,0.009000000000000001,0.7010178119451174,0.009000000000000001,1.411927228627203,0.009000000000000001,0.45
0.0091,0.4957364671142584,0.0091,0.7010178113973754,0.0091,1.411927228208511,0.0091,0.45
0.0092,0.495736467222256,0.0092,0.7010178119825929,0.0092,1.411927228654168,0.0092,0.45
0.009299999999999999,0.4957364671195454,0.009299999999999999,0.701017811419865,0.009299999999999999,1.411927228226005,0.009299999999999999,0.45
0.009399999999999999,0.4957364672139677,0.009399999999999999,0.701017811940093,0.009399999999999999,1.411927228621846,0.009399999999999999,0.45
0.009499999999999998,0.4957364671314613,0.009499999999999998,0.701017811487711,0.009499999999999998,1.411927228280792,0.009499999999999998,0.45
0.009599999999999997,0.4957364672095317,0.009599999999999997,0.7010178119147734,0.009599999999999997,1.411927228600108,0.009599999999999997,0.45
0.009699999999999997,0.4957364671240564,0.009699999999999997,0.7010178114206908,0.009699999999999997,1.411927228229257,0.009699999999999997,0.45
0.009799999999999996,0.4957364672065266,0.009799999999999996,0.7010178119283238,0.009799999999999996,1.411927228612385,0.009799999999999996,0.45
0.009899999999999996,0.4957364671271791,0.009899999999999996,0.7010178114330609,0.009899999999999996,1.411927228236411,0.009899999999999996,0.45
0.009999999999999995,0.4957364672234651,0.009999999999999995,0.7010178120256887,0.009999999999999995,1.411927228687357,0.009999999999999995,0.45
0.01009999999999999,0.4957364671057329,0.01009999999999999,0.7010178113033156,0.01009999999999999,1.411927228138103,0.01009999999999999,0.45
0.01019999999999999,0.4957364672386937,0.01019999999999999,0.7010178121206206,0.01019999999999999,1.41192722875744,0.01019999999999999,0.45
0.01029999999999999,0.4957364671075642,0.01029999999999999,0.7010178113120125,0.01029999999999999,1.411927228146867,0.01029999999999999,0.45
0.01039999999999999,0.4957364672267738,0.01039999999999999,0.7010178120466983,0.01039999999999999,1.411927228701892,0.01039999999999999,0.45
0.01049999999999999,0.4957364671117228,0.01049999999999999,0.7010178113327279,0.01049999999999999,1.411927228163056,0.01049999999999999,0.45
0.01059999999999999,0.4957364672271893,0.01059999999999999,0.701017812058209,0.01059999999999999,1.411927228709411,0.01059999999999999,0.45
0.01069999999999999,0.4957364671236129,0.01069999999999999,0.7010178113887995,0.01069999999999999,1.411927228203538,0.01069999999999999,0.45
0.01079999999999999,0.4957364672207356,0.01079999999999999,0.7010178120119119,0.01079999999999999,1.411927228676928,0.01079999999999999,0.45
0.01089999999999999,0.4957364671096755,0.01089999999999999,0.7010178113302978,0.01089999999999999,1.41192722815949,0.01089999999999999,0.45
0.01099999999999999,0.4957364672299467,0.01099999999999999,0.7010178120468848,0.01099999999999999,1.411927228701075,0.01099999999999999,0.45
0.01109999999999999,0.4957364671141285,0.01109999999999999,0.701017811365936,0.01109999999999999,1.411927228187061,0.01109999999999999,0.45
0.01119999999999999,0.4957364672194143,0.01119999999999999,0.701017811994342,0.01119999999999999,1.411927228663026,0.01119999999999999,0.45
0.01129999999999999,0.4957364671078789,0.01129999999999999,0.7010178113258823,0.01129999999999999,1.411927228156531,0.01129999999999999,0.45
0.01139999999999999,0.4957364672261861,0.01139999999999999,0.7010178120372239,0.01139999999999999,1.411927228695051,0.01139999999999999,0.45
0.01149999999999999,0.4957364671249095,0.01149999999999999,0.701017811412554,0.01149999999999999,1.411927228221323,0.01149999999999999,0.45
0.01159999999999999,0.495736467197804,0.01159999999999999,0.7010178118760999,0.01159999999999999,1.411927228571914,0.01159999999999999,0.45
0.01169999999999998,0.4957364671266436,0.01169999999999998,0.7010178114260589,0.01169999999999998,1.41192722823504,0.01169999999999998,0.45
0.01179999999999998,0.4957364672050582,0.01179999999999998,0.7010178119225586,0.01179999999999998,1.411927228606648,0.01179999999999998,0.45
0.01189999999999998,0.4957364671211754,0.01189999999999998,0.7010178113921091,0.01189999999999998,1.411927228208147,0.01189999999999998,0.45
0.01199999999999998,0.4957364672171485,0.01199999999999998,0.7010178119853899,0.01199999999999998,1.41192722865401,0.01199999999999998,0.45
0.01209999999999998,0.4957364671142902,0.01209999999999998,0.7010178113636103,0.01209999999999998,1.411927228188066,0.01209999999999998,0.45
0.01219999999999998,0.4957364672241403,0.01219999999999998,0.7010178120258252,0.01219999999999998,1.411927228683045,0.01219999999999998,0.45
0.01229999999999998,0.4957364671074229,0.01229999999999998,0.7010178113083114,0.01229999999999998,1.411927228147262,0.01229999999999998,0.45
0.01239999999999998,0.4957364672289716,0.01239999999999998,0.7010178120603396,0.01239999999999998,1.411927228707141,0.01239999999999998,0.45
0.01249999999999998,0.4957364670925732,0.01249999999999998,0.7010178112213357,0.01249999999999998,1.411927228083554,0.01249999999999998,0.45
0.01259999999999998,0.4957364672540829,0.01259999999999998,0.7010178121999997,0.01259999999999998,1.411927228812748,0.01259999999999998,0.45
0.01269999999999998,0.4957364670791218,0.01269999999999998,0.7010178111676233,0.01269999999999998,1.411927228043845,0.01269999999999998,0.45
0.01279999999999998,0.4957364672518432,0.01279999999999998,0.7010178121689774,0.01279999999999998,1.411927228787708,0.01279999999999998,0.45
0.01289999999999998,0.4957364670871522,0.01289999999999998,0.701017811206926,0.01289999999999998,1.411927228075475,0.01289999999999998,0.45
0.01299999999999998,0.4957364672645548,0.01299999999999998,0.7010178122460105,0.01299999999999998,1.411927228844222,0.01299999999999998,0.45
0.01309999999999998,0.4957364670850907,0.01309999999999998,0.7010178111917497,0.01309999999999998,1.411927228064396,0.01309999999999998,0.45
0.01319999999999998,0.4957364672511309,0.01319999999999998,0.7010178121771726,0.01319999999999998,1.41192722879239,0.01319999999999998,0.45
0.01329999999999998,0.4957364670760155,0.01329999999999998,0.7010178111450588,0.01329999999999998,1.411927228027916,0.01329999999999998,0.45
0.01339999999999997,0.4957364672494946,0.01339999999999997,0.7010178121635741,0.01339999999999997,1.411927228783053,0.01339999999999997,0.45
0.01349999999999997,0.4957364670859832,0.01349999999999997,0.7010178112026647,0.01349999999999997,1.411927228072038,0.01349999999999997,0.45
0.01359999999999997,0.4957364672413324,0.01359999999999997,0.7010178121164796,0.01359999999999997,1.411927228744954,0.01359999999999997,0.45
0.01369999999999997,0.4957364671041475,0.01369999999999997,0.7010178113027772,0.01369999999999997,1.411927228147246,0.01369999999999997,0.45
0.01379999999999997,0.4957364672368265,0.01379999999999997,0.701017812096037,0.01379999999999997,1.411927228729478,0.01379999999999997,0.45
0.01389999999999997,0.4957364670971692,0.01389999999999997,0.7010178112688583,0.01389999999999997,1.411927228122803,0.01389999999999997,0.45
0.01399999999999997,0.4957364672330488,0.01399999999999997,0.7010178120602893,0.01399999999999997,1.411927228703115,0.01399999999999997,0.45
0.01409999999999997,0.4957364671036957,0.01409999999999997,0.7010178113188957,0.01409999999999997,1.411927228161358,0.01409999999999997,0.45
0.01419999999999997,0.4957364672376364,0.01419999999999997,0.7010178120744623,0.01419999999999997,1.411927228710545,0.01419999999999997,0.45
0.01429999999999997,0.4957364670955349,0.01429999999999997,0.7010178112826293,0.01429999999999997,1.41192722813658,0.01429999999999997,0.45
0.01439999999999997,0.4957364672501561,0.01439999999999997,0.7010178121330345,0.01439999999999997,1.411927228753699,0.01439999999999997,0.45
0.01449999999999997,0.495736467072934,0.01449999999999997,0.7010178111660428,0.01449999999999997,1.411927228048023,0.01449999999999997,0.45
0.01459999999999997,0.4957364672569839,0.01459999999999997,0.7010178121793399,0.01459999999999997,1.411927228789033,0.01459999999999997,0.45
0.01469999999999997,0.4957364670833991,0.01469999999999997,0.7010178112051847,0.01469999999999997,1.411927228078344,0.01469999999999997,0.45
