/Vin (R1=17500) X,/Vin (R1=17500) Y,/out0 (R1=17500) X,/out0 (R1=17500) Y,/out1 (R1=17500) X,/out1 (R1=17500) Y
-60,0.5,-60,0.06282357849025601,-60,0.06243222072010213
-58.6,0.5,-58.6,0.06305064097920093,-58.6,0.06264587369769158
-57.2,0.5,-57.2,0.06327349795828897,-57.2,0.06285910490826876
-55.8,0.5,-55.8,0.06349601594921982,-55.8,0.06307191453401709
-54.40000000000001,0.5,-54.40000000000001,0.06371819407446992,-54.40000000000001,0.06328430374706306
-53.00000000000001,0.5,-53.00000000000001,0.06394003143926154,-53.00000000000001,0.06349627371444072
-51.60000000000001,0.5,-51.60000000000001,0.06416152715396502,-51.60000000000001,0.06370782559956654
-50.20000000000001,0.5,-50.20000000000001,0.06438268033784351,-50.20000000000001,0.06391896056358695
-48.80000000000001,0.5,-48.80000000000001,0.06460349012254021,-48.80000000000001,0.06412967976661436
-47.40000000000001,0.5,-47.40000000000001,0.06482395565536227,-47.40000000000001,0.06433998436888094
-46.00000000000001,0.5,-46.00000000000001,0.06504407610230277,-46.00000000000001,0.06454987553177005
-44.60000000000002,0.5,-44.60000000000002,0.06526385065087234,-44.60000000000002,0.06475935441875705
-43.20000000000002,0.5,-43.20000000000002,0.06548327851267641,-43.20000000000002,0.06496842219626707
-41.80000000000002,0.5,-41.80000000000002,0.06570235892581784,-41.80000000000002,0.06517708003446315
-40.40000000000002,0.5,-40.40000000000002,0.06592109115707985,-40.40000000000002,0.06538532910792223
-39.00000000000002,0.5,-39.00000000000002,0.06613947450390192,-39.00000000000002,0.06559317059627687
-37.60000000000002,0.5,-37.60000000000002,0.06635750829619894,-37.60000000000002,0.06580060568475792
-36.20000000000002,0.5,-36.20000000000002,0.06657519189794958,-36.20000000000002,0.06600763556468861
-34.80000000000003,0.5,-34.80000000000003,0.06679252470867197,-34.80000000000003,0.06621426143391507
-33.40000000000003,0.5,-33.40000000000003,0.06700950616466038,-33.40000000000003,0.06642048449717265
-32.00000000000003,0.5,-32.00000000000003,0.06722613574011869,-32.00000000000003,0.06662630596640802
-30.60000000000003,0.5,-30.60000000000003,0.06744241294811609,-30.60000000000003,0.06683172706104572
-29.20000000000003,0.5,-29.20000000000003,0.06765833734138624,-29.20000000000003,0.06703674900821288
-27.80000000000003,0.5,-27.80000000000003,0.06787390851300762,-27.80000000000003,0.06724137304290206
-26.40000000000003,0.5,-26.40000000000003,0.06808912609693209,-26.40000000000003,0.06744560040812524
-25.00000000000004,0.5,-25.00000000000004,0.06830398976840506,-25.00000000000004,0.06764943235499725
-23.60000000000004,0.5,-23.60000000000004,0.06852007820782366,-23.60000000000004,0.06785438720358296
-22.20000000000004,0.5,-22.20000000000004,0.06873626531287547,-22.20000000000004,0.0680593831216237
-20.80000000000004,0.5,-20.80000000000004,0.06895210597510366,-20.80000000000004,0.06826399376554759
-19.40000000000004,0.5,-19.40000000000004,0.06916760002892812,-19.40000000000004,0.06846822042621407
-18.00000000000004,0.5,-18.00000000000004,0.0693827474020088,-18.00000000000004,0.06867206445347497
-16.60000000000004,0.5,-16.60000000000004,0.06959754806056637,-16.60000000000004,0.06887552720284944
-15.20000000000004,0.5,-15.20000000000004,0.06981200201295712,-15.20000000000004,0.06907861003910262
-13.80000000000004,0.5,-13.80000000000004,0.07002610930929194,-13.80000000000004,0.06928131433604647
-12.40000000000004,0.5,-12.40000000000004,0.07023987004093639,-12.40000000000004,0.06948364147632688
-11.00000000000004,0.5,-11.00000000000004,0.07045328433996635,-11.00000000000004,0.06968559285118944
-9.600000000000042,0.5,-9.600000000000042,0.0706663523785598,-9.600000000000042,0.0698871698602303
-8.200000000000042,0.5,-8.200000000000042,0.07087907436833295,-8.200000000000042,0.07008837391113436
-6.800000000000042,0.5,-6.800000000000042,0.07109145055960471,-6.800000000000042,0.07028920641938401
-5.400000000000041,0.5,-5.400000000000041,0.07130348124064968,-5.400000000000041,0.07048966880797865
-4.000000000000041,0.5,-4.000000000000041,0.07151516673686868,-4.000000000000041,0.07068976250711419
-2.600000000000041,0.5,-2.600000000000041,0.07172650740993614,-2.600000000000041,0.07088948895388826
-1.200000000000041,0.5,-1.200000000000041,0.07193750365692447,-1.200000000000041,0.07108884959195007
0.1999999999999589,0.5,0.1999999999999589,0.07214815590937057,0.1999999999999589,0.07128784587118325
1.599999999999959,0.5,1.599999999999959,0.07235846463233879,1.599999999999959,0.07148647924736638
2.999999999999959,0.5,2.999999999999959,0.07256843032343752,2.999999999999959,0.07168475118180903
4.399999999999959,0.5,4.399999999999959,0.07277805351183199,4.399999999999959,0.07188266314101073
5.799999999999958,0.5,5.799999999999958,0.07298733475722993,5.799999999999958,0.07208021659629717
7.199999999999958,0.5,7.199999999999958,0.0731962746488475,7.199999999999958,0.07227741302346097
8.599999999999959,0.5,8.599999999999959,0.07340487380437745,8.599999999999959,0.07247425390238225
9.999999999999959,0.5,9.999999999999959,0.07361313286893566,9.999999999999959,0.07267074071668155
11.39999999999996,0.5,11.39999999999996,0.07382105251399625,11.39999999999996,0.07286687495332668
12.79999999999996,0.5,12.79999999999996,0.07402863343634138,12.79999999999996,0.07306265810227726
14.19999999999996,0.5,14.19999999999996,0.0742358763569813,14.19999999999996,0.07325809165609354
15.59999999999996,0.5,15.59999999999996,0.07444278202014189,15.59999999999996,0.07345317710957752
16.99999999999996,0.5,16.99999999999996,0.07464935119198503,16.99999999999996,0.07364791595938654
18.39999999999996,0.5,18.39999999999996,0.07485558465996558,18.39999999999996,0.07384230970367632
19.79999999999996,0.5,19.79999999999996,0.07506148323135851,19.79999999999996,0.07403635984170626
21.19999999999996,0.5,21.19999999999996,0.07526704773241608,21.19999999999996,0.07423006787348939
22.59999999999996,0.5,22.59999999999996,0.07547227900728194,22.59999999999996,0.07442343529941066
23.99999999999995,0.5,23.99999999999995,0.07567717791696611,23.99999999999995,0.07461646361986177
25.39999999999995,0.5,25.39999999999995,0.07588276706997382,25.39999999999995,0.07481009955423586
26.79999999999995,0.5,26.79999999999995,0.07609058918926936,26.79999999999995,0.07500576929996775
28.19999999999995,0.5,28.19999999999995,0.07629809600087616,28.19999999999995,0.07520111517309953
29.59999999999995,0.5,29.59999999999995,0.07650528845330869,29.59999999999995,0.07539613873872154
30.99999999999995,0.5,30.99999999999995,0.07671216750518799,30.99999999999995,0.07559084155877835
32.39999999999995,0.5,32.39999999999995,0.07691873412669999,32.39999999999995,0.07578522519325571
33.79999999999995,0.5,33.79999999999995,0.07712498929836582,33.79999999999995,0.07597929119974396
35.19999999999995,0.5,35.19999999999995,0.0773309340100608,35.19999999999995,0.07617304113300458
36.59999999999994,0.5,36.59999999999994,0.07753656926001716,36.59999999999994,0.07636647654455266
37.99999999999994,0.5,37.99999999999994,0.07774189605389201,37.99999999999994,0.07655959898223481
39.39999999999994,0.5,39.39999999999994,0.07794691540380957,39.39999999999994,0.07675240998983737
40.79999999999994,0.5,40.79999999999994,0.07815162832746909,40.79999999999994,0.07694491110666639
42.19999999999994,0.5,42.19999999999994,0.07835603584718648,42.19999999999994,0.07713710386716861
43.59999999999994,0.5,43.59999999999994,0.07856013898911475,43.59999999999994,0.07732898980053349
44.99999999999994,0.5,44.99999999999994,0.07876393878233277,44.99999999999994,0.07752057043032679
46.39999999999993,0.5,46.39999999999993,0.07896743625800581,46.39999999999993,0.07771184727410491
47.79999999999993,0.5,47.79999999999993,0.07917063244858988,47.79999999999993,0.07790282184306231
49.19999999999993,0.5,49.19999999999993,0.07937352838704069,49.19999999999993,0.07809349564166113
50.59999999999993,0.5,50.59999999999993,0.07957612510603851,50.59999999999993,0.0782838701672932
51.99999999999993,0.5,51.99999999999993,0.07977842363724175,51.99999999999993,0.0784739469099211
53.39999999999993,0.5,53.39999999999993,0.07998042501056066,53.39999999999993,0.07866372735175987
54.79999999999993,0.5,54.79999999999993,0.08018213025343966,54.79999999999993,0.07885321296692133
56.19999999999992,0.5,56.19999999999992,0.08038354039017627,56.19999999999992,0.0790424052211124
57.59999999999992,0.5,57.59999999999992,0.08058465644125253,57.59999999999992,0.07923130557130166
58.99999999999992,0.5,58.99999999999992,0.08078547942268258,58.99999999999992,0.0794199154654068
60.39999999999992,0.5,60.39999999999992,0.08098601034538144,60.39999999999992,0.07960823634200778
61.79999999999992,0.5,61.79999999999992,0.08118625021454935,61.79999999999992,0.07979626962996531
63.19999999999992,0.5,63.19999999999992,0.08138620002909076,63.19999999999992,0.07998401674826924
64.59999999999992,0.5,64.59999999999992,0.08158586078100874,64.59999999999992,0.08017147910559547
65.99999999999993,0.5,65.99999999999993,0.08178523345486827,65.99999999999993,0.0803586581000916
67.39999999999993,0.5,67.39999999999993,0.08198431902723242,67.39999999999993,0.08054555511907027
68.79999999999994,0.5,68.79999999999994,0.08218311846613201,68.79999999999994,0.08073217153872822
70.19999999999995,0.5,70.19999999999995,0.08238163273055345,70.19999999999995,0.08091850872385586
71.59999999999995,0.5,71.59999999999995,0.08257986276992024,71.59999999999995,0.08110456802756191
72.99999999999996,0.5,72.99999999999996,0.08277780952359733,72.99999999999996,0.08129035079097988
74.39999999999996,0.5,74.39999999999996,0.08297547392041024,74.39999999999996,0.08147585834299628
75.79999999999997,0.5,75.79999999999997,0.08317285687816545,75.79999999999997,0.0816610919999563
77.19999999999997,0.5,77.19999999999997,0.08336995930317127,77.19999999999997,0.08184605306538784
78.59999999999998,0.5,78.59999999999998,0.08356678208978473,78.59999999999998,0.08203074282969633
79.99999999999999,0.5,79.99999999999999,0.08376332611994411,79.99999999999999,0.0822151625698872
81.39999999999999,0.5,81.39999999999999,0.08395959226270593,81.39999999999999,0.08239931354924442
82.8,0.5,82.8,0.08415558137379688,82.8,0.08258319701704835
84.2,0.5,84.2,0.0843512942951567,84.2,0.08276681420822878
85.60000000000001,0.5,85.60000000000001,0.08454673185446522,85.60000000000001,0.08295016634306386
87.00000000000001,0.5,87.00000000000001,0.08474189486468144,87.00000000000001,0.08313325462682937
88.40000000000002,0.5,88.40000000000002,0.08493678412357443,88.40000000000002,0.08331608024945014
89.80000000000003,0.5,89.80000000000003,0.08513140041323605,89.80000000000003,0.0834986443851306
91.20000000000003,0.5,91.20000000000003,0.08532574449957907,91.20000000000003,0.08368094819196874
92.60000000000004,0.5,92.60000000000004,0.08551981713182863,92.60000000000004,0.0838629928115556
94.00000000000004,0.5,94.00000000000004,0.08571361904199545,94.00000000000004,0.08404477936853937
95.40000000000005,0.5,95.40000000000005,0.08590715094431563,95.40000000000005,0.08422630897018961
96.80000000000005,0.5,96.80000000000005,0.08610041353468101,96.80000000000005,0.0844075827058948
98.20000000000006,0.5,98.20000000000006,0.08629340749002626,98.20000000000006,0.08458860164666725
99.60000000000007,0.5,99.60000000000007,0.08648613346769563,99.60000000000007,0.08476936684459178
101.0000000000001,0.5,101.0000000000001,0.08667859210475913,101.0000000000001,0.08494987933224891
102.4000000000001,0.5,102.4000000000001,0.08687078401730663,102.4000000000001,0.08513014012207962
103.8000000000001,0.5,103.8000000000001,0.08706270979967726,103.8000000000001,0.08531015020572545
105.2000000000001,0.5,105.2000000000001,0.08725437002364561,105.2000000000001,0.08548991055330689
106.6000000000001,0.5,106.6000000000001,0.08744576523755111,106.6000000000001,0.08566942211265013
108.0000000000001,0.5,108.0000000000001,0.08763689596537069,108.0000000000001,0.08584868580844758
109.4000000000001,0.5,109.4000000000001,0.08782776270571224,109.4000000000001,0.08602770254137072
110.8000000000001,0.5,110.8000000000001,0.08801836593073592,110.8000000000001,0.08620647318708717
112.2000000000001,0.5,112.2000000000001,0.08820870608500163,112.2000000000001,0.08638499859522798
113.6000000000001,0.5,113.6000000000001,0.08839878358421963,113.6000000000001,0.08656327958825458
115.0000000000001,0.5,115.0000000000001,0.08858859881390584,115.0000000000001,0.08674131696023421
116.4000000000001,0.5,116.4000000000001,0.0887781521279333,116.4000000000001,0.08691911147553272
117.8000000000001,0.5,117.8000000000001,0.0889674438469658,117.8000000000001,0.08709666386738787
119.2000000000001,0.5,119.2000000000001,0.08915647425677882,119.2000000000001,0.08727397483636509
120.6000000000002,0.5,120.6000000000002,0.08934524360642959,120.6000000000002,0.08745104504871461
122.0000000000002,0.5,122.0000000000002,0.08953375210630811,122.0000000000002,0.08762787513457274
123.4000000000002,0.5,123.4000000000002,0.08972199992601312,123.4000000000002,0.08780446568602489
124.8000000000002,0.5,124.8000000000002,0.08990998719207216,124.8000000000002,0.08798081725502532
126.2000000000002,0.5,126.2000000000002,0.09009771398549155,126.2000000000002,0.0881569303511472
127.6000000000002,0.5,127.6000000000002,0.09028518033911674,127.6000000000002,0.08833280543915882
129.0000000000002,0.5,129.0000000000002,0.09047238623477311,129.0000000000002,0.08850844293641348
130.4000000000002,0.5,130.4000000000002,0.09065933160022827,130.4000000000002,0.08868384321003872
131.8000000000002,0.5,131.8000000000002,0.09084601630589909,131.8000000000002,0.08885900657391214
133.2000000000002,0.5,133.2000000000002,0.09103244016134211,133.2000000000002,0.08903393328541843
134.6000000000002,0.5,134.6000000000002,0.09121860291147128,134.6000000000002,0.08920862354195865
136.0000000000002,0.5,136.0000000000002,0.09140450423252999,136.0000000000002,0.08938307747720517
137.4000000000002,0.5,137.4000000000002,0.09159014372776894,137.4000000000002,0.08955729515709963
138.8000000000002,0.5,138.8000000000002,0.09177552092285249,138.8000000000002,0.08973127657554977
140.2000000000002,0.5,140.2000000000002,0.09196063526094279,140.2000000000002,0.08990502164984691
141.6000000000002,0.5,141.6000000000002,0.09214548609747636,141.6000000000002,0.09007853021575814
143.0000000000002,0.5,143.0000000000002,0.09233007269462158,143.0000000000002,0.09025180202229176
144.4000000000002,0.5,144.4000000000002,0.09251439421538377,144.4000000000002,0.09042483672612787
145.8000000000002,0.5,145.8000000000002,0.0926984497173878,145.8000000000002,0.09059763388567783
147.2000000000002,0.5,147.2000000000002,0.09288223814628321,147.2000000000002,0.09077019295479427
148.6000000000003,0.5,148.6000000000003,0.09306575832881242,148.6000000000003,0.09094251327606535
150,0.5,150,0.09324900896550077,150,0.09111459407374431
