/Vin (R1=17500) X,/Vin (R1=17500) Y,/out0 (R1=17500) X,/out0 (R1=17500) Y,/out1 (R1=17500) X,/out1 (R1=17500) Y
0,0.5,0,0.07612012407080371,0,0.07503369590629051
2e-05,0.5,2e-05,0.07612025258642235,2e-05,0.07503369590693187
4e-05,0.5,4e-05,0.07612025259665271,4e-05,0.07503369590693779
6.000000000000001e-05,0.5,6.000000000000001e-05,0.07612025259680968,6.000000000000001e-05,0.07503369590692104
8.000000000000001e-05,0.5,8.000000000000001e-05,0.07612025259680646,8.000000000000001e-05,0.07503369590699475
0.0001,0.5,0.0001,0.07612025259675895,0.0001,0.07503369590692475
0.00012,0.5,0.00012,0.07612025259680161,0.00012,0.07503369590693616
0.00014,0.5,0.00014,0.07612025259679286,0.00014,0.07503369590695934
0.00016,0.5,0.00016,0.07612025259680585,0.00016,0.07503369590685668
0.00018,0.5,0.00018,0.07612025259679045,0.00018,0.07503369590704803
0.0002,0.5,0.0002,0.0761202525968797,0.0002,0.07503369590683182
0.00022,0.5,0.00022,0.07612025259671432,0.00022,0.07503369590706702
0.00024,0.5,0.00024,0.07612025259682842,0.00024,0.07503369590690939
0.00026,0.5,0.00026,0.07612025259674195,0.00026,0.07503369590695283
0.00028,0.5,0.00028,0.07612025259686939,0.00028,0.07503369590687888
0.0003,0.5,0.0003,0.0761202525966139,0.0003,0.07503369590699911
0.00032,0.5,0.00032,0.07612025259683207,0.00032,0.07503369590689643
0.00034,0.5,0.00034,0.07612025259673173,0.00034,0.07503369590696179
0.00036,0.5,0.00036,0.07612025259695686,0.00036,0.07503369590692319
0.00038,0.5,0.00038,0.07612025259666519,0.00038,0.07503369590694846
0.0004,0.5,0.0004,0.0761202525969108,0.0004,0.07503369590684883
0.00042,0.5,0.00042,0.07612025259666694,0.00042,0.07503369590692287
0.00044,0.5,0.00044,0.07612025259690679,0.00044,0.07503369590694423
0.00046,0.5,0.00046,0.07612025259667358,0.00046,0.07503369590682925
0.00048,0.5,0.00048,0.07612025259688183,0.00048,0.0750336959069683
0.0005,0.5,0.0005,0.07612025259668309,0.0005,0.0750336959069159
0.0005200000000000001,0.5,0.0005200000000000001,0.07612025259688855,0.0005200000000000001,0.07503369590689438
0.0005400000000000001,0.5,0.0005400000000000001,0.07612025259654892,0.0005400000000000001,0.07503369590699883
0.0005600000000000002,0.5,0.0005600000000000002,0.07612025259703843,0.0005600000000000002,0.07503369590684045
0.0005800000000000002,0.5,0.0005800000000000002,0.07612025259650752,0.0005800000000000002,0.07503369590704716
0.0006000000000000003,0.5,0.0006000000000000003,0.07612025259713674,0.0006000000000000003,0.07503369590678868
0.0006200000000000003,0.5,0.0006200000000000003,0.07612025259641379,0.0006200000000000003,0.07503369590699328
0.0006400000000000004,0.5,0.0006400000000000004,0.07612025259728672,0.0006400000000000004,0.07503369590684063
0.0006600000000000004,0.5,0.0006600000000000004,0.07612025259627085,0.0006600000000000004,0.07503369590700448
0.0006800000000000005,0.5,0.0006800000000000005,0.07612025259730973,0.0006800000000000005,0.07503369590682879
0.0007000000000000005,0.5,0.0007000000000000005,0.07612025259626698,0.0007000000000000005,0.07503369590706439
0.0007200000000000006,0.5,0.0007200000000000006,0.07612025259731675,0.0007200000000000006,0.07503369590680714
0.0007400000000000006,0.5,0.0007400000000000006,0.07612025259625153,0.0007400000000000006,0.07503369590706163
0.0007600000000000007,0.5,0.0007600000000000007,0.07612025259729024,0.0007600000000000007,0.07503369590677041
0.0007800000000000007,0.5,0.0007800000000000007,0.07612025259632579,0.0007800000000000007,0.07503369590704836
0.0008000000000000008,0.5,0.0008000000000000008,0.07612025259735349,0.0008000000000000008,0.07503369590685824
0.0008200000000000008,0.5,0.0008200000000000008,0.07612025259622866,0.0008200000000000008,0.07503369590692646
0.0008400000000000009,0.5,0.0008400000000000009,0.07612025259737051,0.0008400000000000009,0.07503369590697966
0.000860000000000001,0.5,0.000860000000000001,0.07612025259621567,0.000860000000000001,0.07503369590689447
0.000880000000000001,0.5,0.000880000000000001,0.07612025259737766,0.000880000000000001,0.07503369590704459
0.0009000000000000011,0.5,0.0009000000000000011,0.07612025259625439,0.0009000000000000011,0.07503369590695433
0.0009200000000000011,0.5,0.0009200000000000011,0.07612025259735258,0.0009200000000000011,0.07503369590692045
0.0009400000000000012,0.5,0.0009400000000000012,0.07612025259628125,0.0009400000000000012,0.07503369590692828
0.0009600000000000012,0.5,0.0009600000000000012,0.07612025259741685,0.0009600000000000012,0.0750336959069972
0.0009800000000000013,0.5,0.0009800000000000013,0.07612025259620907,0.0009800000000000013,0.07503369590686855
0.001000000000000001,0.5,0.001000000000000001,0.07612025259736303,0.001000000000000001,0.07503369590691697
0.001020000000000001,0.5,0.001020000000000001,0.07612025259624874,0.001020000000000001,0.07503369590691591
0.001040000000000001,0.5,0.001040000000000001,0.07612025259720381,0.001040000000000001,0.07503369590685909
0.001060000000000001,0.5,0.001060000000000001,0.0761202525964176,0.001060000000000001,0.075033695907108
0.001080000000000002,0.5,0.001080000000000002,0.07612025259714439,0.001080000000000002,0.0750336959067724
0.001100000000000002,0.5,0.001100000000000002,0.07612025259645541,0.001100000000000002,0.07503369590710406
0.001120000000000002,0.5,0.001120000000000002,0.07612025259712923,0.001120000000000002,0.07503369590671037
0.001140000000000002,0.5,0.001140000000000002,0.07612025259644099,0.001140000000000002,0.07503369590717568
0.001160000000000002,0.5,0.001160000000000002,0.07612025259716587,0.001160000000000002,0.07503369590662962
0.001180000000000002,0.5,0.001180000000000002,0.07612025259656605,0.001180000000000002,0.07503369590721012
0.001200000000000002,0.5,0.001200000000000002,0.07612025259694272,0.001200000000000002,0.07503369590658028
0.001220000000000002,0.5,0.001220000000000002,0.07612025259661025,0.001220000000000002,0.07503369590730204
0.001240000000000002,0.5,0.001240000000000002,0.07612025259699567,0.001240000000000002,0.07503369590656295
0.001260000000000002,0.5,0.001260000000000002,0.07612025259659118,0.001260000000000002,0.07503369590742602
0.001280000000000002,0.5,0.001280000000000002,0.07612025259697518,0.001280000000000002,0.07503369590649617
0.001300000000000002,0.5,0.001300000000000002,0.0761202525966357,0.001300000000000002,0.07503369590735788
0.001320000000000002,0.5,0.001320000000000002,0.07612025259685695,0.001320000000000002,0.07503369590649188
0.001340000000000002,0.5,0.001340000000000002,0.07612025259677818,0.001340000000000002,0.07503369590736492
0.001360000000000002,0.5,0.001360000000000002,0.07612025259683079,0.001360000000000002,0.07503369590655665
0.001380000000000002,0.5,0.001380000000000002,0.07612025259676466,0.001380000000000002,0.07503369590721019
0.001400000000000002,0.5,0.001400000000000002,0.07612025259680796,0.001400000000000002,0.0750336959066325
0.001420000000000002,0.5,0.001420000000000002,0.07612025259679413,0.001420000000000002,0.07503369590726727
0.001440000000000002,0.5,0.001440000000000002,0.07612025259680412,0.001440000000000002,0.07503369590660576
0.001460000000000003,0.5,0.001460000000000003,0.07612025259674733,0.001460000000000003,0.07503369590726336
0.001480000000000003,0.5,0.001480000000000003,0.07612025259688407,0.001480000000000003,0.07503369590659385
0.001500000000000003,0.5,0.001500000000000003,0.07612025259670421,0.001500000000000003,0.07503369590729699
0.001520000000000003,0.5,0.001520000000000003,0.07612025259698178,0.001520000000000003,0.07503369590663245
0.001540000000000003,0.5,0.001540000000000003,0.07612025259654384,0.001540000000000003,0.07503369590726944
0.001560000000000003,0.5,0.001560000000000003,0.07612025259690738,0.001560000000000003,0.07503369590652845
0.001580000000000003,0.5,0.001580000000000003,0.07612025259665228,0.001580000000000003,0.07503369590743547
0.001600000000000003,0.5,0.001600000000000003,0.07612025259704151,0.001600000000000003,0.07503369590649503
0.001620000000000003,0.5,0.001620000000000003,0.07612025259649455,0.001620000000000003,0.07503369590738818
0.001640000000000003,0.5,0.001640000000000003,0.07612025259698547,0.001640000000000003,0.07503369590645177
0.001660000000000003,0.5,0.001660000000000003,0.07612025259656786,0.001660000000000003,0.07503369590731186
0.001680000000000003,0.5,0.001680000000000003,0.07612025259689999,0.001680000000000003,0.07503369590666023
0.001700000000000003,0.5,0.001700000000000003,0.07612025259668501,0.001700000000000003,0.07503369590717664
0.001720000000000003,0.5,0.001720000000000003,0.07612025259694993,0.001720000000000003,0.07503369590675472
0.001740000000000003,0.5,0.001740000000000003,0.07612025259673223,0.001740000000000003,0.07503369590709953
0.001760000000000003,0.5,0.001760000000000003,0.07612025259690523,0.001760000000000003,0.07503369590684722
0.001780000000000003,0.5,0.001780000000000003,0.0761202525966919,0.001780000000000003,0.07503369590705511
0.001800000000000003,0.5,0.001800000000000003,0.07612025259692422,0.001800000000000003,0.07503369590681014
0.001820000000000003,0.5,0.001820000000000003,0.07612025259666989,0.001820000000000003,0.07503369590711161
0.001840000000000004,0.5,0.001840000000000004,0.076120252596941,0.001840000000000004,0.07503369590673785
0.001860000000000004,0.5,0.001860000000000004,0.07612025259664706,0.001860000000000004,0.07503369590713736
0.001880000000000004,0.5,0.001880000000000004,0.07612025259696827,0.001880000000000004,0.07503369590674956
0.001900000000000004,0.5,0.001900000000000004,0.07612025259661526,0.001900000000000004,0.07503369590714713
0.001920000000000004,0.5,0.001920000000000004,0.07612025259688772,0.001920000000000004,0.07503369590668217
0.001940000000000004,0.5,0.001940000000000004,0.07612025259670631,0.001940000000000004,0.07503369590719892
0.001960000000000004,0.5,0.001960000000000004,0.0761202525968728,0.001960000000000004,0.0750336959066268
0.001980000000000004,0.5,0.001980000000000004,0.07612025259679357,0.001980000000000004,0.0750336959072271
0.002000000000000004,0.5,0.002000000000000004,0.07612025259678096,0.002000000000000004,0.07503369590660927
0.002020000000000004,0.5,0.002020000000000004,0.07612025259679825,0.002020000000000004,0.07503369590726547
0.002040000000000004,0.5,0.002040000000000004,0.07612025259683,0.002040000000000004,0.07503369590665489
0.002060000000000004,0.5,0.002060000000000004,0.07612025259674206,0.002060000000000004,0.0750336959072197
0.002080000000000004,0.5,0.002080000000000004,0.07612025259685316,0.002080000000000004,0.07503369590664623
0.002100000000000004,0.5,0.002100000000000004,0.07612025259668541,0.002100000000000004,0.07503369590725274
0.002120000000000004,0.5,0.002120000000000004,0.07612025259679578,0.002120000000000004,0.07503369590664263
0.002140000000000004,0.5,0.002140000000000004,0.076120252596848,0.002140000000000004,0.07503369590723215
0.002160000000000004,0.5,0.002160000000000004,0.07612025259675667,0.002160000000000004,0.07503369590666185
0.002180000000000004,0.5,0.002180000000000004,0.0761202525968676,0.002180000000000004,0.07503369590717535
0.002200000000000004,0.5,0.002200000000000004,0.07612025259675666,0.002200000000000004,0.0750336959066492
0.002220000000000005,0.5,0.002220000000000005,0.07612025259682888,0.002220000000000005,0.07503369590725099
0.002240000000000005,0.5,0.002240000000000005,0.07612025259663269,0.002240000000000005,0.07503369590656196
0.002260000000000005,0.5,0.002260000000000005,0.07612025259693685,0.002260000000000005,0.07503369590726092
0.002280000000000005,0.5,0.002280000000000005,0.07612025259662736,0.002280000000000005,0.07503369590652192
0.002300000000000005,0.5,0.002300000000000005,0.07612025259691553,0.002300000000000005,0.07503369590737367
0.002320000000000005,0.5,0.002320000000000005,0.07612025259670054,0.002320000000000005,0.07503369590647843
0.002340000000000005,0.5,0.002340000000000005,0.0761202525969184,0.002340000000000005,0.07503369590735727
0.002360000000000005,0.5,0.002360000000000005,0.07612025259669006,0.002360000000000005,0.07503369590660669
0.002380000000000005,0.5,0.002380000000000005,0.076120252596904,0.002380000000000005,0.07503369590727138
0.002400000000000005,0.5,0.002400000000000005,0.07612025259672364,0.002400000000000005,0.0750336959066342
0.002420000000000005,0.5,0.002420000000000005,0.07612025259689367,0.002420000000000005,0.07503369590719253
0.002440000000000005,0.5,0.002440000000000005,0.07612025259665703,0.002440000000000005,0.0750336959067652
0.002460000000000005,0.5,0.002460000000000005,0.07612025259689122,0.002460000000000005,0.07503369590709252
0.002480000000000005,0.5,0.002480000000000005,0.07612025259673663,0.002480000000000005,0.07503369590672193
0.002500000000000005,0.5,0.002500000000000005,0.07612025259672579,0.002500000000000005,0.07503369590709535
0.002520000000000005,0.5,0.002520000000000005,0.07612025259687018,0.002520000000000005,0.07503369590681086
0.002540000000000005,0.5,0.002540000000000005,0.07612025259675796,0.002540000000000005,0.0750336959071797
0.002560000000000005,0.5,0.002560000000000005,0.07612025259678547,0.002560000000000005,0.07503369590673907
0.002580000000000005,0.5,0.002580000000000005,0.07612025259675018,0.002580000000000005,0.07503369590714336
0.002600000000000006,0.5,0.002600000000000006,0.07612025259689567,0.002600000000000006,0.07503369590671344
0.002620000000000006,0.5,0.002620000000000006,0.07612025259662848,0.002620000000000006,0.07503369590712466
0.002640000000000006,0.5,0.002640000000000006,0.07612025259698522,0.002640000000000006,0.0750336959066968
0.002660000000000006,0.5,0.002660000000000006,0.07612025259659463,0.002660000000000006,0.07503369590716109
0.002680000000000006,0.5,0.002680000000000006,0.07612025259690337,0.002680000000000006,0.07503369590677092
0.002700000000000006,0.5,0.002700000000000006,0.07612025259667367,0.002700000000000006,0.07503369590721429
0.002720000000000006,0.5,0.002720000000000006,0.07612025259693643,0.002720000000000006,0.07503369590664562
0.002740000000000006,0.5,0.002740000000000006,0.07612025259660719,0.002740000000000006,0.07503369590721444
0.002760000000000006,0.5,0.002760000000000006,0.07612025259700757,0.002760000000000006,0.07503369590666902
0.002780000000000006,0.5,0.002780000000000006,0.07612025259656388,0.002780000000000006,0.07503369590720574
0.002800000000000006,0.5,0.002800000000000006,0.07612025259702421,0.002800000000000006,0.07503369590677932
0.002820000000000006,0.5,0.002820000000000006,0.07612025259647175,0.002820000000000006,0.07503369590707064
0.002840000000000006,0.5,0.002840000000000006,0.07612025259711978,0.002840000000000006,0.07503369590674755
0.002860000000000006,0.5,0.002860000000000006,0.07612025259641685,0.002860000000000006,0.07503369590718965
0.002880000000000006,0.5,0.002880000000000006,0.07612025259718869,0.002880000000000006,0.07503369590677009
0.002900000000000006,0.5,0.002900000000000006,0.07612025259621191,0.002900000000000006,0.07503369590716349
0.002920000000000006,0.5,0.002920000000000006,0.0761202525972824,0.002920000000000006,0.07503369590660645
0.002940000000000006,0.5,0.002940000000000006,0.07612025259637395,0.002940000000000006,0.07503369590726251
0.002960000000000006,0.5,0.002960000000000006,0.07612025259723938,0.002960000000000006,0.07503369590670728
0.002980000000000007,0.5,0.002980000000000007,0.07612025259634048,0.002980000000000007,0.07503369590710107
0.003000000000000007,0.5,0.003000000000000007,0.07612025259723634,0.003000000000000007,0.07503369590676479
