/Vin X,/Vin Y,/out0 X,/out0 Y,/out1 X,/out1 Y,/out2 X,/out2 Y
-60,0.45,-60,0.129213729790163,-60,0.1957713964400129,-60,0.1281058489709594
-58.6,0.45,-58.6,0.1301552782560372,-58.6,0.1966579319068146,-58.6,0.129029127441461
-57.2,0.45,-57.2,0.1310953295636142,-57.2,0.1975421556021361,-57.2,0.1299498541537917
-55.8,0.45,-55.8,0.1320338823071779,-55.8,0.1984240883955687,-55.8,0.1308688777908661
-54.40000000000001,0.45,-54.40000000000001,0.132970935487784,-54.40000000000001,0.1993037511436558,-54.40000000000001,0.1317861971191746
-53.00000000000001,0.45,-53.00000000000001,0.1339064884627539,-53.00000000000001,0.2001811647156308,-53.00000000000001,0.1327018113235827
-51.60000000000001,0.45,-51.60000000000001,0.1348405409418514,-51.60000000000001,0.2010563500077221,-51.60000000000001,0.133615719978531
-50.20000000000001,0.45,-50.20000000000001,0.1357730929689866,-50.20000000000001,0.2019293279615555,-50.20000000000001,0.1345279230344446
-48.80000000000001,0.45,-48.80000000000001,0.136704144906601,-48.80000000000001,0.2028001195835657,-48.80000000000001,0.1354384208018063
-47.40000000000001,0.45,-47.40000000000001,0.1376336974202973,-47.40000000000001,0.2036687459658371,-47.40000000000001,0.1363472139354408
-46.00000000000001,0.45,-46.00000000000001,0.1385617514636937,-46.00000000000001,0.2045352283083392,-46.00000000000001,0.1372543034189999
-44.60000000000002,0.45,-44.60000000000002,0.1394883082635524,-44.60000000000002,0.2053995879427791,-44.60000000000002,0.1381596905496437
-43.20000000000002,0.45,-43.20000000000002,0.1404133693051146,-43.20000000000002,0.2062618463577606,-43.20000000000002,0.1390633769229579
-41.80000000000002,0.45,-41.80000000000002,0.1413369363177321,-41.80000000000002,0.2071220252255936,-41.80000000000002,0.1399653644180819
-40.40000000000002,0.45,-40.40000000000002,0.1422590112607132,-40.40000000000002,0.2079801464304931,-40.40000000000002,0.1408656551830496
-39.00000000000002,0.45,-39.00000000000002,0.1431795963094637,-39.00000000000002,0.2088362320982883,-39.00000000000002,0.1417642516203749
-37.60000000000002,0.45,-37.60000000000002,0.1440986938418906,-37.60000000000002,0.20969030462764,-37.60000000000002,0.1426611563728713
-36.20000000000002,0.45,-36.20000000000002,0.1450163064250638,-36.20000000000002,0.2105423867227263,-36.20000000000002,0.1435563723097044
-34.80000000000003,0.45,-34.80000000000003,0.1459324368021759,-34.80000000000003,0.2113925014272736,-34.80000000000003,0.1444499025127023
-33.40000000000003,0.45,-33.40000000000003,0.1468470878797863,-33.40000000000003,0.2122406721601676,-33.40000000000003,0.1453417502628983
-32.00000000000003,0.45,-32.00000000000003,0.1477602627153457,-32.00000000000003,0.2130869227523115,-32.00000000000003,0.1462319190273486
-30.60000000000003,0.45,-30.60000000000003,0.1486719645050241,-30.60000000000003,0.2139312774849453,-30.60000000000003,0.1471204124461969
-29.20000000000003,0.45,-29.20000000000003,0.1495821965718599,-29.20000000000003,0.2147737611291423,-29.20000000000003,0.1480072343200122
-27.80000000000003,0.45,-27.80000000000003,0.150490962354183,-27.80000000000003,0.2156143989866711,-27.80000000000003,0.1488923885973778
-26.40000000000003,0.45,-26.40000000000003,0.1513982653943828,-26.40000000000003,0.2164532169320239,-26.40000000000003,0.1497758793627726
-25.00000000000004,0.45,-25.00000000000004,0.1523041093279767,-25.00000000000004,0.217290241455506,-25.00000000000004,0.1506577108247098
-23.60000000000004,0.45,-23.60000000000004,0.1532140759723566,-23.60000000000004,0.2181300473304647,-23.60000000000004,0.1515433879937081
-22.20000000000004,0.45,-22.20000000000004,0.1541242172658293,-22.20000000000004,0.2189694068688474,-22.20000000000004,0.1524290173475974
-20.80000000000004,0.45,-20.80000000000004,0.1550329684570648,-20.80000000000004,0.2198070658643754,-20.80000000000004,0.1533130564546384
-19.40000000000004,0.45,-19.40000000000004,0.1559403335469372,-19.40000000000004,0.220643054065612,-19.40000000000004,0.1541955100088605
-18.00000000000004,0.45,-18.00000000000004,0.1568463166930476,-18.00000000000004,0.2214774021774368,-18.00000000000004,0.1550763828861227
-16.60000000000004,0.45,-16.60000000000004,0.1577509220847821,-16.60000000000004,0.2223101418240845,-16.60000000000004,0.1559556800193583
-15.20000000000004,0.45,-15.20000000000004,0.1586541556677673,-15.20000000000004,0.223141305600673,-15.20000000000004,0.1568334063882276
-13.80000000000004,0.45,-13.80000000000004,0.1595560228452027,-13.80000000000004,0.2239709271213652,-13.80000000000004,0.1577095670090576
-12.40000000000004,0.45,-12.40000000000004,0.160456527244118,-12.40000000000004,0.2247990410678091,-12.40000000000004,0.1585841677259179
-11.00000000000004,0.45,-11.00000000000004,0.1613556726640385,-11.00000000000004,0.225625683241509,-11.00000000000004,0.159457214656267
-9.600000000000042,0.45,-9.600000000000042,0.1622534630103398,-9.600000000000042,0.2264508906142921,-9.600000000000042,0.1603287124816202
-8.200000000000042,0.45,-8.200000000000042,0.1631499022504135,-8.200000000000042,0.2272747013786687,-8.200000000000042,0.1611986659748969
-6.800000000000042,0.45,-6.800000000000042,0.1640449943831729,-6.800000000000042,0.228097154997952,-6.800000000000042,0.1620670799778641
-5.400000000000041,0.45,-5.400000000000041,0.1649387434167773,-5.400000000000041,0.2289182922559757,-5.400000000000041,0.1629339593688421
-4.000000000000041,0.45,-4.000000000000041,0.1658311533517306,-4.000000000000041,0.229738155306194,-4.000000000000041,0.1637993090391502
-2.600000000000041,0.45,-2.600000000000041,0.1667222281675257,-2.600000000000041,0.230556787720133,-2.600000000000041,0.1646631338750162
-1.200000000000041,0.45,-1.200000000000041,0.1676119718117777,-1.200000000000041,0.2313742345348122,-1.200000000000041,0.1655254387430743
0.1999999999999589,0.45,0.1999999999999589,0.1685003881911566,0.1999999999999589,0.2321905422993618,0.1999999999999589,0.166386228478323
1.599999999999959,0.45,1.599999999999959,0.1693874811636767,1.599999999999959,0.2330057591201409,1.599999999999959,0.1672455078738476
2.999999999999959,0.45,2.999999999999959,0.1702732545320426,2.999999999999959,0.2338199347046533,2.999999999999959,0.1681032816718057
4.399999999999959,0.45,4.399999999999959,0.1711577120377817,4.399999999999959,0.234633120403904,4.399999999999959,0.1689595545554324
5.799999999999958,0.45,5.799999999999958,0.1720408573561324,5.799999999999958,0.2354453692529732,5.799999999999958,0.1698143311418386
7.199999999999958,0.45,7.199999999999958,0.1729226940914884,7.199999999999958,0.236256736009789,7.199999999999958,0.1706676159754908
8.599999999999959,0.45,8.599999999999959,0.1738032257733612,8.599999999999959,0.237067277191866,8.599999999999959,0.1715194135222332
9.999999999999959,0.45,9.999999999999959,0.174682455852814,9.999999999999959,0.2378770511108068,9.999999999999959,0.1723697281639398
11.39999999999996,0.45,11.39999999999996,0.1755603876992793,11.39999999999996,0.2386861179045485,11.39999999999996,0.1732185641928318
12.79999999999996,0.45,12.79999999999996,0.1764370245977845,12.79999999999996,0.2394945395670124,12.79999999999996,0.1740659258099093
14.19999999999996,0.45,14.19999999999996,0.1773123697465125,14.19999999999996,0.2403023799752608,14.19999999999996,0.1749118171151468
15.59999999999996,0.45,15.59999999999996,0.1781864262546919,15.59999999999996,0.2411097049137487,15.59999999999996,0.1757562421094426
16.99999999999996,0.45,16.99999999999996,0.1790591971407919,16.99999999999996,0.241916582095778,16.99999999999996,0.1765992046884829
18.39999999999996,0.45,18.39999999999996,0.1799306853310077,18.39999999999996,0.2427230811818689,18.39999999999996,0.1774407086404066
19.79999999999996,0.45,19.79999999999996,0.1808008936580416,19.79999999999996,0.2435292737950251,19.79999999999996,0.1782807576432778
21.19999999999996,0.45,21.19999999999996,0.1816698248601026,21.19999999999996,0.2443352335327359,21.19999999999996,0.1791193552629472
22.59999999999996,0.45,22.59999999999996,0.1825374815801989,22.59999999999996,0.2451410359756249,22.59999999999996,0.179956504951304
23.99999999999995,0.45,23.99999999999995,0.1834038663656464,23.99999999999995,0.2459467586926757,23.99999999999995,0.1807922100449359
25.39999999999995,0.45,25.39999999999995,0.1842725186992786,25.39999999999995,0.2467553277658673,25.39999999999995,0.1816299558727422
26.79999999999995,0.45,26.79999999999995,0.1851487980829742,26.79999999999995,0.2475711189641182,26.79999999999995,0.1824750190847737
28.19999999999995,0.45,28.19999999999995,0.1860238928497439,28.19999999999995,0.2483871148417298,28.19999999999995,0.1833187254173946
29.59999999999995,0.45,29.59999999999995,0.1868978051361381,29.59999999999995,0.2492034032880293,29.59999999999995,0.1841610777724272
30.99999999999995,0.45,30.99999999999995,0.1877705369713202,30.99999999999995,0.2500200742517392,30.99999999999995,0.1850020789260104
32.39999999999995,0.45,32.39999999999995,0.1886420902784171,32.39999999999995,0.2508372197269987,32.39999999999995,0.1858417315299762
33.79999999999995,0.45,33.79999999999995,0.1895124668755324,33.79999999999995,0.2516549337346179,33.79999999999995,0.1866800381135633
35.19999999999995,0.45,35.19999999999995,0.1903816684769152,35.19999999999995,0.252473312299317,35.19999999999995,0.1875170010856566
36.59999999999994,0.45,36.59999999999994,0.1912496966943098,36.59999999999994,0.2532924534231569,36.59999999999994,0.1883526227374441
37.99999999999994,0.45,37.99999999999994,0.192116553038471,37.99999999999994,0.2541124570550501,37.99999999999994,0.1891869052455928
39.39999999999994,0.45,39.39999999999994,0.1929822389208161,39.39999999999994,0.2549334250563713,39.39999999999994,0.1900198506759099
40.79999999999994,0.45,40.79999999999994,0.1938467556552445,40.79999999999994,0.2557554611627637,40.79999999999994,0.1908514609874845
42.19999999999994,0.45,42.19999999999994,0.194710104460063,42.19999999999994,0.2565786709421183,42.19999999999994,0.1916817380373332
43.59999999999994,0.45,43.59999999999994,0.1955722864600681,43.59999999999994,0.257403161748849,43.59999999999994,0.1925106835855431
44.99999999999994,0.45,44.99999999999994,0.1964333026886959,44.99999999999994,0.2582290426744471,44.99999999999994,0.1933382993009297
46.39999999999993,0.45,46.39999999999993,0.1972931540903413,46.39999999999993,0.259056424494497,46.39999999999993,0.1941645867671655
47.79999999999993,0.45,47.79999999999993,0.1981518415227001,47.79999999999993,0.2598854196121225,47.79999999999993,0.1949895474894521
49.19999999999993,0.45,49.19999999999993,0.1990093657592675,49.19999999999993,0.2607161419980578,49.19999999999993,0.1958131829016625
50.59999999999993,0.45,50.59999999999993,0.1998657274918494,50.59999999999993,0.2615487071273767,50.59999999999993,0.196635494373994
51.99999999999993,0.45,51.99999999999993,0.200720927333181,51.99999999999993,0.2623832319130081,51.99999999999993,0.1974564832211264
53.39999999999993,0.45,53.39999999999993,0.2015749658195817,53.39999999999993,0.2632198346362177,53.39999999999993,0.1982761507108212
54.79999999999993,0.45,54.79999999999993,0.2024278434136552,54.79999999999993,0.2640586348740731,54.79999999999993,0.1990944980730663
56.19999999999992,0.45,56.19999999999992,0.2032795605070299,56.19999999999992,0.2648997534240767,56.19999999999992,0.1999115265096207
57.59999999999992,0.45,57.59999999999992,0.2041301174231174,57.59999999999992,0.265743312226153,57.59999999999992,0.2007272372040718
58.99999999999992,0.45,58.99999999999992,0.2049795144198763,58.99999999999992,0.2665894342820228,58.99999999999992,0.2015416313322909
60.39999999999992,0.45,60.39999999999992,0.2058277516925849,60.39999999999992,0.2674382435722,60.39999999999992,0.2023547100733301
61.79999999999992,0.45,61.79999999999992,0.2066748293765899,61.79999999999992,0.2682898649707052,61.79999999999992,0.2031664746207274
63.19999999999992,0.45,63.19999999999992,0.2075207475500389,63.19999999999992,0.2691444241576835,63.19999999999992,0.2039769261941742
64.59999999999992,0.45,64.59999999999992,0.2083655062365743,64.59999999999992,0.2700020475300275,64.59999999999992,0.2047860660515688
65.99999999999993,0.45,65.99999999999993,0.2092091054079651,65.99999999999993,0.2708628621102168,65.99999999999993,0.2055938955013687
67.39999999999993,0.45,67.39999999999993,0.2100515449867016,67.39999999999993,0.2717269954535066,67.39999999999993,0.2064004159152716
68.79999999999994,0.45,68.79999999999994,0.2108928248484701,68.79999999999994,0.2725945755535936,68.79999999999994,0.2072056287411579
70.19999999999995,0.45,70.19999999999995,0.2117329448245962,70.19999999999995,0.2734657307468836,70.19999999999995,0.208009535516258
71.59999999999995,0.45,71.59999999999995,0.2125719047043274,71.59999999999995,0.2743405896157394,71.59999999999995,0.2088121378805325
72.99999999999996,0.45,72.99999999999996,0.2134097042370402,72.99999999999996,0.2752192808904381,72.99999999999996,0.209613437590216
74.39999999999996,0.45,74.39999999999996,0.2142463431342951,74.39999999999996,0.2761019333504338,74.39999999999996,0.2104134365314599
75.79999999999997,0.45,75.79999999999997,0.2150818210717723,75.79999999999997,0.2769886757247591,75.79999999999997,0.2112121367340898
77.19999999999997,0.45,77.19999999999997,0.2159161376910176,77.19999999999997,0.2778796365918886,77.19999999999997,0.2120095403853509
78.59999999999998,0.45,78.59999999999998,0.2167492926010677,78.59999999999998,0.2787749442791085,78.59999999999998,0.2128056498436659
79.99999999999999,0.45,79.99999999999999,0.2175812853798517,79.99999999999999,0.2796747267615705,79.99999999999999,0.2136004676523481
81.39999999999999,0.45,81.39999999999999,0.2184121155754379,81.39999999999999,0.2805791115611984,81.39999999999999,0.2143939965531569
82.8,0.45,82.8,0.2192417827070638,82.8,0.2814882256455173,82.8,0.215186239499733
84.2,0.45,84.2,0.2200702862659593,84.2,0.2824021953265901,84.2,0.2159771996708214
85.60000000000001,0.45,85.60000000000001,0.2208976257159564,85.60000000000001,0.2833211461601521,85.60000000000001,0.2167668804831974
87.00000000000001,0.45,87.00000000000001,0.2217238004938755,87.00000000000001,0.2842452028451288,87.00000000000001,0.2175552856043255
88.40000000000002,0.45,88.40000000000002,0.2225488100096692,88.40000000000002,0.285174489123565,88.40000000000002,0.218342418964616
89.80000000000003,0.45,89.80000000000003,0.2233726536463706,89.80000000000003,0.2861091276812002,89.80000000000003,0.2191282847693055
91.20000000000003,0.45,91.20000000000003,0.2241953307597281,91.20000000000003,0.2870492400487263,91.20000000000003,0.2199128875098392
92.60000000000004,0.45,92.60000000000004,0.2250168406776978,92.60000000000004,0.2879949465038438,92.60000000000004,0.2206962319747509
94.00000000000004,0.45,94.00000000000004,0.2258371826995974,94.00000000000004,0.2889463659742946,94.00000000000004,0.2214783232600024
95.40000000000005,0.45,95.40000000000005,0.2266563560951071,95.40000000000005,0.2899036159419229,95.40000000000005,0.2222591667786875
96.80000000000005,0.45,96.80000000000005,0.2274743601029671,96.80000000000005,0.2908668123478795,96.80000000000005,0.2230387682701154
98.20000000000006,0.45,98.20000000000006,0.2282911939294765,98.20000000000006,0.291836069499095,98.20000000000006,0.2238171338081747
99.60000000000007,0.45,99.60000000000007,0.229106856746755,99.60000000000007,0.2928114999761083,99.60000000000007,0.2245942698089786
101.0000000000001,0.45,101.0000000000001,0.22992134769078,101.0000000000001,0.2937932145423545,101.0000000000001,0.2253701830377517
102.4000000000001,0.45,102.4000000000001,0.2307346658591929,102.4000000000001,0.2947813220550303,102.4000000000001,0.2261448806148834
103.8000000000001,0.45,103.8000000000001,0.2315468103089249,103.8000000000001,0.2957759293775997,103.8000000000001,0.2269183700211755
105.2000000000001,0.45,105.2000000000001,0.23235778005358,105.2000000000001,0.2967771412939924,105.2000000000001,0.2276906591021794
106.6000000000001,0.45,106.6000000000001,0.2331675740606598,106.6000000000001,0.2977850604247673,106.6000000000001,0.2284617560716778
108.0000000000001,0.45,108.0000000000001,0.233976191248551,108.0000000000001,0.2987997871450387,108.0000000000001,0.2292316695142024
109.4000000000001,0.45,109.4000000000001,0.2347836304833905,109.4000000000001,0.2998214195045246,109.4000000000001,0.2300004083866248
110.8000000000001,0.45,110.8000000000001,0.2355898905756681,110.8000000000001,0.3008500531496188,110.8000000000001,0.2307679820187582
112.2000000000001,0.45,112.2000000000001,0.2363949702767259,112.2000000000001,0.3018857812476236,112.2000000000001,0.2315344001129874
113.6000000000001,0.45,113.6000000000001,0.237198868275048,113.6000000000001,0.30292869441321,113.6000000000001,0.2322996727428504
115.0000000000001,0.45,115.0000000000001,0.238001583192353,115.0000000000001,0.3039788806371738,115.0000000000001,0.2330638103506214
116.4000000000001,0.45,116.4000000000001,0.2388031135795499,116.4000000000001,0.3050364252175156,116.4000000000001,0.2338268237438267
117.8000000000001,0.45,117.8000000000001,0.239603457912453,117.8000000000001,0.3061014106929141,117.8000000000001,0.2345887240906826
119.2000000000001,0.45,119.2000000000001,0.240402614587349,119.2000000000001,0.3071739167786962,119.2000000000001,0.2353495229144942
120.6000000000002,0.45,120.6000000000002,0.2412005819163021,120.6000000000002,0.3082540203052113,120.6000000000002,0.2361092320869104
122.0000000000002,0.45,122.0000000000002,0.2419973581222597,122.0000000000002,0.3093417951587575,122.0000000000002,0.2368678638200901
123.4000000000002,0.45,123.4000000000002,0.2427929413338926,123.4000000000002,0.3104373122250402,123.4000000000002,0.2376254306577514
124.8000000000002,0.45,124.8000000000002,0.2435873295801442,124.8000000000002,0.3115406393351624,124.8000000000002,0.2383819454650447
126.2000000000002,0.45,126.2000000000002,0.2443805207844968,126.2000000000002,0.3126518412141832,126.2000000000002,0.2391374214173089
127.6000000000002,0.45,127.6000000000002,0.2451725127588306,127.6000000000002,0.3137709794321886,127.6000000000002,0.2398918719876042
129.0000000000002,0.45,129.0000000000002,0.2459633031969654,129.0000000000002,0.31489811235792,129.0000000000002,0.2406453109330955
130.4000000000002,0.45,130.4000000000002,0.2467528896676882,130.4000000000002,0.3160332951149034,130.4000000000002,0.2413977522801813
131.8000000000002,0.45,131.8000000000002,0.2475412696073478,131.8000000000002,0.3171765795400023,131.8000000000002,0.2421492103084036
133.2000000000002,0.45,133.2000000000002,0.2483284403118437,133.2000000000002,0.31832801414444,133.2000000000002,0.2428996995330899
134.6000000000002,0.45,134.6000000000002,0.2491143989280519,134.6000000000002,0.3194876440771433,134.6000000000002,0.2436492346867054
136.0000000000002,0.45,136.0000000000002,0.2498991424445113,136.0000000000002,0.3206555110903658,136.0000000000002,0.244397830698877
137.4000000000002,0.45,137.4000000000002,0.2506826676814046,137.4000000000002,0.3218316535075471,137.4000000000002,0.2451455026750925
138.8000000000002,0.45,138.8000000000002,0.2514649712796316,138.8000000000002,0.3230161061932337,138.8000000000002,0.2458922658739645
140.2000000000002,0.45,140.2000000000002,0.2522460496889833,140.2000000000002,0.3242089005250324,140.2000000000002,0.246638135683112
141.6000000000002,0.45,141.6000000000002,0.2530258991552882,141.6000000000002,0.3254100643674286,141.6000000000002,0.2473831275935409
143.0000000000002,0.45,143.0000000000002,0.2538045157064049,143.0000000000002,0.3266196220474014,143.0000000000002,0.2481272571725001
144.4000000000002,0.45,144.4000000000002,0.2545818951369908,144.4000000000002,0.327837594331566,144.4000000000002,0.2488705400347817
145.8000000000002,0.45,145.8000000000002,0.2553580329919067,145.8000000000002,0.3290639984048775,145.8000000000002,0.2496129918123559
147.2000000000002,0.45,147.2000000000002,0.2561329245481131,147.2000000000002,0.3302988478505904,147.2000000000002,0.2503546281223264
148.6000000000003,0.45,148.6000000000003,0.2569065647950113,148.6000000000003,0.3315421526313438,148.6000000000003,0.2510954645330929
