/net039 X,/net039 Y,/net010 X,/net010 Y,/net09 X,/net09 Y,/net08 X,/net08 Y,/net02 X,/net02 Y
0,6.795643765970279e-05,0,6.795643765969435e-05,0,6.795643765952898e-05,0,6.094256728562027e-05,0,0
1.5e-11,6.795643765974904e-05,1.5e-11,6.795643765973666e-05,1.5e-11,6.795643765980491e-05,1.5e-11,6.094256728583198e-05,1.5e-11,0
4.5e-11,6.795643765966975e-05,4.5e-11,6.795643765963925e-05,4.5e-11,6.795643765978997e-05,4.5e-11,6.094256728572999e-05,4.5e-11,0
1.05e-10,6.795643765697808e-05,1.05e-10,6.795643765988779e-05,1.05e-10,6.795643765990842e-05,1.05e-10,6.094256728617182e-05,1.05e-10,0
2.25e-10,6.795643766247231e-05,2.25e-10,6.79564376625186e-05,2.25e-10,6.795643766269287e-05,2.25e-10,6.094256728562027e-05,2.25e-10,0
4.65e-10,6.795643766023871e-05,4.65e-10,6.795643765717967e-05,4.65e-10,6.795643765712136e-05,4.65e-10,6.094256728608815e-05,4.65e-10,0
7.649999999999999e-10,6.795643765917326e-05,7.649999999999999e-10,6.795643766228136e-05,7.649999999999999e-10,6.795643766270152e-05,7.649999999999999e-10,6.094256728575449e-05,7.649999999999999e-10,0
1.065e-09,6.795643766334865e-05,1.065e-09,6.795643765409199e-05,1.065e-09,6.795643765703383e-05,1.065e-09,6.094256728573961e-05,1.065e-09,0
1.365e-09,6.795643765637652e-05,1.365e-09,6.795643766502229e-05,1.365e-09,6.79564376595898e-05,1.365e-09,6.094256728589353e-05,1.365e-09,0
1.665e-09,6.795643766627938e-05,1.665e-09,6.795643765476505e-05,1.665e-09,6.795643766004457e-05,1.665e-09,6.094256728573015e-05,1.665e-09,0
1.8325e-09,6.795643765342343e-05,1.8325e-09,6.795643766774559e-05,1.8325e-09,6.795643765959177e-05,1.8325e-09,6.094256728611505e-05,1.8325e-09,0
2e-09,6.79564376658685e-05,2e-09,6.795643764898888e-05,2e-09,6.79564376602349e-05,2e-09,6.094256728588478e-05,2e-09,0
2.120144127384571e-09,6.795643765972247e-05,2.120144127384571e-09,6.795643765969006e-05,2.120144127384571e-09,6.795643765975114e-05,2.120144127384571e-09,6.094256728667292e-05,2.120144127384571e-09,0.06674673743587282
2.261585129605973e-09,6.79564376597965e-05,2.261585129605973e-09,6.795643765970264e-05,2.261585129605973e-09,6.795643765689976e-05,2.261585129605973e-09,6.09425672601976e-05,2.261585129605973e-09,0.1453250720033182
2.400273538304042e-09,6.795643765997544e-05,2.400273538304042e-09,6.795643765678958e-05,2.400273538304042e-09,6.795643766294122e-05,2.400273538304042e-09,6.094256739840625e-05,2.400273538304042e-09,0.2223741879466899
2.455693803734308e-09,6.795643765976436e-05,2.455693803734308e-09,6.79564376624715e-05,2.455693803734308e-09,6.795643765679734e-05,2.455693803734308e-09,6.094256665634347e-05,2.455693803734308e-09,0.2531632242968379
2.483403936449441e-09,6.795643765990429e-05,2.483403936449441e-09,6.795643765778614e-05,2.483403936449441e-09,6.795643766587171e-05,2.483403936449441e-09,6.094256941741623e-05,2.483403936449441e-09,0.2685577424719119
2.538824201879708e-09,6.795643766268401e-05,2.538824201879708e-09,6.79564376618855e-05,2.538824201879708e-09,6.795643764789382e-05,2.538824201879708e-09,6.094256455604373e-05,2.538824201879708e-09,0.2993467788220598
2.561274479319341e-09,6.795643765763013e-05,2.561274479319341e-09,6.795643765819214e-05,2.561274479319341e-09,6.795643767735317e-05,2.561274479319341e-09,6.094256995876473e-05,2.561274479319341e-09,0.3118191551774117
2.572499618039158e-09,6.795643766121158e-05,2.572499618039158e-09,6.795643766098712e-05,2.572499618039158e-09,6.795643763937347e-05,2.572499618039158e-09,6.094256763409157e-05,2.572499618039158e-09,0.3180553433550874
2.59494989547879e-09,6.795643765830302e-05,2.59494989547879e-09,6.795643766128362e-05,2.59494989547879e-09,6.795643766740378e-05,2.59494989547879e-09,6.094256555866705e-05,2.59494989547879e-09,0.330527719710439
2.620191837978257e-09,6.79564376608916e-05,2.620191837978257e-09,6.795643765892032e-05,2.620191837978257e-09,6.795643766451537e-05,2.620191837978257e-09,6.094256949291143e-05,2.620191837978257e-09,0.3445510210990316
2.641152210962254e-09,6.795643765875983e-05,2.641152210962254e-09,6.795643766074922e-05,2.641152210962254e-09,6.795643764675629e-05,2.641152210962254e-09,6.09425651016627e-05,2.641152210962254e-09,0.356195672756808
2.661831460741891e-09,6.795643766087584e-05,2.661831460741891e-09,6.795643765890284e-05,2.661831460741891e-09,6.79564376771378e-05,2.661831460741891e-09,6.094256912873446e-05,2.661831460741891e-09,0.3676841448566059
2.683150840004642e-09,6.795643766145283e-05,2.683150840004642e-09,6.795643766036735e-05,2.683150840004642e-09,6.795643764175073e-05,2.683150840004642e-09,6.094256585335518e-05,2.683150840004642e-09,0.3795282444470233
2.702706616568295e-09,6.795643765590929e-05,2.702706616568295e-09,6.795643765962447e-05,2.702706616568295e-09,6.795643767682047e-05,2.702706616568295e-09,6.094256830148352e-05,2.702706616568295e-09,0.3903925647601637
2.725850249364699e-09,6.79564376630388e-05,2.725850249364699e-09,6.795643765981858e-05,2.725850249364699e-09,6.795643764459267e-05,2.725850249364699e-09,6.09425665677944e-05,2.725850249364699e-09,0.4032501385359438
2.754017301164237e-09,6.795643765660719e-05,2.754017301164237e-09,6.795643766285535e-05,2.754017301164237e-09,6.795643767326484e-05,2.754017301164237e-09,6.094256780189182e-05,2.754017301164237e-09,0.4188985006467984
2.784554590448022e-09,6.795643766566154e-05,2.784554590448022e-09,6.795643765714659e-05,2.784554590448022e-09,6.795643764801894e-05,2.784554590448022e-09,6.094256692269833e-05,2.784554590448022e-09,0.4358636613600124
2.813120231787585e-09,6.795643765450961e-05,2.813120231787585e-09,6.795643766196849e-05,2.813120231787585e-09,6.795643767004955e-05,2.813120231787585e-09,6.094256751658314e-05,2.813120231787585e-09,0.4517334621042137
2.842920733337604e-09,6.795643766445783e-05,2.842920733337604e-09,6.795643765772045e-05,2.842920733337604e-09,6.795643765135642e-05,2.842920733337604e-09,6.094256715578033e-05,2.842920733337604e-09,0.4682892962986686
2.867243662813188e-09,6.795643765588175e-05,2.867243662813188e-09,6.795643766190846e-05,2.867243662813188e-09,6.795643766629626e-05,2.867243662813188e-09,6.09425673201227e-05,2.867243662813188e-09,0.4818020348962154
2.895154013063978e-09,6.795643766361756e-05,2.895154013063978e-09,6.795643765802845e-05,2.895154013063978e-09,6.795643765743929e-05,2.895154013063978e-09,6.094256731358497e-05,2.895154013063978e-09,0.4973077850355435
2.921094972943615e-09,6.79564376563838e-05,2.921094972943615e-09,6.795643766142012e-05,2.921094972943615e-09,6.795643766153758e-05,2.921094972943615e-09,6.094256720769859e-05,2.921094972943615e-09,0.5117194294131194
2.972976892702889e-09,6.795643766318294e-05,2.972976892702889e-09,6.795643765811579e-05,2.972976892702889e-09,6.795643765552483e-05,2.972976892702889e-09,6.094256738412882e-05,2.972976892702889e-09,0.5405427181682714
3.015534443809084e-09,6.795643765365354e-05,3.015534443809084e-09,6.795643766123108e-05,3.015534443809084e-09,6.795643766346058e-05,3.015534443809084e-09,6.09425671669574e-05,3.015534443809084e-09,0.5641858021161577
3.058952952513309e-09,6.795643766563714e-05,3.058952952513309e-09,6.795643765862944e-05,3.058952952513309e-09,6.795643765690648e-05,3.058952952513309e-09,6.094256742125771e-05,3.058952952513309e-09,0.588307195840727
3.070072085180758e-09,6.795643765612765e-05,3.070072085180758e-09,6.795643766074496e-05,3.070072085180758e-09,6.795643766019958e-05,3.070072085180758e-09,6.0942567109405e-05,3.070072085180758e-09,0.5944844917670875
3.092310350515655e-09,6.795643765808304e-05,3.092310350515655e-09,6.795643766160474e-05,3.092310350515655e-09,6.795643765979665e-05,3.092310350515655e-09,6.094256747021544e-05,3.092310350515655e-09,0.6068390836198085
3.099638279908422e-09,6.795643766019115e-05,3.099638279908422e-09,6.795643766113587e-05,3.099638279908422e-09,6.795643765900719e-05,3.099638279908422e-09,6.094256709942551e-05,3.099638279908422e-09,0.6109101555046791
3.114294138693957e-09,6.795643765944211e-05,3.114294138693957e-09,6.795643765614642e-05,3.114294138693957e-09,6.795643766383329e-05,3.114294138693957e-09,6.094256746306876e-05,3.114294138693957e-09,0.6190522992744202
3.11852209933226e-09,6.795643765942033e-05,3.11852209933226e-09,6.795643765862204e-05,3.11852209933226e-09,6.795643765555332e-05,3.11852209933226e-09,6.094256708399653e-05,3.11852209933226e-09,0.6214011662957002
3.126978020608868e-09,6.795643766061288e-05,3.126978020608868e-09,6.795643765947101e-05,3.126978020608868e-09,6.795643766598064e-05,3.126978020608868e-09,6.094256740986424e-05,3.126978020608868e-09,0.6260989003382601
3.135236705323156e-09,6.795643765915482e-05,3.135236705323156e-09,6.795643766028899e-05,3.135236705323156e-09,6.795643766545462e-05,3.135236705323156e-09,6.094256740691482e-05,3.135236705323156e-09,0.6306870585128642
3.143153413132597e-09,6.795643766079228e-05,3.143153413132597e-09,6.795643765876634e-05,3.143153413132597e-09,6.79564376576221e-05,3.143153413132597e-09,6.094256753999877e-05,3.143153413132597e-09,0.6350852295181092
3.152074375164372e-09,6.795643766084155e-05,3.152074375164372e-09,6.79564376603017e-05,3.152074375164372e-09,6.795643765517103e-05,3.152074375164372e-09,6.094256720830908e-05,3.152074375164372e-09,0.6400413195357619
3.155201714466468e-09,6.795643766532106e-05,3.155201714466468e-09,6.795643766073809e-05,3.155201714466468e-09,6.795643779771245e-05,3.155201714466468e-09,6.094256990738497e-05,3.155201714466468e-09,0.6417787302591489
3.161456393070661e-09,6.795643764964005e-05,3.161456393070661e-09,6.795643765940185e-05,3.161456393070661e-09,6.795643742525266e-05,3.161456393070661e-09,6.094256426482881e-05,3.161456393070661e-09,0.6452535517059227
3.169463697506012e-09,6.795643760990414e-05,3.169463697506012e-09,6.795643766081424e-05,3.169463697506012e-09,6.795643562133757e-05,3.169463697506012e-09,6.09425034816184e-05,3.169463697506012e-09,0.6497020541700067
3.178072358013548e-09,6.795643774010757e-05,3.178072358013548e-09,6.795643766336586e-05,3.178072358013548e-09,6.795643885082876e-05,3.178072358013548e-09,6.094252391618858e-05,3.178072358013548e-09,0.6544846433408599
3.186324396059486e-09,6.795643914677734e-05,3.186324396059486e-09,6.795643767524596e-05,3.186324396059486e-09,6.795649501946866e-05,3.186324396059486e-09,6.094423083140826e-05,3.186324396059486e-09,0.6590691089219368
3.197057002091314e-09,6.79564361381972e-05,3.197057002091314e-09,6.795643761313293e-05,3.197057002091314e-09,6.795637092836009e-05,3.197057002091314e-09,6.094265629536836e-05,3.197057002091314e-09,0.6650316678285076
3.204665144158111e-09,6.795642159528612e-05,3.204665144158111e-09,6.795643728078211e-05,3.204665144158111e-09,6.795415564224838e-05,3.204665144158111e-09,6.087920372504388e-05,3.204665144158111e-09,0.6692584134211724
3.212316912845356e-09,6.795642601287054e-05,3.212316912845356e-09,6.795643876955923e-05,3.212316912845356e-09,6.795719037991349e-05,3.212316912845356e-09,6.088545713801802e-05,3.212316912845356e-09,0.6735093960251975
3.219485185538686e-09,6.795651815942509e-05,3.219485185538686e-09,6.795643870316541e-05,3.219485185538686e-09,6.796725504506075e-05,3.219485185538686e-09,6.117699684461807e-05,3.219485185538686e-09,0.6774917697437143
3.225448892925701e-09,6.795650946365548e-05,3.225448892925701e-09,6.795643162228609e-05,3.225448892925701e-09,6.794892350750271e-05,3.225448892925701e-09,6.10214801931357e-05,3.225448892925701e-09,0.6808049405142781
3.233703821927256e-09,6.79563722366286e-05,3.233703821927256e-09,6.795644306927139e-05,3.233703821927256e-09,6.795096274716981e-05,3.233703821927256e-09,6.080377425109868e-05,3.233703821927256e-09,0.6853910121818088
3.241677158174596e-09,6.795643753308131e-05,3.241677158174596e-09,6.795643715715691e-05,3.241677158174596e-09,6.796104650259981e-05,3.241677158174596e-09,6.091507805123236e-05,3.241677158174596e-09,0.6898206434303309
3.248880919939922e-09,6.795637020806453e-05,3.248880919939922e-09,6.795643497148643e-05,3.248880919939922e-09,6.795647401556824e-05,3.248880919939922e-09,6.093023600571866e-05,3.248880919939922e-09,0.6938227332999568
3.25609758993238e-09,6.795615835935015e-05,3.25609758993238e-09,6.79564385987727e-05,3.25609758993238e-09,6.795717458792331e-05,3.25609758993238e-09,6.094759272161406e-05,3.25609758993238e-09,0.6978319944068778
3.26254745257495e-09,6.795601216368268e-05,3.26254745257495e-09,6.795643556633866e-05,3.26254745257495e-09,6.795309628784286e-05,3.26254745257495e-09,6.084386574358455e-05,3.26254745257495e-09,0.701415251430528
3.268229495655256e-09,6.795176614478028e-05,3.268229495655256e-09,6.795641805205253e-05,3.268229495655256e-09,6.795148924039059e-05,3.268229495655256e-09,6.061465946386659e-05,3.268229495655256e-09,0.704571942030698
3.272394815403522e-09,6.792741121089911e-05,3.272394815403522e-09,6.795629120397212e-05,3.272394815403522e-09,6.795293501513962e-05,3.272394815403522e-09,5.996976609945007e-05,3.272394815403522e-09,0.7068860085575119
3.27642514970493e-09,6.79087475516194e-05,3.27642514970493e-09,6.795634172352643e-05,3.27642514970493e-09,6.796421972951722e-05,3.27642514970493e-09,5.92379157545489e-05,3.27642514970493e-09,0.7091250831694053
3.280090017954438e-09,6.806779797181822e-05,3.280090017954438e-09,6.795752735773605e-05,3.280090017954438e-09,6.797240665585422e-05,3.280090017954438e-09,6.181313914134605e-05,3.280090017954438e-09,0.711161121085799
3.283575335460561e-09,6.888009897195944e-05,3.283575335460561e-09,6.796188290698657e-05,3.283575335460561e-09,6.797526276549897e-05,3.283575335460561e-09,7.887247690214966e-05,3.283575335460561e-09,0.7130974085892007
3.286969026368091e-09,6.962039738964176e-05,3.286969026368091e-09,6.79610947565338e-05,3.286969026368091e-09,6.797022979925484e-05,3.286969026368091e-09,0.000104463693801472,3.286969026368091e-09,0.7149827924267173
3.289566125697531e-09,6.899295743128003e-05,3.289566125697531e-09,6.795075006611937e-05,3.289566125697531e-09,6.796991021555428e-05,3.289566125697531e-09,0.0001021963338779936,3.289566125697531e-09,0.716425625387517
3.291979632563498e-09,6.779766433232079e-05,3.291979632563498e-09,6.794438707482693e-05,3.291979632563498e-09,6.796064453393991e-05,3.291979632563498e-09,3.271671281277359e-05,3.291979632563498e-09,0.7177664625352768
3.294896741668789e-09,6.663236859403973e-05,3.294896741668789e-09,6.794819698498886e-05,3.294896741668789e-09,6.793175580639227e-05,3.294896741668789e-09,-0.0002635331864874893,3.294896741668789e-09,0.7193870787048828
3.298197172894352e-09,6.100902428902495e-05,3.298197172894352e-09,6.796173168851595e-05,3.298197172894352e-09,6.791664056205329e-05,3.298197172894352e-09,-0.000938516715125338,3.298197172894352e-09,0.7212206516079731
3.302169210733236e-09,4.979939060657225e-05,3.302169210733236e-09,6.79783071322775e-05,3.302169210733236e-09,6.794693303175326e-05,3.302169210733236e-09,-0.001207752369785198,3.302169210733236e-09,0.7234273392962424
3.304962681882632e-09,4.928142314326177e-05,3.304962681882632e-09,6.796212070603109e-05,3.304962681882632e-09,6.795600468981387e-05,3.304962681882632e-09,-0.0009151236407157181,3.304962681882632e-09,0.7249792677125731
3.307666119015902e-09,5.964292058066009e-05,3.307666119015902e-09,6.794717542780037e-05,3.307666119015902e-09,6.795040324736851e-05,3.307666119015902e-09,-0.0005339718234382804,3.307666119015902e-09,0.7264811772310564
3.310466931156606e-09,8.274115473847549e-05,3.310466931156606e-09,6.795514565243023e-05,3.310466931156606e-09,6.794886529230105e-05,3.310466931156606e-09,-0.0002451493917764558,3.310466931156606e-09,0.7280371839758922
3.313075622869392e-09,0.0001225319034551065,3.313075622869392e-09,6.79756911191062e-05,3.313075622869392e-09,6.794810360452416e-05,3.313075622869392e-09,-0.0003158591084429392,3.313075622869392e-09,0.7294864571496621
3.315488555359052e-09,0.0001896965577539552,3.315488555359052e-09,6.799180606547958e-05,3.315488555359052e-09,6.795360266694103e-05,3.315488555359052e-09,-0.000788248078408779,3.315488555359052e-09,0.7308269751994734
3.318235210680684e-09,0.0003533993563448158,3.318235210680684e-09,6.797693365794641e-05,3.318235210680684e-09,6.796291312353891e-05,3.318235210680684e-09,-0.001704601271254131,3.318235210680684e-09,0.7323528948226025
3.3213810984544e-09,0.0004062603111807875,3.3213810984544e-09,6.793468151486775e-05,3.3213810984544e-09,6.797718799224427e-05,3.3213810984544e-09,-0.002743860495236721,3.3213810984544e-09,0.7341006102524442
3.324145310159194e-09,-0.002795629375788246,3.324145310159194e-09,6.789808092698163e-05,3.324145310159194e-09,6.797929278500085e-05,3.324145310159194e-09,-0.00338574644454226,3.324145310159194e-09,0.7356362834217742
3.327048679119399e-09,-0.01073037158037046,3.327048679119399e-09,6.787857296995841e-05,3.327048679119399e-09,6.797552653884327e-05,3.327048679119399e-09,-0.003595154788780992,3.327048679119399e-09,0.7372492661774437
3.329986754656361e-09,-0.01154595544511205,3.329986754656361e-09,6.789235606466505e-05,3.329986754656361e-09,6.797012856257979e-05,3.329986754656361e-09,-0.003168603697962907,3.329986754656361e-09,0.7388815303646449
3.332613094509025e-09,0.02122567813404436,3.332613094509025e-09,6.792870664065538e-05,3.332613094509025e-09,6.795962486295469e-05,3.332613094509025e-09,-0.00236168708184499,3.332613094509025e-09,0.7403406080605696
3.335099742892509e-09,0.09846415923094741,3.335099742892509e-09,6.796132771470209e-05,3.335099742892509e-09,6.794350253921048e-05,3.335099742892509e-09,-0.001661228166563644,3.335099742892509e-09,0.7417220793847272
3.337226265253959e-09,0.1921447595661779,3.337226265253959e-09,6.799700175606946e-05,3.337226265253959e-09,6.794683613129014e-05,3.337226265253959e-09,-0.0009534612787789783,3.337226265253959e-09,0.7429034806966438
3.339777270728961e-09,0.320403669773632,3.339777270728961e-09,6.802352392898144e-05,3.339777270728961e-09,6.795592250231183e-05,3.339777270728961e-09,0.0002095349404686436,3.339777270728961e-09,0.7443207059605337
3.34258447245716e-09,0.4721268945300872,3.34258447245716e-09,6.800650083839208e-05,3.34258447245716e-09,6.794653151785917e-05,3.34258447245716e-09,0.001442580142366686,3.34258447245716e-09,0.7458802624761998
3.345277718544066e-09,0.6114460935934938,3.345277718544066e-09,6.798335736240065e-05,3.345277718544066e-09,6.794362532648342e-05,3.345277718544066e-09,0.002379745083676434,3.345277718544066e-09,0.747376510302259
3.348142814595958e-09,0.7317244567937474,3.348142814595958e-09,6.796453052621949e-05,3.348142814595958e-09,6.79436278599237e-05,3.348142814595958e-09,0.002932743634514177,3.348142814595958e-09,0.7489682303310881
3.350663741464938e-09,0.8041834217553512,3.350663741464938e-09,6.795897142637474e-05,3.350663741464938e-09,6.794925218285401e-05,3.350663741464938e-09,0.00306162910667378,3.350663741464938e-09,0.7503687452582989
3.353265385936386e-09,0.8681084209131015,3.353265385936386e-09,6.796003201391724e-05,3.353265385936386e-09,6.795677394386212e-05,3.353265385936386e-09,0.002947008094086561,3.353265385936386e-09,0.7518141032979923
3.356105814206586e-09,1.005447839085101,3.356105814206586e-09,6.796085087828192e-05,3.356105814206586e-09,6.796164594584782e-05,3.356105814206586e-09,0.002635822623073823,3.356105814206586e-09,0.7533921190036587
3.358737778797223e-09,1.335142514735701,3.358737778797223e-09,6.79613317488645e-05,3.358737778797223e-09,6.796407869572009e-05,3.358737778797223e-09,0.002266565146411594,3.358737778797223e-09,0.7548543215540129
3.360808048658864e-09,1.841854399949534,3.360808048658864e-09,6.796069252895637e-05,3.360808048658864e-09,6.796444714142141e-05,3.360808048658864e-09,0.001982561814968627,3.360808048658864e-09,0.7560044714771468
3.362779102542618e-09,2.522796076888831,3.362779102542618e-09,6.795944990676262e-05,3.362779102542618e-09,6.796376001959504e-05,3.362779102542618e-09,0.001739300035492303,3.362779102542618e-09,0.7570995014125658
3.364022670785052e-09,3.001041256343071,3.364022670785052e-09,6.795770975344983e-05,3.364022670785052e-09,6.796230913208799e-05,3.364022670785052e-09,0.001598141812548863,3.364022670785052e-09,0.757790372658362
