/net039 X,/net039 Y,/net010 X,/net010 Y,/net09 X,/net09 Y,/net08 X,/net08 Y,/net02 X,/net02 Y
0,6.795643765967124e-05,0,6.795643765968722e-05,0,6.795643765946342e-05,0,6.094256728629037e-05,0,0
1.5e-11,6.795643765974179e-05,1.5e-11,6.795643765975419e-05,1.5e-11,6.795643765973957e-05,1.5e-11,6.094256728621654e-05,1.5e-11,0
4.5e-11,6.795643765969008e-05,4.5e-11,6.795643765969269e-05,4.5e-11,6.795643765972478e-05,4.5e-11,6.09425672863385e-05,4.5e-11,0
1.05e-10,6.795643765701776e-05,1.05e-10,6.795643765705423e-05,1.05e-10,6.795643765710645e-05,1.05e-10,6.09425672861118e-05,1.05e-10,0
2.25e-10,6.795643766260327e-05,2.25e-10,6.795643766248615e-05,2.25e-10,6.795643765932615e-05,2.25e-10,6.094256728597486e-05,2.25e-10,0
4.65e-10,6.795643765713472e-05,4.65e-10,6.795643766033134e-05,4.65e-10,6.795643766050655e-05,4.65e-10,6.094256728632916e-05,4.65e-10,0
7.649999999999999e-10,6.79564376655943e-05,7.649999999999999e-10,6.795643765626253e-05,7.649999999999999e-10,6.79564376563258e-05,7.649999999999999e-10,6.094256728606864e-05,7.649999999999999e-10,0
1.065e-09,6.795643765089294e-05,1.065e-09,6.795643766324302e-05,1.065e-09,6.795643766323239e-05,1.065e-09,6.094256728625706e-05,1.065e-09,0
1.365e-09,6.795643766537258e-05,1.365e-09,6.795643765637758e-05,1.365e-09,6.795643765309536e-05,1.365e-09,6.094256728623758e-05,1.365e-09,0
1.665e-09,6.795643765449897e-05,1.665e-09,6.795643766303119e-05,1.665e-09,6.795643766639912e-05,1.665e-09,6.094256728602099e-05,1.665e-09,0
1.8325e-09,6.795643766793786e-05,1.8325e-09,6.795643765679604e-05,1.8325e-09,6.79564376534065e-05,1.8325e-09,6.094256728653383e-05,1.8325e-09,0
2e-09,6.795643765181838e-05,2e-09,6.795643765988611e-05,2e-09,6.795643766611767e-05,2e-09,6.094256728587091e-05,2e-09,0
2.120144127384571e-09,6.795643765940625e-05,2.120144127384571e-09,6.795643765969804e-05,2.120144127384571e-09,6.795643765977342e-05,2.120144127384571e-09,6.094256728692445e-05,2.120144127384571e-09,0.06674673743587282
2.261585129605973e-09,6.795643766018934e-05,2.261585129605973e-09,6.795643765971808e-05,2.261585129605973e-09,6.795643765656211e-05,2.261585129605973e-09,6.094256726034404e-05,2.261585129605973e-09,0.1453250720033182
2.400273538304042e-09,6.795643765945075e-05,2.400273538304042e-09,6.795643765680534e-05,2.400273538304042e-09,6.795643766014539e-05,2.400273538304042e-09,6.0942567398948e-05,2.400273538304042e-09,0.2223741879466899
2.45569380373431e-09,6.795643766005011e-05,2.45569380373431e-09,6.795643766243412e-05,2.45569380373431e-09,6.795643765924252e-05,2.45569380373431e-09,6.094256664404997e-05,2.45569380373431e-09,0.2531632242968386
2.483403936449444e-09,6.795643765673477e-05,2.483403936449444e-09,6.795643765790277e-05,2.483403936449444e-09,6.795643766108553e-05,2.483403936449444e-09,6.094256952515331e-05,2.483403936449444e-09,0.2685577424719131
2.538824201879712e-09,6.79564376630429e-05,2.538824201879712e-09,6.795643766172603e-05,2.538824201879712e-09,6.795643765218677e-05,2.538824201879712e-09,6.094256437581958e-05,2.538824201879712e-09,0.2993467788220619
2.561274479319399e-09,6.795643765434991e-05,2.561274479319399e-09,6.79564376586598e-05,2.561274479319399e-09,6.795643767993991e-05,2.561274479319399e-09,6.094257022282259e-05,2.561274479319399e-09,0.3118191551774441
2.572499618039244e-09,6.795643766336846e-05,2.572499618039244e-09,6.795643765822654e-05,2.572499618039244e-09,6.795643764068918e-05,2.572499618039244e-09,6.094256765107653e-05,2.572499618039244e-09,0.3180553433551352
2.594949895478932e-09,6.795643765875227e-05,2.594949895478932e-09,6.795643766097162e-05,2.594949895478932e-09,6.795643766856415e-05,2.594949895478932e-09,6.094256533720012e-05,2.594949895478932e-09,0.3305277197105176
2.62019183797837e-09,6.79564376607786e-05,2.62019183797837e-09,6.795643765889006e-05,2.62019183797837e-09,6.795643766409534e-05,2.62019183797837e-09,6.094256978569406e-05,2.62019183797837e-09,0.3445510210990941
2.641152210962379e-09,6.795643766176913e-05,2.641152210962379e-09,6.795643766341542e-05,2.641152210962379e-09,6.795643764132216e-05,2.641152210962379e-09,6.094256484426035e-05,2.641152210962379e-09,0.3561956727568772
2.661831460741913e-09,6.795643765862031e-05,2.661831460741913e-09,6.795643765687259e-05,2.661831460741913e-09,6.795643768412797e-05,2.661831460741913e-09,6.094256929482526e-05,2.661831460741913e-09,0.3676841448566182
2.683150840004641e-09,6.795643766079091e-05,2.683150840004641e-09,6.795643766233256e-05,2.683150840004641e-09,6.795643763606049e-05,2.683150840004641e-09,6.094256577509058e-05,2.683150840004641e-09,0.3795282444470225
2.702706616568284e-09,6.795643765646117e-05,2.702706616568284e-09,6.795643765507659e-05,2.702706616568284e-09,6.795643768151737e-05,2.702706616568284e-09,6.094256831103867e-05,2.702706616568284e-09,0.3903925647601579
2.725850249364707e-09,6.795643766290597e-05,2.725850249364707e-09,6.795643766389328e-05,2.725850249364707e-09,6.795643764351371e-05,2.725850249364707e-09,6.094256659429669e-05,2.725850249364707e-09,0.4032501385359482
2.754017301164238e-09,6.795643765707201e-05,2.754017301164238e-09,6.795643765878832e-05,2.754017301164238e-09,6.795643767463817e-05,2.754017301164238e-09,6.09425677596209e-05,2.754017301164238e-09,0.4188985006467991
2.78455459044803e-09,6.795643766213772e-05,2.78455459044803e-09,6.795643766105643e-05,2.78455459044803e-09,6.795643764668259e-05,2.78455459044803e-09,6.094256697315046e-05,2.78455459044803e-09,0.4358636613600165
2.813120231787595e-09,6.795643765759426e-05,2.813120231787595e-09,6.795643765856242e-05,2.813120231787595e-09,6.795643766806098e-05,2.813120231787595e-09,6.094256746415885e-05,2.813120231787595e-09,0.4517334621042192
2.842920733337605e-09,6.795643765880744e-05,2.842920733337605e-09,6.795643765777472e-05,2.842920733337605e-09,6.795643765599887e-05,2.842920733337605e-09,6.094256720833674e-05,2.842920733337605e-09,0.4682892962986694
2.867243662813175e-09,6.795643766048279e-05,2.867243662813175e-09,6.795643766139412e-05,2.867243662813175e-09,6.795643766010378e-05,2.867243662813175e-09,6.094256727253556e-05,2.867243662813175e-09,0.4818020348962082
2.89515401306395e-09,6.795643765649692e-05,2.89515401306395e-09,6.795643765579265e-05,2.89515401306395e-09,6.795643766006694e-05,2.89515401306395e-09,6.094256735700922e-05,2.89515401306395e-09,0.4973077850355277
2.921094972943602e-09,6.795643766280208e-05,2.921094972943602e-09,6.79564376633808e-05,2.921094972943602e-09,6.795643765914356e-05,2.921094972943602e-09,6.094256717053139e-05,2.921094972943602e-09,0.5117194294131119
2.972976892702905e-09,6.795643765995535e-05,2.972976892702905e-09,6.795643765614801e-05,2.972976892702905e-09,6.795643766079332e-05,2.972976892702905e-09,6.09425674189881e-05,2.972976892702905e-09,0.5405427181682804
3.015534443809106e-09,6.795643766268777e-05,3.015534443809106e-09,6.795643766314181e-05,3.015534443809106e-09,6.795643765870965e-05,3.015534443809106e-09,6.094256713633883e-05,3.015534443809106e-09,0.5641858021161699
3.058952952513309e-09,6.795643765726706e-05,3.058952952513309e-09,6.795643765670158e-05,3.058952952513309e-09,6.795643765863408e-05,3.058952952513309e-09,6.094256744965856e-05,3.058952952513309e-09,0.5883071958407274
3.070072085180763e-09,6.795643766146052e-05,3.070072085180763e-09,6.795643766159833e-05,3.070072085180763e-09,6.795643765935021e-05,3.070072085180763e-09,6.094256709103602e-05,3.070072085180763e-09,0.5944844917670907
3.092310350515671e-09,6.795643765539723e-05,3.092310350515671e-09,6.795643765779198e-05,3.092310350515671e-09,6.795643766062176e-05,3.092310350515671e-09,6.094256748548491e-05,3.092310350515671e-09,0.6068390836198172
3.09963827990844e-09,6.795643766197942e-05,3.09963827990844e-09,6.795643766099081e-05,3.09963827990844e-09,6.79564376585317e-05,3.09963827990844e-09,6.094256709266367e-05,3.09963827990844e-09,0.6109101555046889
3.114294138693977e-09,6.795643765733312e-05,3.114294138693977e-09,6.795643766105021e-05,3.114294138693977e-09,6.795643765887103e-05,3.114294138693977e-09,6.094256746812741e-05,3.114294138693977e-09,0.6190522992744317
3.118522099332281e-09,6.795643766040688e-05,3.118522099332281e-09,6.795643765951156e-05,3.118522099332281e-09,6.795643765521601e-05,3.118522099332281e-09,6.094256708198251e-05,3.118522099332281e-09,0.6214011662957117
3.126978020608889e-09,6.795643765888019e-05,3.126978020608889e-09,6.795643766005651e-05,3.126978020608889e-09,6.795643766040499e-05,3.126978020608889e-09,6.094256741354933e-05,3.126978020608889e-09,0.6260989003382718
3.135236705323185e-09,6.795643766076014e-05,3.135236705323185e-09,6.795643765972503e-05,3.135236705323185e-09,6.795643766871693e-05,3.135236705323185e-09,6.094256740401108e-05,3.135236705323185e-09,0.6306870585128804
3.143153413132626e-09,6.795643766143175e-05,3.143153413132626e-09,6.795643765948832e-05,3.143153413132626e-09,6.795643765518211e-05,3.143153413132626e-09,6.094256754146817e-05,3.143153413132626e-09,0.6350852295181253
3.152074375164415e-09,6.795643765612755e-05,3.152074375164415e-09,6.795643766001982e-05,3.152074375164415e-09,6.795643765508796e-05,3.152074375164415e-09,6.094256720846031e-05,3.152074375164415e-09,0.6400413195357862
3.155201714466513e-09,6.795643766236152e-05,3.155201714466513e-09,6.795643766115497e-05,3.155201714466513e-09,6.795643779714127e-05,3.155201714466513e-09,6.094256990807664e-05,3.155201714466513e-09,0.6417787302591741
3.16145639307071e-09,6.79564376506997e-05,3.16145639307071e-09,6.795643765890683e-05,3.16145639307071e-09,6.795643742335585e-05,3.16145639307071e-09,6.094256426964783e-05,3.16145639307071e-09,0.6452535517059498
3.169463697506078e-09,6.795643761070886e-05,3.169463697506078e-09,6.795643765914604e-05,3.169463697506078e-09,6.795643562372921e-05,3.169463697506078e-09,6.094250350527912e-05,3.169463697506078e-09,0.6497020541700433
3.178072358013586e-09,6.795643774273239e-05,3.178072358013586e-09,6.795643766222489e-05,3.178072358013586e-09,6.795643884953244e-05,3.178072358013586e-09,6.094252384930493e-05,3.178072358013586e-09,0.6544846433408813
3.186324396059531e-09,6.795643914774922e-05,3.186324396059531e-09,6.795643767586475e-05,3.186324396059531e-09,6.795649501865306e-05,3.186324396059531e-09,6.094423013590138e-05,3.186324396059531e-09,0.6590691089219615
3.197057002091369e-09,6.795643613816304e-05,3.197057002091369e-09,6.795643761234065e-05,3.197057002091369e-09,6.795637093206937e-05,3.197057002091369e-09,6.094265830605733e-05,3.197057002091369e-09,0.6650316678285386
3.20466514415817e-09,6.795642159553956e-05,3.20466514415817e-09,6.795643728386439e-05,3.20466514415817e-09,6.79541557280827e-05,3.20466514415817e-09,6.08792336157472e-05,3.20466514415817e-09,0.6692584134212053
3.212316912850666e-09,6.795642601408474e-05,3.212316912850666e-09,6.795643876942358e-05,3.212316912850666e-09,6.795719009971738e-05,3.212316912850666e-09,6.088538950443987e-05,3.212316912850666e-09,0.6735093960281479
3.219485185544217e-09,6.795651816179427e-05,3.219485185544217e-09,6.795643870503126e-05,3.219485185544217e-09,6.796725479281027e-05,3.219485185544217e-09,6.117686181878035e-05,3.219485185544217e-09,0.6774917697467869
3.225448892948464e-09,6.795650946989062e-05,3.225448892948464e-09,6.795643162448603e-05,3.225448892948464e-09,6.794892535803923e-05,3.225448892948464e-09,6.102191753555124e-05,3.225448892948464e-09,0.6808049405269244
3.233703821945676e-09,6.795637222220381e-05,3.233703821945676e-09,6.79564430551591e-05,3.233703821945676e-09,6.79509611895475e-05,3.233703821945676e-09,6.080360094284858e-05,3.233703821945676e-09,0.685391012192042
3.241677158205526e-09,6.79564375479191e-05,3.241677158205526e-09,6.795643717725814e-05,3.241677158205526e-09,6.796104562387529e-05,3.241677158205526e-09,6.091474547785128e-05,3.241677158205526e-09,0.6898206434475141
3.248880919967365e-09,6.795637020328693e-05,3.248880919967365e-09,6.795643496058049e-05,3.248880919967365e-09,6.79564763563602e-05,3.248880919967365e-09,6.093060871291784e-05,3.248880919967365e-09,0.6938227333152026
3.256097589961318e-09,6.795615834648962e-05,3.256097589961318e-09,6.795643858777703e-05,3.256097589961318e-09,6.795717349024684e-05,3.256097589961318e-09,6.094750144272997e-05,3.256097589961318e-09,0.6978319944229543
3.262547452593953e-09,6.795601218204769e-05,3.262547452593953e-09,6.795643558314453e-05,3.262547452593953e-09,6.795309625278193e-05,3.262547452593953e-09,6.084390390931717e-05,3.262547452593953e-09,0.7014152514410851
3.268229495676888e-09,6.795176613351022e-05,3.268229495676888e-09,6.795641803986638e-05,3.268229495676888e-09,6.79514893893671e-05,3.268229495676888e-09,6.06146794237749e-05,3.268229495676888e-09,0.7045719420427156
3.272394815423433e-09,6.79274112141313e-05,3.272394815423433e-09,6.79562912037758e-05,3.272394815423433e-09,6.795293446018156e-05,3.272394815423433e-09,5.996966199731269e-05,3.272394815423433e-09,0.7068860085685736
3.276425149728122e-09,6.790874755196314e-05,3.276425149728122e-09,6.795634172434694e-05,3.276425149728122e-09,6.796421892770298e-05,3.276425149728122e-09,5.923764781603121e-05,3.276425149728122e-09,0.7091250831822902
3.280090017973389e-09,6.806779797921702e-05,3.280090017973389e-09,6.795752736155537e-05,3.280090017973389e-09,6.797240645914438e-05,3.280090017973389e-09,6.18129212563239e-05,3.280090017973389e-09,0.7111611210963275
3.283575335482065e-09,6.888009898330211e-05,3.283575335482065e-09,6.796188291085683e-05,3.283575335482065e-09,6.797526404928904e-05,3.283575335482065e-09,7.887257772940547e-05,3.283575335482065e-09,0.7130974086011472
3.286969026393647e-09,6.96203973848448e-05,3.286969026393647e-09,6.796109474793832e-05,3.286969026393647e-09,6.797023140243271e-05,3.286969026393647e-09,0.000104464011603008,3.286969026393647e-09,0.7149827924409148
3.289566125720066e-09,6.89929574109754e-05,3.289566125720066e-09,6.795075006001384e-05,3.289566125720066e-09,6.796991080996337e-05,3.289566125720066e-09,0.0001021965681610315,3.289566125720066e-09,0.7164256254000364
3.291979632587231e-09,6.779766432128443e-05,3.291979632587231e-09,6.794438707626417e-05,3.291979632587231e-09,6.796064469131737e-05,3.291979632587231e-09,3.271694358236424e-05,3.291979632587231e-09,0.7177664625484619
3.294896741695732e-09,6.663236859324712e-05,3.294896741695732e-09,6.794819700251968e-05,3.294896741695732e-09,6.793175788092123e-05,3.294896741695732e-09,-0.0002635324057327659,3.294896741695732e-09,0.7193870787198512
3.298197172926164e-09,6.100902417494193e-05,3.298197172926164e-09,6.796173166660577e-05,3.298197172926164e-09,6.791664075184211e-05,3.298197172926164e-09,-0.0009385162257018483,3.298197172926164e-09,0.7212206516256469
3.302169210731376e-09,4.979939059961212e-05,3.302169210731376e-09,6.797830712385816e-05,3.302169210731376e-09,6.794692787385843e-05,3.302169210731376e-09,-0.001207753226584914,3.302169210731376e-09,0.723427339295209
3.304962681888879e-09,4.928142321131975e-05,3.304962681888879e-09,6.796212074036474e-05,3.304962681888879e-09,6.795600073528894e-05,3.304962681888879e-09,-0.0009151246566677742,3.304962681888879e-09,0.724979267716044
3.307666119023151e-09,5.964292063705715e-05,3.307666119023151e-09,6.794717544963891e-05,3.307666119023151e-09,6.795040322990723e-05,3.307666119023151e-09,-0.0005339723188706134,3.307666119023151e-09,0.7264811772350839
3.310466931159106e-09,8.274115472713207e-05,3.310466931159106e-09,6.795514564525953e-05,3.310466931159106e-09,6.794886749737485e-05,3.310466931159106e-09,-0.0002451494426743289,3.310466931159106e-09,0.7280371839772809
3.313075622873768e-09,0.0001225319034665172,3.313075622873768e-09,6.797569109999529e-05,3.313075622873768e-09,6.794810555720377e-05,3.313075622873768e-09,-0.0003158590446483756,3.313075622873768e-09,0.729486457152093
3.315488555362398e-09,0.0001896965576874118,3.315488555362398e-09,6.799180605461359e-05,3.315488555362398e-09,6.79536038274341e-05,3.315488555362398e-09,-0.0007882480273415727,3.315488555362398e-09,0.7308269752013323
3.318235210682282e-09,0.000353399355880048,3.318235210682282e-09,6.797693365913276e-05,3.318235210682282e-09,6.796291398214653e-05,3.318235210682282e-09,-0.001704601155371219,3.318235210682282e-09,0.7323528948234902
3.32138109845931e-09,0.00040626031142157,3.32138109845931e-09,6.793468151810825e-05,3.32138109845931e-09,6.797718903963101e-05,3.32138109845931e-09,-0.002743860229551554,3.32138109845931e-09,0.7341006102551721
3.324145310163598e-09,-0.0027956293687593,3.324145310163598e-09,6.789808092519011e-05,3.324145310163598e-09,6.797929357873109e-05,3.324145310163598e-09,-0.003385746135520563,3.324145310163598e-09,0.7356362834242212
3.327048679123797e-09,-0.01073037157061092,3.327048679123797e-09,6.787857296790092e-05,3.327048679123797e-09,6.797552658525453e-05,3.327048679123797e-09,-0.003595154570458336,3.327048679123797e-09,0.7372492661798871
3.329986754662503e-09,-0.01154595545165757,3.329986754662503e-09,6.789235606488083e-05,3.329986754662503e-09,6.797012792110706e-05,3.329986754662503e-09,-0.003168603624567162,3.329986754662503e-09,0.7388815303680575
3.332613094514923e-09,0.0212256780875994,3.332613094514923e-09,6.792870664363775e-05,3.332613094514923e-09,6.795962405282366e-05,3.332613094514923e-09,-0.002361687095135004,3.332613094514923e-09,0.7403406080638458
3.335099742899728e-09,0.09846415919536912,3.335099742899728e-09,6.796132771623424e-05,3.335099742899728e-09,6.794350186646558e-05,3.335099742899728e-09,-0.00166122821555368,3.335099742899728e-09,0.7417220793887377
3.337226265261142e-09,0.1921447595223653,3.337226265261142e-09,6.799700175724561e-05,3.337226265261142e-09,6.794683558494011e-05,3.337226265261142e-09,-0.0009534613535089822,3.337226265261142e-09,0.7429034807006345
3.339777270736227e-09,0.3204036697262729,3.339777270736227e-09,6.802352392952273e-05,3.339777270736227e-09,6.795592213525082e-05,3.339777270736227e-09,0.0002095348603671201,3.339777270736227e-09,0.7443207059645703
3.342584472463968e-09,0.4721268944544258,3.342584472463968e-09,6.800650083677154e-05,3.342584472463968e-09,6.79465314786498e-05,3.342584472463968e-09,0.001442580102171799,3.342584472463968e-09,0.7458802624799825
3.345277718552239e-09,0.611446093588817,3.345277718552239e-09,6.79833573591226e-05,3.345277718552239e-09,6.794362540930892e-05,3.345277718552239e-09,0.002379745059198847,3.345277718552239e-09,0.7473765103067993
3.348142814604397e-09,0.7317244567997501,3.348142814604397e-09,6.796453052329632e-05,3.348142814604397e-09,6.794362788436391e-05,3.348142814604397e-09,0.00293274360440992,3.348142814604397e-09,0.7489682303357761
3.350663741473491e-09,0.8041834217616741,3.350663741473491e-09,6.795897142612888e-05,3.350663741473491e-09,6.794925223087292e-05,3.350663741473491e-09,0.003061629083648483,3.350663741473491e-09,0.7503687452630503
3.353265385944915e-09,0.8681084209199627,3.353265385944915e-09,6.796003201528333e-05,3.353265385944915e-09,6.795677401668904e-05,3.353265385944915e-09,0.002947008079868698,3.353265385944915e-09,0.7518141033027307
3.356105814215128e-09,1.00544783910242,3.356105814215128e-09,6.796085087692815e-05,3.356105814215128e-09,6.796164604086915e-05,3.356105814215128e-09,0.002635822619261697,3.356105814215128e-09,0.7533921190084046
3.358737778805747e-09,1.335142514773549,3.358737778805747e-09,6.796133174845249e-05,3.358737778805747e-09,6.796407877514068e-05,3.358737778805747e-09,0.002266565147418557,3.358737778805747e-09,0.7548543215587482
3.360808048667347e-09,1.841854399999273,3.360808048667347e-09,6.796069252730409e-05,3.360808048667347e-09,6.796444720027921e-05,3.360808048667347e-09,0.001982561815883218,3.360808048667347e-09,0.7560044714818592
3.362779102551126e-09,2.522796076959251,3.362779102551126e-09,6.795944990581018e-05,3.362779102551126e-09,6.796376005467717e-05,3.362779102551126e-09,0.001739300036141936,3.362779102551126e-09,0.7570995014172923
3.36402267079353e-09,3.001041256403146,3.36402267079353e-09,6.79577097534512e-05,3.36402267079353e-09,6.796230916039836e-05,3.36402267079353e-09,0.001598141812561522,3.36402267079353e-09,0.7577903726630721
