/net039 X,/net039 Y,/net010 X,/net010 Y,/net09 X,/net09 Y,/net08 X,/net08 Y,/net02 X,/net02 Y
0,6.795643765985486e-05,0,6.795643765977054e-05,0,6.795643765950287e-05,0,6.09425672810464e-05,0,0
1.5e-11,6.795643765972168e-05,1.5e-11,6.795643765981304e-05,1.5e-11,6.795643765980333e-05,1.5e-11,6.094256728101687e-05,1.5e-11,0
4.5e-11,6.795643765971927e-05,4.5e-11,6.795643765972378e-05,4.5e-11,6.795643765979497e-05,4.5e-11,6.094256728088096e-05,4.5e-11,0
1.05e-10,6.795643765995901e-05,1.05e-10,6.795643765706419e-05,1.05e-10,6.795643765989345e-05,1.05e-10,6.094256728073312e-05,1.05e-10,0
2.25e-10,6.795643765962013e-05,2.25e-10,6.795643766218544e-05,2.25e-10,6.795643765931149e-05,2.25e-10,6.094256728118497e-05,2.25e-10,0
4.65e-10,6.795643765996511e-05,4.65e-10,6.795643766040928e-05,4.65e-10,6.795643766014796e-05,4.65e-10,6.094256728088884e-05,4.65e-10,0
7.649999999999999e-10,6.795643766272408e-05,7.649999999999999e-10,6.79564376560962e-05,7.649999999999999e-10,6.795643765959246e-05,7.649999999999999e-10,6.094256728098803e-05,7.649999999999999e-10,0
1.065e-09,6.79564376571211e-05,1.065e-09,6.795643766342555e-05,1.065e-09,6.795643766043419e-05,1.065e-09,6.094256728093783e-05,1.065e-09,0
1.365e-09,6.795643766258635e-05,1.365e-09,6.795643765612865e-05,1.365e-09,6.795643765923855e-05,1.365e-09,6.094256728074078e-05,1.365e-09,0
1.665e-09,6.795643765706224e-05,1.665e-09,6.795643766356791e-05,1.665e-09,6.795643766033158e-05,1.665e-09,6.094256728131483e-05,1.665e-09,0
1.8325e-09,6.795643766231204e-05,1.8325e-09,6.795643765628868e-05,1.8325e-09,6.795643765947013e-05,1.8325e-09,6.094256728067342e-05,1.8325e-09,0
2e-09,6.795643765434541e-05,2e-09,6.795643766277475e-05,2e-09,6.795643765728804e-05,2e-09,6.094256728111389e-05,2e-09,0
2.120144127384571e-09,6.795643765949548e-05,2.120144127384571e-09,6.795643765969459e-05,2.120144127384571e-09,6.79564376597424e-05,2.120144127384571e-09,6.094256728178233e-05,2.120144127384571e-09,0.06674673743587282
2.261585129605973e-09,6.795643765999894e-05,2.261585129605973e-09,6.795643765990304e-05,2.261585129605973e-09,6.795643765673022e-05,2.261585129605973e-09,6.094256725554936e-05,2.261585129605973e-09,0.1453250720033182
2.400273538304042e-09,6.795643765972272e-05,2.400273538304042e-09,6.795643766239314e-05,2.400273538304042e-09,6.795643766236106e-05,2.400273538304042e-09,6.094256739154754e-05,2.400273538304042e-09,0.2223741879466899
2.455693803734292e-09,6.795643765701211e-05,2.455693803734292e-09,6.795643765761258e-05,2.455693803734292e-09,6.79564376543526e-05,2.455693803734292e-09,6.09425666748623e-05,2.455693803734292e-09,0.2531632242968289
2.483403936449417e-09,6.79564376620405e-05,2.483403936449417e-09,6.795643766197316e-05,2.483403936449417e-09,6.795643766749388e-05,2.483403936449417e-09,6.094256932628639e-05,2.483403936449417e-09,0.2685577424718983
2.538824201879667e-09,6.795643766022617e-05,2.538824201879667e-09,6.795643765763123e-05,2.538824201879667e-09,6.795643764910055e-05,2.538824201879667e-09,6.094256465104878e-05,2.538824201879667e-09,0.2993467788220371
2.56127447931927e-09,6.79564376593403e-05,2.56127447931927e-09,6.795643766149427e-05,2.56127447931927e-09,6.795643767913931e-05,2.56127447931927e-09,6.09425699201185e-05,2.56127447931927e-09,0.3118191551773719
2.572499618039071e-09,6.79564376600882e-05,2.572499618039071e-09,6.795643765857285e-05,2.572499618039071e-09,6.795643764052713e-05,2.572499618039071e-09,6.094256751812355e-05,2.572499618039071e-09,0.3180553433550392
2.594949895478673e-09,6.795643765972844e-05,2.594949895478673e-09,6.795643766102355e-05,2.594949895478673e-09,6.795643766973064e-05,2.594949895478673e-09,6.09425656482175e-05,2.594949895478673e-09,0.3305277197103738
2.620191837978204e-09,6.795643765733325e-05,2.620191837978204e-09,6.795643765874477e-05,2.620191837978204e-09,6.795643766254505e-05,2.620191837978204e-09,6.094256944117273e-05,2.620191837978204e-09,0.3445510210990024
2.641152210962195e-09,6.795643766187262e-05,2.641152210962195e-09,6.795643766061321e-05,2.641152210962195e-09,6.795643764593182e-05,2.641152210962195e-09,6.094256510043351e-05,2.641152210962195e-09,0.3561956727567752
2.661831460741904e-09,6.795643765812106e-05,2.661831460741904e-09,6.795643765906392e-05,2.661831460741904e-09,6.795643767783406e-05,2.661831460741904e-09,6.094256914157003e-05,2.661831460741904e-09,0.3676841448566131
2.683150840004678e-09,6.795643766132645e-05,2.683150840004678e-09,6.795643765785435e-05,2.683150840004678e-09,6.79564376408543e-05,2.683150840004678e-09,6.094256582541587e-05,2.683150840004678e-09,0.3795282444470435
2.702706616568339e-09,6.795643765855828e-05,2.702706616568339e-09,6.795643766157409e-05,2.702706616568339e-09,6.795643767731404e-05,2.702706616568339e-09,6.094256831678816e-05,2.702706616568339e-09,0.3903925647601885
2.725850249364742e-09,6.795643765809878e-05,2.725850249364742e-09,6.795643766086867e-05,2.725850249364742e-09,6.79564376441351e-05,2.725850249364742e-09,6.094256654678907e-05,2.725850249364742e-09,0.4032501385359679
2.754017301164267e-09,6.795643766399525e-05,2.754017301164267e-09,6.795643765881382e-05,2.754017301164267e-09,6.795643767417145e-05,2.754017301164267e-09,6.094256781022057e-05,2.754017301164267e-09,0.4188985006468148
2.784554590448038e-09,6.795643765629854e-05,2.784554590448038e-09,6.795643765806872e-05,2.784554590448038e-09,6.795643764700757e-05,2.784554590448038e-09,6.094256690708081e-05,2.784554590448038e-09,0.4358636613600211
2.813120231787598e-09,6.795643766545097e-05,2.813120231787598e-09,6.795643766428352e-05,2.813120231787598e-09,6.795643767099751e-05,2.813120231787598e-09,6.094256751974586e-05,2.813120231787598e-09,0.4517334621042211
2.842920733337619e-09,6.795643765178596e-05,2.842920733337619e-09,6.795643765871129e-05,2.842920733337619e-09,6.795643765036129e-05,2.842920733337619e-09,6.094256714542736e-05,2.842920733337619e-09,0.4682892962986774
2.867243662813186e-09,6.795643766648127e-05,2.867243662813186e-09,6.795643765814914e-05,2.867243662813186e-09,6.795643766719216e-05,2.867243662813186e-09,6.094256731901546e-05,2.867243662813186e-09,0.4818020348962145
2.895154013063953e-09,6.795643765669711e-05,2.895154013063953e-09,6.795643766084779e-05,2.895154013063953e-09,6.795643765653345e-05,2.895154013063953e-09,6.094256730647509e-05,2.895154013063953e-09,0.4973077850355294
2.921094972943608e-09,6.795643765998921e-05,2.921094972943608e-09,6.795643765875993e-05,2.921094972943608e-09,6.795643765959814e-05,2.921094972943608e-09,6.094256720398944e-05,2.921094972943608e-09,0.5117194294131155
2.972976892702919e-09,6.795643765952151e-05,2.972976892702919e-09,6.795643766103199e-05,2.972976892702919e-09,6.795643766013051e-05,2.972976892702919e-09,6.09425673782155e-05,2.972976892702919e-09,0.5405427181682881
3.01553444380914e-09,6.795643766007173e-05,3.01553444380914e-09,6.795643765882334e-05,3.01553444380914e-09,6.795643765906327e-05,3.01553444380914e-09,6.094256716306075e-05,3.01553444380914e-09,0.5641858021161886
3.058952952513343e-09,6.795643765667776e-05,3.058952952513343e-09,6.795643766081373e-05,3.058952952513343e-09,6.795643766113049e-05,3.058952952513343e-09,6.094256741615765e-05,3.058952952513343e-09,0.5883071958407459
3.070072085180794e-09,6.795643766135633e-05,3.070072085180794e-09,6.795643765914152e-05,3.070072085180794e-09,6.795643765812447e-05,3.070072085180794e-09,6.094256710455874e-05,3.070072085180794e-09,0.5944844917671075
3.092310350515696e-09,6.795643765820129e-05,3.092310350515696e-09,6.795643766036831e-05,3.092310350515696e-09,6.795643766215104e-05,3.092310350515696e-09,6.094256746564251e-05,3.092310350515696e-09,0.6068390836198309
3.099638279908456e-09,6.795643766020393e-05,3.099638279908456e-09,6.795643765980054e-05,3.099638279908456e-09,6.795643765778817e-05,3.099638279908456e-09,6.094256709444017e-05,3.099638279908456e-09,0.6109101555046977
3.114294138693977e-09,6.795643766172056e-05,3.114294138693977e-09,6.795643765994733e-05,3.114294138693977e-09,6.795643766250213e-05,3.114294138693977e-09,6.094256745836986e-05,3.114294138693977e-09,0.6190522992744315
3.118522099332281e-09,6.795643765930222e-05,3.118522099332281e-09,6.795643766006881e-05,3.118522099332281e-09,6.795643765811392e-05,3.118522099332281e-09,6.094256707994344e-05,3.118522099332281e-09,0.6214011662957115
3.126978020608889e-09,6.795643766278603e-05,3.126978020608889e-09,6.795643765978619e-05,3.126978020608889e-09,6.795643766156019e-05,3.126978020608889e-09,6.094256740440873e-05,3.126978020608889e-09,0.6260989003382714
3.13523670532318e-09,6.795643765827346e-05,3.13523670532318e-09,6.795643766014045e-05,3.13523670532318e-09,6.795643767057678e-05,3.13523670532318e-09,6.094256740181696e-05,3.13523670532318e-09,0.6306870585128777
3.143153413132619e-09,6.795643766136879e-05,3.143153413132619e-09,6.795643765907676e-05,3.143153413132619e-09,6.795643765422425e-05,3.143153413132619e-09,6.094256753581317e-05,3.143153413132619e-09,0.6350852295181217
3.152074375164405e-09,6.795643765600105e-05,3.152074375164405e-09,6.795643766059075e-05,3.152074375164405e-09,6.795643765589456e-05,3.152074375164405e-09,6.094256720335221e-05,3.152074375164405e-09,0.6400413195357807
3.155201714466503e-09,6.795643766415057e-05,3.155201714466503e-09,6.795643765822682e-05,3.155201714466503e-09,6.795643779692424e-05,3.155201714466503e-09,6.094256990395235e-05,3.155201714466503e-09,0.6417787302591684
3.161456393070699e-09,6.795643764956073e-05,3.161456393070699e-09,6.795643766102954e-05,3.161456393070699e-09,6.795643742627227e-05,3.161456393070699e-09,6.094256425908793e-05,3.161456393070699e-09,0.6452535517059436
3.169463697506063e-09,6.795643761203686e-05,3.169463697506063e-09,6.795643765705319e-05,3.169463697506063e-09,6.795643562280664e-05,3.169463697506063e-09,6.094250346586608e-05,3.169463697506063e-09,0.649702054170035
3.178072358013577e-09,6.795643773896969e-05,3.178072358013577e-09,6.795643766368853e-05,3.178072358013577e-09,6.79564388508309e-05,3.178072358013577e-09,6.094252392370757e-05,3.178072358013577e-09,0.6544846433408761
3.186324396059521e-09,6.795643915056235e-05,3.186324396059521e-09,6.795643767463935e-05,3.186324396059521e-09,6.795649502216361e-05,3.186324396059521e-09,6.094423114992504e-05,3.186324396059521e-09,0.6590691089219561
3.197057002091358e-09,6.795643613281865e-05,3.197057002091358e-09,6.795643761095851e-05,3.197057002091358e-09,6.795637092268249e-05,3.197057002091358e-09,6.094265574852233e-05,3.197057002091358e-09,0.6650316678285323
3.204665144158167e-09,6.795642159852078e-05,3.204665144158167e-09,6.795643728660414e-05,3.204665144158167e-09,6.795415560779868e-05,3.204665144158167e-09,6.087919075993544e-05,3.204665144158167e-09,0.6692584134212037
3.212316912843141e-09,6.795642601255294e-05,3.212316912843141e-09,6.795643876825885e-05,3.212316912843141e-09,6.795719044510356e-05,3.212316912843141e-09,6.088546718262342e-05,3.212316912843141e-09,0.6735093960239674
3.219485185536329e-09,6.795651816233251e-05,3.219485185536329e-09,6.795643870286789e-05,3.219485185536329e-09,6.796725524362149e-05,3.219485185536329e-09,6.117706932516581e-05,3.219485185536329e-09,0.6774917697424049
3.225448892910431e-09,6.795650946024317e-05,3.225448892910431e-09,6.795643162279946e-05,3.225448892910431e-09,6.794892308421762e-05,3.225448892910431e-09,6.102141280922151e-05,3.225448892910431e-09,0.6808049405057952
3.233703821914798e-09,6.795637224441046e-05,3.233703821914798e-09,6.795644306683701e-05,3.233703821914798e-09,6.795096268129336e-05,3.233703821914798e-09,6.080370071992116e-05,3.233703821914798e-09,0.685391012174888
3.241677158153814e-09,6.795643752371562e-05,3.241677158153814e-09,6.79564371580583e-05,3.241677158153814e-09,6.796104707534389e-05,3.241677158153814e-09,6.091518369506688e-05,3.241677158153814e-09,0.6898206434187852
3.248880919921417e-09,6.795637021115641e-05,3.248880919921417e-09,6.795643496760851e-05,3.248880919921417e-09,6.795647375986032e-05,3.248880919921417e-09,6.093023539997877e-05,3.248880919921417e-09,0.6938227332896761
3.25609758991285e-09,6.795615836066941e-05,3.25609758991285e-09,6.795643860148805e-05,3.25609758991285e-09,6.795717443730061e-05,3.25609758991285e-09,6.094756966134332e-05,3.25609758991285e-09,0.6978319943960276
3.262547452562065e-09,6.795601216393609e-05,3.262547452562065e-09,6.795643556430387e-05,3.262547452562065e-09,6.795309630271624e-05,3.262547452562065e-09,6.084384712316023e-05,3.262547452562065e-09,0.7014152514233692
3.268229495640612e-09,6.795176614530952e-05,3.268229495640612e-09,6.795641805288205e-05,3.268229495640612e-09,6.795148920151106e-05,3.268229495640612e-09,6.06146288786131e-05,3.268229495640612e-09,0.7045719420225625
3.272394815390209e-09,6.7927411212405e-05,3.272394815390209e-09,6.795629120208635e-05,3.272394815390209e-09,6.795293511580849e-05,3.272394815390209e-09,5.996976475004369e-05,3.272394815390209e-09,0.7068860085501163
3.276425149689428e-09,6.790874755104674e-05,3.276425149689428e-09,6.795634172524878e-05,3.276425149689428e-09,6.796422006982273e-05,3.276425149689428e-09,5.923799105137747e-05,3.276425149689428e-09,0.7091250831607935
3.280090017941969e-09,6.806779797252452e-05,3.280090017941969e-09,6.79575273542934e-05,3.280090017941969e-09,6.797240704552445e-05,3.280090017941969e-09,6.181327446388799e-05,3.280090017941969e-09,0.7111611210788716
3.283575335446898e-09,6.888009896444586e-05,3.283575335446898e-09,6.796188290580586e-05,3.283575335446898e-09,6.797526282122114e-05,3.283575335446898e-09,7.887258488582189e-05,3.283575335446898e-09,0.7130974085816097
3.286969026352305e-09,6.962039738872296e-05,3.286969026352305e-09,6.796109475458471e-05,3.286969026352305e-09,6.797022943814801e-05,3.286969026352305e-09,0.00010446371745446,3.286969026352305e-09,0.7149827924179473
3.289566125684461e-09,6.899295744012929e-05,3.289566125684461e-09,6.795075006749802e-05,3.289566125684461e-09,6.796990977297423e-05,3.289566125684461e-09,0.0001021963122000071,3.289566125684461e-09,0.7164256253802559
3.291979632549974e-09,6.779766434057764e-05,3.291979632549974e-09,6.794438707788592e-05,3.291979632549974e-09,6.796064409823228e-05,3.291979632549974e-09,3.271665180754243e-05,3.291979632549974e-09,0.7177664625277632
3.294896741652836e-09,6.663236859849742e-05,3.294896741652836e-09,6.794819698269176e-05,3.294896741652836e-09,6.793175484499884e-05,3.294896741652836e-09,-0.0002635334239362525,3.294896741652836e-09,0.7193870786960201
3.298197172875733e-09,6.100902435113616e-05,3.298197172875733e-09,6.796173169123722e-05,3.298197172875733e-09,6.791663969357978e-05,3.298197172875733e-09,-0.0009385170725342782,3.298197172875733e-09,0.7212206515976293
3.302169210736363e-09,4.979939061679766e-05,3.302169210736363e-09,6.797830713818696e-05,3.302169210736363e-09,6.794693355255808e-05,3.302169210736363e-09,-0.00120775249726735,3.302169210736363e-09,0.7234273392979794
3.304962681883946e-09,4.928142312703779e-05,3.304962681883946e-09,6.796212070403905e-05,3.304962681883946e-09,6.795600596698832e-05,3.304962681883946e-09,-0.0009151235400636553,3.304962681883946e-09,0.7249792677133032
3.307666119017122e-09,5.964292056719063e-05,3.307666119017122e-09,6.794717542105834e-05,3.307666119017122e-09,6.795040444292933e-05,3.307666119017122e-09,-0.0005339716326624551,3.307666119017122e-09,0.7264811772317346
3.310466931156171e-09,8.274115471422139e-05,3.310466931156171e-09,6.79551456477832e-05,3.310466931156171e-09,6.794886589576025e-05,3.310466931156171e-09,-0.0002451492112226131,3.310466931156171e-09,0.7280371839756504
3.313075622867112e-09,0.0001225319033969965,3.313075622867112e-09,6.797569111723922e-05,3.313075622867112e-09,6.794810382599448e-05,3.313075622867112e-09,-0.0003158589545456407,3.313075622867112e-09,0.7294864571483959
3.315488555356395e-09,0.0001896965576580196,3.315488555356395e-09,6.799180606439238e-05,3.315488555356395e-09,6.795360268336199e-05,3.315488555356395e-09,-0.0007882479392758801,3.315488555356395e-09,0.7308269751979973
3.318235210678821e-09,0.0003533993563112883,3.318235210678821e-09,6.797693365742165e-05,3.318235210678821e-09,6.796291300916762e-05,3.318235210678821e-09,-0.001704601158405188,3.318235210678821e-09,0.7323528948215673
3.321381098451903e-09,0.0004062603115680048,3.321381098451903e-09,6.79346815156017e-05,3.321381098451903e-09,6.797718763136566e-05,3.321381098451903e-09,-0.00274386044430984,3.321381098451903e-09,0.7341006102510571
3.32414531015671e-09,-0.002795629374155971,3.32414531015671e-09,6.789808092586291e-05,3.32414531015671e-09,6.79792922899201e-05,3.32414531015671e-09,-0.003385746456850849,3.32414531015671e-09,0.7356362834203944
3.327048679116904e-09,-0.01073037157890868,3.327048679116904e-09,6.78785729730273e-05,3.327048679116904e-09,6.797552605030596e-05,3.327048679116904e-09,-0.003595154845670404,3.327048679116904e-09,0.7372492661760576
3.329986754653686e-09,-0.01154595544898947,3.329986754653686e-09,6.789235606412512e-05,3.329986754653686e-09,6.797012825089428e-05,3.329986754653686e-09,-0.00316860376690408,3.329986754653686e-09,0.7388815303631591
3.332613094506242e-09,0.02122567811584414,3.332613094506242e-09,6.792870664011913e-05,3.332613094506242e-09,6.795962472005541e-05,3.332613094506242e-09,-0.002361687144106224,3.332613094506242e-09,0.7403406080590232
3.335099742889815e-09,0.0984641592026189,3.335099742889815e-09,6.796132771251192e-05,3.335099742889815e-09,6.794350252392663e-05,3.335099742889815e-09,-0.00166122821763558,3.335099742889815e-09,0.7417220793832306
3.337226265251241e-09,0.1921447595332713,3.337226265251241e-09,6.799700175597952e-05,3.337226265251241e-09,6.794683619289944e-05,3.337226265251241e-09,-0.0009534613166714363,3.337226265251241e-09,0.7429034806951337
3.339777270726165e-09,0.3204036697357611,3.339777270726165e-09,6.802352392829671e-05,3.339777270726165e-09,6.795592262264432e-05,3.339777270726165e-09,0.0002095349200700573,3.339777270726165e-09,0.7443207059589805
3.342584472454309e-09,0.4721268944913968,3.342584472454309e-09,6.800650083675031e-05,3.342584472454309e-09,6.794653163017986e-05,3.342584472454309e-09,0.001442580129612686,3.342584472454309e-09,0.7458802624746159
3.345277718541707e-09,0.6114460935841498,3.345277718541707e-09,6.79833573613405e-05,3.345277718541707e-09,6.794362541184809e-05,3.345277718541707e-09,0.002379745074652329,3.345277718541707e-09,0.7473765103009484
3.348142814593672e-09,0.7317244567903091,3.348142814593672e-09,6.796453052506981e-05,3.348142814593672e-09,6.794362793533818e-05,3.348142814593672e-09,0.002932743631619203,3.348142814593672e-09,0.7489682303298176
3.350663741462709e-09,0.8041834217546623,3.350663741462709e-09,6.795897142604845e-05,3.350663741462709e-09,6.794925224737609e-05,3.350663741462709e-09,0.003061629107871707,3.350663741462709e-09,0.7503687452570609
3.353265385934126e-09,0.8681084209114897,3.353265385934126e-09,6.796003201546331e-05,3.353265385934126e-09,6.795677399492415e-05,3.353265385934126e-09,0.002947008097975766,3.353265385934126e-09,0.7518141032967368
3.356105814204321e-09,1.005447839081465,3.356105814204321e-09,6.79608508761975e-05,3.356105814204321e-09,6.7961645973472e-05,3.356105814204321e-09,0.002635822627547844,3.356105814204321e-09,0.7533921190024004
3.358737778794972e-09,1.335142514730119,3.358737778794972e-09,6.796133175011617e-05,3.358737778794972e-09,6.796407871037946e-05,3.358737778794972e-09,0.002266565150461135,3.358737778794972e-09,0.7548543215527621
3.360808048656616e-09,1.841854399941273,3.360808048656616e-09,6.796069252832518e-05,3.360808048656616e-09,6.796444714865494e-05,3.360808048656616e-09,0.001982561818644771,3.360808048656616e-09,0.7560044714758976
3.362779102540372e-09,2.522796076879537,3.362779102540372e-09,6.795944990896577e-05,3.362779102540372e-09,6.796376002492512e-05,3.362779102540372e-09,0.001739300038951141,3.362779102540372e-09,0.7570995014113178
3.364022670782798e-09,3.001041256330984,3.364022670782798e-09,6.795770975451185e-05,3.364022670782798e-09,6.796230913436685e-05,3.364022670782798e-09,0.001598141815888364,3.364022670782798e-09,0.75779037265711
