/net039 X,/net039 Y,/net010 X,/net010 Y,/net09 X,/net09 Y,/net08 X,/net08 Y,/net02 X,/net02 Y
0,6.795643765984456e-05,0,6.795643765971099e-05,0,6.795643765983804e-05,0,6.094256728411022e-05,0,0
1.5e-11,6.795643765968711e-05,1.5e-11,6.79564376597535e-05,1.5e-11,6.795643765948348e-05,1.5e-11,6.094256728415394e-05,1.5e-11,0
4.5e-11,6.795643765967052e-05,4.5e-11,6.795643765966431e-05,4.5e-11,6.795643765970586e-05,4.5e-11,6.094256728412006e-05,4.5e-11,0
1.05e-10,6.795643765994177e-05,1.05e-10,6.795643765700497e-05,1.05e-10,6.795643765985527e-05,1.05e-10,6.094256728443622e-05,1.05e-10,0
2.25e-10,6.795643765950778e-05,2.25e-10,6.795643766255179e-05,2.25e-10,6.795643766297034e-05,2.25e-10,6.094256728366667e-05,2.25e-10,0
4.65e-10,6.795643766002184e-05,4.65e-10,6.795643765697988e-05,4.65e-10,6.795643765672057e-05,4.65e-10,6.094256728468328e-05,4.65e-10,0
7.649999999999999e-10,6.795643765981027e-05,7.649999999999999e-10,6.7956437659759e-05,7.649999999999999e-10,6.79564376630015e-05,7.649999999999999e-10,6.094256728365935e-05,7.649999999999999e-10,0
1.065e-09,6.795643766261357e-05,1.065e-09,6.795643765971967e-05,1.065e-09,6.795643765363913e-05,1.065e-09,6.094256728445034e-05,1.065e-09,0
1.365e-09,6.79564376601291e-05,1.365e-09,6.795643765664923e-05,1.365e-09,6.795643766590798e-05,1.365e-09,6.094256728385796e-05,1.365e-09,0
1.665e-09,6.795643765945242e-05,1.665e-09,6.795643766294591e-05,1.665e-09,6.79564376538761e-05,1.665e-09,6.094256728442886e-05,1.665e-09,0
1.8325e-09,6.795643766020323e-05,1.8325e-09,6.79564376567538e-05,1.8325e-09,6.795643766559201e-05,1.8325e-09,6.094256728393681e-05,1.8325e-09,0
2e-09,6.795643765646676e-05,2e-09,6.795643765965511e-05,2e-09,6.795643765426775e-05,2e-09,6.094256728444734e-05,2e-09,0
2.120144127384571e-09,6.79564376596809e-05,2.120144127384571e-09,6.795643765976943e-05,2.120144127384571e-09,6.795643765986562e-05,2.120144127384571e-09,6.094256728487823e-05,2.120144127384571e-09,0.06674673743587282
2.261585129605973e-09,6.795643765684074e-05,2.261585129605973e-09,6.795643765689748e-05,2.261585129605973e-09,6.795643765956732e-05,2.261585129605973e-09,6.094256725808594e-05,2.261585129605973e-09,0.1453250720033182
2.400273538304042e-09,6.795643766278989e-05,2.400273538304042e-09,6.795643766280054e-05,2.400273538304042e-09,6.795643766034783e-05,2.400273538304042e-09,6.094256739552268e-05,2.400273538304042e-09,0.2223741879466899
2.455693803734297e-09,6.795643765694596e-05,2.455693803734297e-09,6.79564376571968e-05,2.455693803734297e-09,6.795643765925852e-05,2.455693803734297e-09,6.094256667304379e-05,2.455693803734297e-09,0.2531632242968317
2.483403936449425e-09,6.795643766251477e-05,2.483403936449425e-09,6.795643766202045e-05,2.483403936449425e-09,6.795643766363604e-05,2.483403936449425e-09,6.094256933981921e-05,2.483403936449425e-09,0.2685577424719024
2.538824201879679e-09,6.79564376573561e-05,2.538824201879679e-09,6.795643765765047e-05,2.538824201879679e-09,6.79564376531604e-05,2.538824201879679e-09,6.094256464458982e-05,2.538824201879679e-09,0.299346778822044
2.561274479319271e-09,6.795643766181252e-05,2.561274479319271e-09,6.795643766147256e-05,2.561274479319271e-09,6.795643767868397e-05,2.561274479319271e-09,6.094256992260176e-05,2.561274479319271e-09,0.3118191551773726
2.572499618039067e-09,6.79564376582294e-05,2.572499618039067e-09,6.795643765624401e-05,2.572499618039067e-09,6.79564376410496e-05,2.572499618039067e-09,6.09425675320925e-05,2.572499618039067e-09,0.3180553433550369
2.594949895478658e-09,6.795643766141056e-05,2.594949895478658e-09,6.795643766343709e-05,2.594949895478658e-09,6.795643766634004e-05,2.594949895478658e-09,6.09425656444194e-05,2.594949895478658e-09,0.3305277197103655
2.62019183797816e-09,6.795643765826644e-05,2.62019183797816e-09,6.795643765648664e-05,2.62019183797816e-09,6.795643766548877e-05,2.62019183797816e-09,6.09425694475406e-05,2.62019183797816e-09,0.3445510210989778
2.641152210962158e-09,6.795643766102763e-05,2.641152210962158e-09,6.795643766232591e-05,2.641152210962158e-09,6.795643764328523e-05,2.641152210962158e-09,6.09425651034441e-05,2.641152210962158e-09,0.3561956727567542
2.661831460741894e-09,6.795643765580793e-05,2.661831460741894e-09,6.79564376576009e-05,2.661831460741894e-09,6.795643767993004e-05,2.661831460741894e-09,6.094256914329242e-05,2.661831460741894e-09,0.3676841448566076
2.683150840004666e-09,6.795643766331107e-05,2.683150840004666e-09,6.795643766187148e-05,2.683150840004666e-09,6.795643763948644e-05,2.683150840004666e-09,6.094256583046157e-05,2.683150840004666e-09,0.3795282444470368
2.702706616568334e-09,6.795643765676888e-05,2.702706616568334e-09,6.795643765807749e-05,2.702706616568334e-09,6.795643768141606e-05,2.702706616568334e-09,6.094256831893536e-05,2.702706616568334e-09,0.3903925647601853
2.72585024936471e-09,6.795643766224587e-05,2.72585024936471e-09,6.795643766161075e-05,2.72585024936471e-09,6.795643764329462e-05,2.72585024936471e-09,6.094256655064103e-05,2.72585024936471e-09,0.4032501385359498
2.754017301164295e-09,6.795643765439729e-05,2.754017301164295e-09,6.795643765809505e-05,2.754017301164295e-09,6.795643767180476e-05,2.754017301164295e-09,6.094256781277286e-05,2.754017301164295e-09,0.4188985006468304
2.784554590448105e-09,6.795643766460951e-05,2.784554590448105e-09,6.795643766128509e-05,2.784554590448105e-09,6.795643764898564e-05,2.784554590448105e-09,6.094256691101595e-05,2.784554590448105e-09,0.4358636613600583
2.813120231787667e-09,6.795643765532923e-05,2.813120231787667e-09,6.795643765563096e-05,2.813120231787667e-09,6.79564376660936e-05,2.813120231787667e-09,6.094256752242029e-05,2.813120231787667e-09,0.4517334621042594
2.842920733337695e-09,6.795643765834686e-05,2.842920733337695e-09,6.795643766340432e-05,2.842920733337695e-09,6.79564376574889e-05,2.842920733337695e-09,6.094256714848962e-05,2.842920733337695e-09,0.4682892962987193
2.867243662813216e-09,6.795643766076384e-05,2.867243662813216e-09,6.795643765906765e-05,2.867243662813216e-09,6.795643766425106e-05,2.867243662813216e-09,6.094256732209583e-05,2.867243662813216e-09,0.481802034896231
2.895154013063976e-09,6.795643765893509e-05,2.895154013063976e-09,6.795643766341691e-05,2.895154013063976e-09,6.795643765925173e-05,2.895154013063976e-09,6.094256730959182e-05,2.895154013063976e-09,0.4973077850355422
2.921094972943617e-09,6.795643766051018e-05,2.921094972943617e-09,6.795643765959567e-05,2.921094972943617e-09,6.795643766004213e-05,2.921094972943617e-09,6.094256720707481e-05,2.921094972943617e-09,0.5117194294131207
2.9729768927029e-09,6.79564376592555e-05,2.9729768927029e-09,6.795643765727468e-05,2.9729768927029e-09,6.795643765979931e-05,2.9729768927029e-09,6.094256738140426e-05,2.9729768927029e-09,0.5405427181682776
3.015534443809132e-09,6.795643765747184e-05,3.015534443809132e-09,6.795643766481713e-05,3.015534443809132e-09,6.795643765960871e-05,3.015534443809132e-09,6.094256716601692e-05,3.015534443809132e-09,0.5641858021161845
3.058952952513304e-09,6.795643766200687e-05,3.058952952513304e-09,6.795643765522254e-05,3.058952952513304e-09,6.79564376606686e-05,3.058952952513304e-09,6.094256741930571e-05,3.058952952513304e-09,0.5883071958407246
3.070072085180765e-09,6.795643765824028e-05,3.070072085180765e-09,6.795643766231141e-05,3.070072085180765e-09,6.795643766063988e-05,3.070072085180765e-09,6.094256710786876e-05,3.070072085180765e-09,0.5944844917670917
3.092310350515687e-09,6.795643766442663e-05,3.092310350515687e-09,6.795643766003642e-05,3.092310350515687e-09,6.79564376596333e-05,3.092310350515687e-09,6.094256746831175e-05,3.092310350515687e-09,0.6068390836198261
3.099638279908454e-09,6.795643765744349e-05,3.099638279908454e-09,6.795643765972492e-05,3.099638279908454e-09,6.795643765669776e-05,3.099638279908454e-09,6.094256709746778e-05,3.099638279908454e-09,0.6109101555046965
3.114294138693988e-09,6.795643766025492e-05,3.114294138693988e-09,6.795643765737665e-05,3.114294138693988e-09,6.795643766238112e-05,3.114294138693988e-09,6.094256746124566e-05,3.114294138693988e-09,0.6190522992744376
3.118522099332292e-09,6.795643765907849e-05,3.118522099332292e-09,6.7956437660125e-05,3.118522099332292e-09,6.795643765437014e-05,3.118522099332292e-09,6.09425670829807e-05,3.118522099332292e-09,0.6214011662957176
3.1269780206089e-09,6.795643766082181e-05,3.1269780206089e-09,6.79564376592405e-05,3.1269780206089e-09,6.795643765936976e-05,3.1269780206089e-09,6.094256740696129e-05,3.1269780206089e-09,0.6260989003382776
3.135236705323199e-09,6.795643765900546e-05,3.135236705323199e-09,6.795643765810321e-05,3.135236705323199e-09,6.795643766944493e-05,3.135236705323199e-09,6.094256740495993e-05,3.135236705323199e-09,0.6306870585128883
3.143153413132642e-09,6.79564376634975e-05,3.143153413132642e-09,6.795643766267738e-05,3.143153413132642e-09,6.795643765496501e-05,3.143153413132642e-09,6.094256753869894e-05,3.143153413132642e-09,0.6350852295181343
3.152074375164442e-09,6.795643765932589e-05,3.152074375164442e-09,6.795643765758133e-05,3.152074375164442e-09,6.795643765771814e-05,3.152074375164442e-09,6.094256720670028e-05,3.152074375164442e-09,0.6400413195358012
3.155201714466542e-09,6.795643766347875e-05,3.155201714466542e-09,6.795643766176681e-05,3.155201714466542e-09,6.795643779695027e-05,3.155201714466542e-09,6.094256990715446e-05,3.155201714466542e-09,0.6417787302591903
3.161456393070743e-09,6.795643764996721e-05,3.161456393070743e-09,6.795643765977321e-05,3.161456393070743e-09,6.79564374262668e-05,3.161456393070743e-09,6.094256426213624e-05,3.161456393070743e-09,0.6452535517059681
3.169463697506125e-09,6.795643760940187e-05,3.169463697506125e-09,6.795643765654532e-05,3.169463697506125e-09,6.795643562240704e-05,3.169463697506125e-09,6.094250347013589e-05,3.169463697506125e-09,0.6497020541700695
3.178072358013618e-09,6.795643774095434e-05,3.178072358013618e-09,6.795643766349038e-05,3.178072358013618e-09,6.795643885084431e-05,3.178072358013618e-09,6.094252392657429e-05,3.178072358013618e-09,0.654484643340899
3.186324396059568e-09,6.795643914922629e-05,3.186324396059568e-09,6.795643767755029e-05,3.186324396059568e-09,6.795649502235627e-05,3.186324396059568e-09,6.094423111559821e-05,3.186324396059568e-09,0.6590691089219824
3.197057002091417e-09,6.795643613652156e-05,3.197057002091417e-09,6.795643760891803e-05,3.197057002091417e-09,6.795637092288291e-05,3.197057002091417e-09,6.094265579835461e-05,3.197057002091417e-09,0.6650316678285653
3.204665144158237e-09,6.795642159666472e-05,3.204665144158237e-09,6.795643728348465e-05,3.204665144158237e-09,6.795415561133085e-05,3.204665144158237e-09,6.087919224677161e-05,3.204665144158237e-09,0.6692584134212429
3.21231691284344e-09,6.795642601410608e-05,3.21231691284344e-09,6.795643876988468e-05,3.21231691284344e-09,6.795719043828108e-05,3.21231691284344e-09,6.088546673605808e-05,3.21231691284344e-09,0.6735093960241335
3.219485185536657e-09,6.795651816121211e-05,3.219485185536657e-09,6.795643870201068e-05,3.219485185536657e-09,6.796725522323257e-05,3.219485185536657e-09,6.117706126752182e-05,3.219485185536657e-09,0.6774917697425874
3.22544889291225e-09,6.795650946110931e-05,3.22544889291225e-09,6.795643162098113e-05,3.22544889291225e-09,6.794892311851587e-05,3.22544889291225e-09,6.102141692409286e-05,3.22544889291225e-09,0.6808049405068057
3.233703821916223e-09,6.79563722433057e-05,3.233703821916223e-09,6.7956443069741e-05,3.233703821916223e-09,6.79509626995606e-05,3.233703821916223e-09,6.080371009488349e-05,3.233703821916223e-09,0.6853910121756793
3.241677158156832e-09,6.79564375267468e-05,3.241677158156832e-09,6.795643715634427e-05,3.241677158156832e-09,6.796104701784747e-05,3.241677158156832e-09,6.091517525525836e-05,3.241677158156832e-09,0.6898206434204625
3.248880919924137e-09,6.795637021185328e-05,3.248880919924137e-09,6.795643496966371e-05,3.248880919924137e-09,6.795647377570725e-05,3.248880919924137e-09,6.093023404364937e-05,3.248880919924137e-09,0.6938227332911874
3.25609758991578e-09,6.795615836076642e-05,3.25609758991578e-09,6.795643860197254e-05,3.25609758991578e-09,6.795717444855747e-05,3.25609758991578e-09,6.09475713976672e-05,3.25609758991578e-09,0.6978319943976553
3.262547452564106e-09,6.795601216162639e-05,3.262547452564106e-09,6.795643556274715e-05,3.262547452564106e-09,6.795309630549849e-05,3.262547452564106e-09,6.084384903012827e-05,3.262547452564106e-09,0.7014152514245033
3.268229495642917e-09,6.795176614702866e-05,3.268229495642917e-09,6.795641805192105e-05,3.268229495642917e-09,6.795148920908501e-05,3.268229495642917e-09,6.061463294309041e-05,3.268229495642917e-09,0.7045719420238428
3.272394815392329e-09,6.792741121339233e-05,3.272394815392329e-09,6.795629120570718e-05,3.272394815392329e-09,6.795293510871557e-05,3.272394815392329e-09,5.996976651770145e-05,3.272394815392329e-09,0.7068860085512937
3.276425149691889e-09,6.790874755151571e-05,3.276425149691889e-09,6.795634172444092e-05,3.276425149691889e-09,6.79642200375644e-05,3.276425149691889e-09,5.923798505813795e-05,3.276425149691889e-09,0.7091250831621607
3.280090017943963e-09,6.806779797061955e-05,3.280090017943963e-09,6.795752735559332e-05,3.280090017943963e-09,6.79724070011321e-05,3.280090017943963e-09,6.181326021808799e-05,3.280090017943963e-09,0.7111611210799795
3.283575335449067e-09,6.888009896653735e-05,3.283575335449067e-09,6.796188290597872e-05,3.283575335449067e-09,6.797526280144117e-05,3.283575335449067e-09,7.887257023165179e-05,3.283575335449067e-09,0.7130974085828151
3.286969026354766e-09,6.962039739069685e-05,3.286969026354766e-09,6.796109475595014e-05,3.286969026354766e-09,6.797022945884316e-05,3.286969026354766e-09,0.0001044637090136299,3.286969026354766e-09,0.7149827924193146
3.289566125686426e-09,6.899295743952612e-05,3.289566125686426e-09,6.79507500706042e-05,3.289566125686426e-09,6.796990980933422e-05,3.289566125686426e-09,0.0001021963083621482,3.289566125686426e-09,0.7164256253813478
3.29197963255206e-09,6.779766433887483e-05,3.29197963255206e-09,6.794438707653709e-05,3.29197963255206e-09,6.796064413690924e-05,3.29197963255206e-09,3.271665220167234e-05,3.29197963255206e-09,0.7177664625289225
3.294896741655239e-09,6.66323685988908e-05,3.294896741655239e-09,6.794819698303636e-05,3.294896741655239e-09,6.7931754945143e-05,3.294896741655239e-09,-0.0002635334052619922,3.294896741655239e-09,0.719387078697355
3.29819717287853e-09,6.100902434081506e-05,3.29819717287853e-09,6.796173169053698e-05,3.29819717287853e-09,6.791663980056546e-05,3.29819717287853e-09,-0.0009385170357014595,3.29819717287853e-09,0.7212206515991835
3.302169210735826e-09,4.979939061440965e-05,3.302169210735826e-09,6.797830713733419e-05,3.302169210735826e-09,6.794693354140391e-05,3.302169210735826e-09,-0.00120775247460014,3.302169210735826e-09,0.7234273392976813
3.304962681883523e-09,4.928142312986772e-05,3.304962681883523e-09,6.796212070397959e-05,3.304962681883523e-09,6.795600587144337e-05,3.304962681883523e-09,-0.0009151235394079014,3.304962681883523e-09,0.7249792677130685
3.307666119016594e-09,5.964292056746324e-05,3.307666119016594e-09,6.79471754187898e-05,3.307666119016594e-09,6.795040433084483e-05,3.307666119016594e-09,-0.0005339716437623815,3.307666119016594e-09,0.7264811772314408
3.310466931155885e-09,8.274115471377609e-05,3.310466931155885e-09,6.795514564911737e-05,3.310466931155885e-09,6.794886582475379e-05,3.310466931155885e-09,-0.0002451492240317897,3.310466931155885e-09,0.7280371839754917
3.313075622867038e-09,0.000122531903397726,3.313075622867038e-09,6.797569111833549e-05,3.313075622867038e-09,6.794810378412949e-05,3.313075622867038e-09,-0.0003158589664383447,3.313075622867038e-09,0.7294864571483547
3.315488555356383e-09,0.0001896965576601772,3.315488555356383e-09,6.799180606618116e-05,3.315488555356383e-09,6.795360266095757e-05,3.315488555356383e-09,-0.000788247951376065,3.315488555356383e-09,0.7308269751979907
3.318235210678625e-09,0.0003533993562911095,3.318235210678625e-09,6.797693365900776e-05,3.318235210678625e-09,6.796291299719023e-05,3.318235210678625e-09,-0.001704601170627827,3.318235210678625e-09,0.7323528948214584
3.321381098451897e-09,0.0004062603115570316,3.321381098451897e-09,6.793468151553716e-05,3.321381098451897e-09,6.797718764453887e-05,3.321381098451897e-09,-0.002743860453932452,3.321381098451897e-09,0.7341006102510539
3.324145310156687e-09,-0.002795629373972868,3.324145310156687e-09,6.789808092608175e-05,3.324145310156687e-09,6.797929232393778e-05,3.324145310156687e-09,-0.00338574646199952,3.324145310156687e-09,0.7356362834203816
3.327048679116892e-09,-0.01073037157863207,3.327048679116892e-09,6.787857297107685e-05,3.327048679116892e-09,6.797552609509609e-05,3.327048679116892e-09,-0.003595154846134681,3.327048679116892e-09,0.7372492661760512
3.329986754653764e-09,-0.01154595544892403,3.329986754653764e-09,6.789235606616549e-05,3.329986754653764e-09,6.79701282854457e-05,3.329986754653764e-09,-0.003168603764390421,3.329986754653764e-09,0.7388815303632021
3.332613094506323e-09,0.02122567811560948,3.332613094506323e-09,6.792870663953205e-05,3.332613094506323e-09,6.795962474304365e-05,3.332613094506323e-09,-0.002361687140316297,3.332613094506323e-09,0.7403406080590683
3.335099742889927e-09,0.09846415920319977,3.335099742889927e-09,6.796132771192587e-05,3.335099742889927e-09,6.794350253581061e-05,3.335099742889927e-09,-0.001661228213204148,3.335099742889927e-09,0.7417220793832929
3.337226265251353e-09,0.1921447595338394,3.337226265251353e-09,6.799700175678377e-05,3.337226265251353e-09,6.794683619807301e-05,3.337226265251353e-09,-0.0009534613124584746,3.337226265251353e-09,0.7429034806951962
3.339777270726283e-09,0.3204036697363872,3.339777270726283e-09,6.802352392992648e-05,3.339777270726283e-09,6.79559226190067e-05,3.339777270726283e-09,0.000209534922941595,3.339777270726283e-09,0.7443207059590459
3.342584472454415e-09,0.4721268944911604,3.342584472454415e-09,6.800650083811344e-05,3.342584472454415e-09,6.794653162631116e-05,3.342584472454415e-09,0.001442580131756037,3.342584472454415e-09,0.7458802624746751
3.345277718541831e-09,0.6114460935845787,3.345277718541831e-09,6.798335736054617e-05,3.345277718541831e-09,6.794362540879735e-05,3.345277718541831e-09,0.00237974507661902,3.345277718541831e-09,0.747376510301017
3.3481428145938e-09,0.7317244567907041,3.3481428145938e-09,6.796453052553956e-05,3.3481428145938e-09,6.794362793299538e-05,3.3481428145938e-09,0.002932743632951975,3.3481428145938e-09,0.7489682303298886
3.350663741462837e-09,0.8041834217549054,3.350663741462837e-09,6.795897142653382e-05,3.350663741462837e-09,6.794925224163688e-05,3.350663741462837e-09,0.003061629108570856,3.350663741462837e-09,0.7503687452571318
3.353265385934259e-09,0.868108420911911,3.353265385934259e-09,6.796003201404541e-05,3.353265385934259e-09,6.79567739908908e-05,3.353265385934259e-09,0.002947008098079703,3.353265385934259e-09,0.7518141032968103
3.356105814204422e-09,1.005447839079977,3.356105814204422e-09,6.796085087724886e-05,3.356105814204422e-09,6.796164597233512e-05,3.356105814204422e-09,0.002635822627266292,3.356105814204422e-09,0.7533921190024567
3.358737778795075e-09,1.335142514726989,3.358737778795075e-09,6.796133175036139e-05,3.358737778795075e-09,6.796407870956872e-05,3.358737778795075e-09,0.002266565150051613,3.358737778795075e-09,0.7548543215528193
3.360808048656717e-09,1.841854399935792,3.360808048656717e-09,6.79606925286003e-05,3.360808048656717e-09,6.796444714712212e-05,3.360808048656717e-09,0.00198256181822333,3.360808048656717e-09,0.7560044714759541
3.362779102540473e-09,2.52279607687232,3.362779102540473e-09,6.79594499076997e-05,3.362779102540473e-09,6.796376002481191e-05,3.362779102540473e-09,0.001739300038555487,3.362779102540473e-09,0.7570995014113737
3.364022670782898e-09,3.001041256323536,3.364022670782898e-09,6.795770975347584e-05,3.364022670782898e-09,6.796230913392054e-05,3.364022670782898e-09,0.001598141815529259,3.364022670782898e-09,0.7577903726571655
