/out0 X,/out0 Y,/Vin X,/Vin Y
0,1.412521050651453,0,0.65
5e-06,1.412530901697908,5e-06,0.6531410759078129
1.474016270464712e-05,1.412543723402334,1.474016270464712e-05,0.6592482828308591
2.639175642628434e-05,1.412552886130137,2.639175642628434e-05,0.6665065376006715
4.639175642628435e-05,1.412565090532112,4.639175642628435e-05,0.6787377777148451
6.639175642628434e-05,1.412572320745173,6.639175642628434e-05,0.6905158059073394
8.639175642628434e-05,1.412577974389153,8.639175642628434e-05,0.7016548756377057
0.0001063917564262843,1.412581890201965,0.0001063917564262843,0.7119793171221382
0.0001263917564262844,1.412585091847084,0.0001263917564262844,0.7213263077509053
0.0001463917564262843,1.412587248950629,0.0001463917564262843,0.7295484398981698
0.0001663917564262843,1.412589103594598,0.0001663917564262843,0.7365160456283053
0.0001863917564262843,1.412590213020025,0.0001863917564262843,0.7421192416367021
0.0002063917564262843,1.412591189772752,0.0002063917564262843,0.7462696621751204
0.0002263917564262843,1.412591560828145,0.0002263917564262843,0.7489018526323284
0.0002463917564262843,1.412591860261187,0.0002463917564262843,0.7499743017924217
0.0002663917564262843,1.41259161067886,0.0002663917564262843,0.7494700964914954
0.0002863917564262843,1.412591279548713,0.0002863917564262843,0.7473971883483428
0.0003063917564262843,1.412590392838373,0.0003063917564262843,0.7437882683626768
0.0003263917564262843,1.41258934514627,0.0003263917564262843,0.7387002513585355
0.0003463917564262843,1.412587659562723,0.0003463917564262843,0.7322133784035082
0.0003663917564262843,1.412585630791104,0.0003663917564262843,0.7244299513591659
0.0003863917564262843,1.412582747791731,0.0003863917564262843,0.7154727195195919
0.0004063917564262843,1.412579128956388,0.0004063917564262843,0.705482943781687
0.0004263917564262843,1.41257411362964,0.0004263917564262843,0.6946181688764408
0.0004463917564262843,1.412567365640149,0.0004463917564262843,0.6830497387944111
0.0004663917564262843,1.412557442446857,0.0004663917564262843,0.6709600945886365
0.0004863917564262843,1.412541385480695,0.0004863917564262843,0.6585398971702455
0.0005063917564262844,1.412500521090617,0.0005063917564262844,0.6459850204719924
0.0005113917564262844,1.412462256483729,0.0005113917564262844,0.6428484584520191
0.0005148649191681526,1.412375190841554,0.0005148649191681526,0.6406736691644894
0.0005192903123622122,1.412161738979034,0.0005192903123622122,0.637909193542012
0.0005233026691677642,1.411892729060588,0.0005233026691677642,0.63541075758974
0.0005272434906168045,1.411605040742327,0.0005272434906168045,0.632965881907996
0.0005277104454768542,1.411562716121963,0.0005277104454768542,0.6326768471932233
0.0005286443551969537,1.411461995646271,0.0005286443551969537,0.6320992276107189
0.0005288898916214076,1.411455824228536,0.0005288898916214076,0.6319474657904348
0.0005293809644703155,1.411399128766564,0.0005293809644703155,0.6316440714103816
0.0005300840180152016,1.41133735670656,0.0005300840180152016,0.6312100161363123
0.0005302658477806753,1.411316529078354,0.0005302658477806753,0.6310978163578075
0.0005306295073116227,1.41127717537727,0.0005306295073116227,0.6308734909627476
0.0005307384489208567,1.41126636832557,0.0005307384489208567,0.6308063091128238
0.0005309563321393245,1.411234235717281,0.0005309563321393245,0.6306719724235238
0.0005311289576645352,1.411102793237021,0.0005311289576645352,0.6305655652358556
0.0005311896466614653,1.410957090634099,0.0005311896466614653,0.6305281616774917
0.0005313110246553255,1.410250945325281,0.0005313110246553255,0.6304533630601165
0.0005314564162855419,1.408177637141845,0.0005314564162855419,0.6303637811211764
0.0005316006419362298,1.405205195948474,0.0005316006419362298,0.6302749337816786
0.0005317703925118873,1.403082408877842,0.0005317703925118873,0.6301703830778791
0.0005318354780401822,1.402937704574546,0.0005318354780401822,0.6301303023694234
0.000531965649096772,1.40274515970644,0.000531965649096772,0.6300501509279738
0.0005321362983554666,1.40186616080028,0.0005321362983554666,0.6299450956885222
0.0005323883172603774,1.399861759048361,0.0005323883172603774,0.6297899898024668
0.0005326760765064003,1.397945655879791,0.0005326760765064003,0.6296129493894485
0.0005331374249338817,1.394766726081899,0.0005331374249338817,0.6293292496420456
0.0005336647070726798,1.390649041781177,0.0005336647070726798,0.6290052177199449
0.0005345911904652492,1.38339440295315,0.0005345911904652492,0.6284364240712844
0.0005359439255576236,1.371462224261531,0.0005359439255576236,0.6276072604227858
0.0005381680241718768,1.34962892920195,0.0005381680241718768,0.626247535710066
0.0005412780271017145,1.312600595193695,0.0005412780271017145,0.6243540413072542
0.0005449239910587602,1.256900175171155,0.0005449239910587602,0.6221467541149817
0.0005501616658425359,1.129562410848757,0.0005501616658425359,0.6190017104404776
0.000554623531532939,0.9162175545190799,0.000554623531532939,0.6163488604596856
0.0005579385878694444,0.6759230455010419,0.0005579385878694444,0.6143948671523853
0.0005598087121926348,0.5418765200209522,0.0005598087121926348,0.6132993208262417
0.0005620422520583552,0.421748780543547,0.0005620422520583552,0.6119975330668663
0.0005639349509323283,0.3659869241155548,0.0005639349509323283,0.6109002478719584
0.0005664019766680725,0.329965877460105,0.0005664019766680725,0.6094783232797703
0.0005685694371840481,0.3089872156198731,0.0005685694371840481,0.6082370828850666
0.0005707724105279132,0.2952376594782206,0.0005707724105279132,0.6069834434691576
0.0005751783572156434,0.2752834587328245,0.0005751783572156434,0.6045011277802099
0.0005791775848075911,0.2637666605453245,0.0005791775848075911,0.6022780953391789
0.0005871760399914864,0.2474299032739597,0.0005871760399914864,0.5979238066217115
0.0005951065087664133,0.2382781411439547,0.0005951065087664133,0.5937363253892114
0.0006109674463162672,0.2248573927125433,0.0006109674463162672,0.585790413937102
0.0006251496831928548,0.2182695222058273,0.0006251496831928548,0.5792228506731522
0.0006451496831928549,0.2104561078300762,0.0006451496831928549,0.5709268905899645
0.0006651496831928549,0.2063354820284382,0.0006651496831928549,0.5638779606781592
0.000685149683192855,0.2020899028413466,0.000685149683192855,0.5581872267732718
0.000705149683192855,0.200590900057894,0.000705149683192855,0.5539444351484623
0.0007251496831928551,0.1984127377307739,0.0007251496831928551,0.5512164971621745
0.0007451496831928551,0.1986397033455987,0.0007451496831928551,0.5500464340260435
0.0007651496831928552,0.1980421307038226,0.0007651496831928552,0.5504526983346878
0.0007851496831928552,0.1998018354958975,0.0007851496831928552,0.5524288830572698
0.0008051496831928553,0.2008486599400919,0.0008051496831928553,0.5559438225801986
0.0008251496831928553,0.2044792861314985,0.0008251496831928553,0.5609420842074746
0.0008451496831928554,0.2078428285878417,0.0008451496831928554,0.567344842367419
0.0008651496831928554,0.2145338042041043,0.0008651496831928554,0.5750511217390269
0.0008851496831928555,0.2225178628377342,0.0008851496831928555,0.5839393896931002
0.0009051496831928555,0.2383006326187734,0.0009051496831928555,0.5938694729344089
0.0009251496831928556,0.2757569671080976,0.0009251496831928556,0.6046847681182936
0.0009301496831928556,0.2993763122837747,0.0009301496831928556,0.6075071874909329
0.0009344747925170069,0.3369143334897534,0.0009344747925170069,0.6099825709114843
0.000936258569383784,0.3656089330298488,0.000936258569383784,0.6110121893884392
0.0009387039069658646,0.4373452815005807,0.0009387039069658646,0.6124316016587492
0.0009412807934821802,0.5843339906627473,0.0009412807934821802,0.6139369628339902
0.0009435025318679087,0.7507537808435952,0.0009435025318679087,0.6152424579336525
0.000945996274588297,0.9310365661481591,0.000945996274588297,0.6167158382562417
0.000947867567399222,1.040846117024812,0.000947867567399222,0.6178268422245924
0.0009500127407111625,1.129197093114594,0.0009500127407111625,0.6191059140828343
0.0009527294149585943,1.206501332785199,0.0009527294149585943,0.6207337714010858
0.0009551892491452334,1.256801408831649,0.0009551892491452334,0.6222150964097192
0.0009581599479908878,1.303900443303354,0.0009581599479908878,0.6240128817276936
0.0009617072397793513,1.347540465658094,0.0009617072397793513,0.6261714119863769
0.0009665615367617173,1.391289124249666,0.0009665615367617173,0.6291442238530931
0.0009676334791020899,1.399060732121856,0.0009676334791020899,0.6298034024510795
0.0009681694502722761,1.4018663028965,0.0009681694502722761,0.6301333371867981
0.0009692413926126486,1.407296349115467,0.0009692413926126486,0.6307938788231747
0.0009703663732247312,1.409867114572322,0.0009703663732247312,0.6314880396174531
0.0009704312274392599,1.409957278267402,0.0009704312274392599,0.6315280859504564
0.0009704636545465243,1.409971233284707,0.0009704636545465243,0.6315481102675894
0.0009704980805650609,1.410031045807724,0.0009704980805650609,0.6315693697863293
0.0009705301617432673,1.410064382370061,0.0009705301617432673,0.6315891820434936
0.0009705598603629268,1.410106036042087,0.0009705598603629268,0.6316075235793979
0.0009705936912644931,1.410147745923667,0.0009705936912644931,0.6316284179467286
0.0009706327925279449,1.410194514636809,0.0009706327925279449,0.6316525683863623
0.000970682618563932,1.410253859887457,0.000970682618563932,0.6316833444612684
0.0009707527490669279,1.410328456553685,0.0009707527490669279,0.6317266650483583
0.0009708558738138947,1.410432349070887,0.0009708558738138947,0.6317903730810567
0.0009710182503442966,1.410569618994483,0.0009710182503442966,0.6318907009515884
0.000971289568416071,1.41075816266866,0.000971289568416071,0.6320583827329019
0.0009717492681030276,1.410982809796014,0.0009717492681030276,0.6323426081157113
0.0009726012710603395,1.411248948477074,0.0009726012710603395,0.6328697764314501
0.0009737740929410553,1.411467303392617,0.0009737740929410553,0.6335962481380411
0.0009755558182594424,1.411694321043593,0.0009755558182594424,0.6347015794902936
0.0009776295614959297,1.411885820171774,0.0009776295614959297,0.6359904752217951
0.0009806785388417455,1.412111563622342,0.0009806785388417455,0.6378897659891624
0.0009845448224605907,1.412314384215971,0.0009845448224605907,0.6403044803234796
0.0009895508151346777,1.41243379515729,0.0009895508151346777,0.6434392991728658
0.0009905036251467581,1.412441498248896,0.0009905036251467581,0.6440367915528964
0.000992409245170919,1.412461425122512,0.000992409245170919,0.6452323960597136
0.0009948253588804967,1.412469016938368,0.0009948253588804967,0.6467492498988847
0.0009977880715374297,1.412489539193674,0.0009977880715374297,0.6486102490984901
0.001001228918447533,1.412492399476316,0.001001228918447533,0.650772144560484
0.001006378176049047,1.412513524566604,0.001006378176049047,0.6540064535909681
0.001011984701409681,1.41251631141,0.001011984701409681,0.6575230954399688
0.001020880906683865,1.412535992930175,0.001020880906683865,0.6630822541326439
0.001031806483413934,1.412540204151593,0.001031806483413934,0.6698518426863981
0.001051806483413934,1.412560251006593,0.001051806483413934,0.6819791795478052
0.001071806483413934,1.412563274050145,0.001071806483413934,0.6936021856443076
0.001091806483413934,1.41257547299709,0.001091806483413934,0.7045375592265162
0.001111806483413934,1.412574331159234,0.001111806483413934,0.7146128429205637
0.001131806483413934,1.412583695971887,0.001131806483413934,0.7236691434839125
0.001151806483413934,1.412580936236009,0.001151806483413934,0.731563637646707
0.001171806483413934,1.41258854343024,0.001171806483413934,0.7381718245200574
0.001191806483413934,1.412584411722644,0.001191806483413934,0.7433894890494315
0.001211806483413934,1.41259120543217,0.001211806483413934,0.7471343455483196
0.001231806483413934,1.412586086241398,0.001231806483413934,0.7493473353926652
0.001251806483413934,1.412592270709703,0.001251806483413934,0.749993558410647
0.001271806483413934,1.412586353287105,0.001271806483413934,0.7490628232792363
0.001291806483413934,1.412591930943488,0.001291806483413934,0.74656980824745
0.001311806483413934,1.412585256089042,0.001311806483413934,0.7425538296515941
0.001331806483413934,1.412589778985981,0.001331806483413934,0.7370782218731549
0.001351806483413934,1.412582768562306,0.001351806483413934,0.7302293385177675
0.001356806483413934,1.412587921554487,0.001356806483413934,0.7283147480058679
0.001366806483413934,1.412580965787904,0.001366806483413934,0.7242556711212064
0.001377565373951599,1.412585517136316,0.001377565373951599,0.7195617762739154
0.001389199572295597,1.412577934676537,0.001389199572295597,0.7141291004804989
0.001409199572295597,1.412580004308373,0.001409199572295597,0.7040066324756837
0.001429199572295597,1.412569188846563,0.001429199572295597,0.6930324476147284
0.001449199572295597,1.412567781051731,0.001449199572295597,0.6813796153485505
0.001469199572295597,1.412551996773576,0.001469199572295597,0.6692319078030526
0.001474199572295597,1.412553881551906,0.001474199572295597,0.6661399783095683
0.001484199572295597,1.412539511436712,0.001484199572295597,0.6599114017729716
0.001493874493571558,1.412533502897715,0.001493874493571558,0.6538478190708652
0.001504506666608822,1.412503559568034,0.001504506666608822,0.6471687562458069
0.001508472849703864,1.41249043252064,0.001508472849703864,0.6446788658127981
0.001512472754283691,1.412439774354099,0.001512472754283691,0.6421711567584093
0.00151565185354884,1.412346567234322,0.00151565185354884,0.6401814947703871
0.001518898811155605,1.412183876953097,0.001518898811155605,0.6381534127037621
0.001523304640653712,1.411907142111321,0.001523304640653712,0.6354095321234512
0.001526779299521054,1.411630835782124,0.001526779299521054,0.6332533512515583
0.001528335480887604,1.411501398984098,0.001528335480887604,0.632290197947137
0.001529113571570879,1.411424034693864,0.001529113571570879,0.631809250469953
0.001529502616912517,1.411393377852783,0.001529502616912517,0.6315689390559396
0.001530280707595792,1.41131071538282,0.001530280707595792,0.6310886480567305
0.001530447669550741,1.411297194653618,0.001530447669550741,0.6309856461831602
0.00153078159346064,1.411251370838885,0.00153078159346064,0.630779705325919
0.001531081267492527,1.41101591586445,0.001531081267492527,0.6305949594023814
0.001531151035544036,1.410836109466567,0.001531151035544036,0.6305519579732546
0.001531290571647055,1.409904741960097,0.001531290571647055,0.630465966334927
0.001531475642540215,1.407066284898761,0.001531475642540215,0.6303519362368151
0.001531648377663241,1.40418675123502,0.001531648377663241,0.6302455307020862
0.001531862711950451,1.402897070848023,0.001531862711950451,0.6301135322779765
0.001532077999961052,1.402313518567649,0.001532077999961052,0.6299809828080695
0.001532287288942895,1.400696319901986,0.001532287288942895,0.6298521619580234
0.001532602797230023,1.398340609317151,0.001532602797230023,0.6296580272804375
0.001532944103311409,1.39620635740353,0.001532944103311409,0.6294481090587312
0.001533451005926383,1.392293535420582,0.001533451005926383,0.6291365164129697
0.001534219069520173,1.386403182322035,0.001534219069520173,0.6286647926340557
0.001535344529708423,1.376863411088673,0.001535344529708423,0.6279744661418869
0.001536771455933971,1.3637668476767,0.001536771455933971,0.6271008164971233
0.001539625308385069,1.33322636318283,0.001539625308385069,0.6253591093454943
0.001542624693565216,1.294006943564461,0.001542624693565216,0.6235371326619393
0.001547188750818019,1.211206390859924,0.001547188750818019,0.6207829419359321
0.001552509287645254,1.03556390035139,0.001552509287645254,0.6176027372599819
0.001556408602188947,0.7910189758500726,0.001556408602188947,0.6152948181991571
0.001559544866907045,0.5598421476101225,0.001559544866907045,0.6134535817308123
0.00156142727925879,0.448616515972997,0.00156142727925879,0.6123552256308571
0.001563398249826452,0.3784046055977217,0.001563398249826452,0.6112108434079471
0.001565435172436657,0.3409128949901589,0.001565435172436657,0.6100344208997273
0.001567761483038492,0.3164321269565279,0.001567761483038492,0.6086988810744062
0.001569900138654501,0.2994240637185415,0.001569900138654501,0.6074788523536373
0.001572625742813805,0.2862461567670367,0.001572625742813805,0.605935146700762
0.001577798579052797,0.2667999887802773,0.001577798579052797,0.6030413041505227
0.001582036366933839,0.2574876618734079,0.001582036366933839,0.6007073834168288
0.001590511942695923,0.2428313099186046,0.001590511942695923,0.5961460090493601
0.001598602762021316,0.2347724439830061,0.001598602762021316,0.5919339752674994
0.001613430208684132,0.2230964927063454,0.001613430208684132,0.5846118744957495
0.001628485007812576,0.2171818984383661,0.001628485007812576,0.5777580488099964
0.001648485007812576,0.2091432515511284,0.001648485007812576,0.5696614687831201
0.001668485007812576,0.205998472429567,0.001668485007812576,0.5628318753854463
0.001688485007812577,0.2012414694036854,0.001688485007812577,0.5573769753846578
0.001708485007812577,0.2006481190245822,0.001708485007812577,0.553382795812366
0.001728485007812577,0.1978575441816328,0.001728485007812577,0.5509123272664336
0.001748485007812577,0.1989703154110467,0.001748485007812577,0.5500045305116159
0.001768485007812577,0.1977445865479345,0.001768485007812577,0.5506737220450282
0.001788485007812577,0.2003871995086096,0.001788485007812577,0.5529093483164327
0.001808485007812577,0.2008588195833895,0.001808485007812577,0.5566761521640311
0.001828485007812577,0.2053917175016028,0.001828485007812577,0.5619147288409672
0.001848485007812577,0.2083349569159939,0.001848485007812577,0.5685424628636717
0.001868485007812577,0.2160248195005602,0.001868485007812577,0.57645483090739
0.001888485007812577,0.2241452754723293,0.001888485007812577,0.5855270502014533
0.001908485007812577,0.2422388025246635,0.001908485007812577,0.5956160464281131
0.001928485007812577,0.2900310779888281,0.001928485007812577,0.6065627100900008
0.001933485007812577,0.3258258692355589,0.001933485007812577,0.6094134149272098
0.001935985007812577,0.3600736748539788,0.001935985007812577,0.6108539650263215
0.00193821978808876,0.4178181664183387,0.00193821978808876,0.6121498769419434
0.001941024574372404,0.5687617122719736,0.001941024574372404,0.6137868554366329
0.001943157310635032,0.7226778620448282,0.001943157310635032,0.6150391547912221
0.001945625004176793,0.9071408387266391,0.001945625004176793,0.6164959537003458
0.00194770570312713,1.031989501741585,0.00194770570312713,0.6177305639773365
0.001949595735295421,1.114818038071336,0.001949595735295421,0.6188568254929421
0.001952487748495813,1.200390204672827,0.001952487748495813,0.6205886100153999
0.00195537078185235,1.260358227687191,0.00195537078185235,0.6223246836683619
0.001958096584260483,1.302805938124385,0.001958096584260483,0.623974439012314
0.001961723143977392,1.347666393505574,0.001961723143977392,0.6261811171627002
0.001964985979998806,1.378775343959004,0.001964985979998806,0.628177079068328
0.00196598088009523,1.387136084725448,0.00196598088009523,0.628787548857244
0.001966478330143442,1.390762181714105,0.001966478330143442,0.6290930960857053
0.001966720916118926,1.392617064379162,0.001966720916118926,0.6292421732020405
0.001966821334199864,1.393384348843901,0.001966821334199864,0.6293038975715175
0.001966945803718039,1.394219153292078,0.001966945803718039,0.6293804171633297
0.001966973726014699,1.394425558731177,0.001966973726014699,0.6293975845674429
0.00196702957060802,1.394785014753024,0.00196702957060802,0.6294319212775389
0.001967072838986294,1.395107362536466,0.001967072838986294,0.6294585270940775
0.001967108241003767,1.395337418171192,0.001967108241003767,0.6294802969982287
0.001967117364750779,1.39541911585864,0.001967117364750779,0.6294859076650461
0.001967135612244801,1.395533945736239,0.001967135612244801,0.6294971292009081
0.001967150322885094,1.395649668467914,0.001967150322885094,0.6295061758983892
0.001967163327446354,1.395730591334509,0.001967163327446354,0.6295141735432326
