/net039 X,/net039 Y,/net010 X,/net010 Y,/net09 X,/net09 Y,/net08 X,/net08 Y,/net02 X,/net02 Y
0,7.369521627095398e-05,0,7.369521627108145e-05,0,7.369521627113638e-05,0,6.437806357481421e-05,0,0
1.5e-11,7.369521627092237e-05,1.5e-11,7.369521627107506e-05,1.5e-11,7.369521627114039e-05,1.5e-11,6.437806357493296e-05,1.5e-11,0
4.5e-11,7.369521627107203e-05,4.5e-11,7.369521627102002e-05,4.5e-11,7.36952162709724e-05,4.5e-11,6.437806357505616e-05,4.5e-11,0
1.05e-10,7.369521627231483e-05,1.05e-10,7.369521626939693e-05,1.05e-10,7.369521627242418e-05,1.05e-10,6.437806357449533e-05,1.05e-10,0
2.25e-10,7.369521626937236e-05,2.25e-10,7.369521627250516e-05,2.25e-10,7.369521626979708e-05,2.25e-10,6.437806357559642e-05,2.25e-10,0
4.65e-10,7.369521626939385e-05,4.65e-10,7.369521626935108e-05,4.65e-10,7.369521627253211e-05,4.65e-10,6.437806357400832e-05,4.65e-10,0
7.649999999999999e-10,7.369521627218528e-05,7.649999999999999e-10,7.369521626965022e-05,7.649999999999999e-10,7.369521626971293e-05,7.649999999999999e-10,6.437806357575458e-05,7.649999999999999e-10,0
1.065e-09,7.369521626978088e-05,1.065e-09,7.36952162722899e-05,1.065e-09,7.369521627226199e-05,1.065e-09,6.437806357413473e-05,1.065e-09,0
1.365e-09,7.369521627208355e-05,1.365e-09,7.369521627241287e-05,1.365e-09,7.36952162696689e-05,1.365e-09,6.437806357558341e-05,1.365e-09,0
1.665e-09,7.369521627001012e-05,1.665e-09,7.369521627268084e-05,1.665e-09,7.369521626971071e-05,1.665e-09,6.437806357405158e-05,1.665e-09,0
1.8325e-09,7.369521627488738e-05,1.8325e-09,7.369521626946812e-05,1.8325e-09,7.369521627560281e-05,1.8325e-09,6.43780635755662e-05,1.8325e-09,0
2e-09,7.369521626702618e-05,2e-09,7.36952162754884e-05,2e-09,7.369521626365423e-05,2e-09,6.437806357426671e-05,2e-09,0
2.120144127384571e-09,7.369521627078778e-05,2.120144127384571e-09,7.369521627088135e-05,2.120144127384571e-09,7.369521627100835e-05,2.120144127384571e-09,6.437806357519704e-05,2.120144127384571e-09,0.06674673743587282
2.261585129605973e-09,7.369521627285232e-05,2.261585129605973e-09,7.369521627240064e-05,2.261585129605973e-09,7.369521626953245e-05,2.261585129605973e-09,6.437806354940891e-05,2.261585129605973e-09,0.1453250720033182
2.400273538304042e-09,7.369521626896547e-05,2.400273538304042e-09,7.369521627265986e-05,2.400273538304042e-09,7.369521627239488e-05,2.400273538304042e-09,6.43780636913528e-05,2.400273538304042e-09,0.2223741879466899
2.455450261565143e-09,7.369521627266988e-05,2.455450261565143e-09,7.369521626924731e-05,2.455450261565143e-09,7.369521626938836e-05,2.455450261565143e-09,6.43780629193296e-05,2.455450261565143e-09,0.2530279230917458
2.483038623195693e-09,7.369521626982353e-05,2.483038623195693e-09,7.369521627243359e-05,2.483038623195693e-09,7.369521627599965e-05,2.483038623195693e-09,6.437806573134151e-05,2.483038623195693e-09,0.2683547906642736
2.538215346456793e-09,7.369521627213492e-05,2.538215346456793e-09,7.369521626963445e-05,2.538215346456793e-09,7.369521625871079e-05,2.538215346456793e-09,6.437806085915951e-05,2.538215346456793e-09,0.2990085258093292
2.560737121399855e-09,7.369521626975751e-05,2.560737121399855e-09,7.369521627203705e-05,2.560737121399855e-09,7.369521629184555e-05,2.560737121399855e-09,6.437806610297829e-05,2.560737121399855e-09,0.3115206229999192
2.571998008871386e-09,7.369521627209217e-05,2.571998008871386e-09,7.369521626976137e-05,2.571998008871386e-09,7.36952162522866e-05,2.571998008871386e-09,6.437806416691167e-05,2.571998008871386e-09,0.3177766715952141
2.594519783814447e-09,7.369521626729465e-05,2.594519783814447e-09,7.369521627250628e-05,2.594519783814447e-09,7.369521627610318e-05,2.594519783814447e-09,6.437806166237891e-05,2.594519783814447e-09,0.3302887687858039
2.619292015545713e-09,7.369521627120547e-05,2.619292015545713e-09,7.369521626703658e-05,2.619292015545713e-09,7.369521628041837e-05,2.619292015545713e-09,6.437806588414486e-05,2.619292015545713e-09,0.3440511197476182
2.640503769767036e-09,7.369521627045015e-05,2.640503769767036e-09,7.369521627401731e-05,2.640503769767036e-09,7.369521625009166e-05,2.640503769767036e-09,6.437806140146978e-05,2.640503769767036e-09,0.3558354276483532
2.660686031888319e-09,7.369521627433138e-05,2.660686031888319e-09,7.369521626832056e-05,2.660686031888319e-09,7.369521629501074e-05,2.660686031888319e-09,6.437806531250085e-05,2.660686031888319e-09,0.3670477954935103
2.682055619276536e-09,7.36952162685541e-05,2.682055619276536e-09,7.369521627336307e-05,2.682055619276536e-09,7.369521624721673e-05,2.682055619276536e-09,6.437806229041679e-05,2.682055619276536e-09,0.3789197884869646
2.701703988604042e-09,7.369521627590371e-05,2.701703988604042e-09,7.369521626889547e-05,2.701703988604042e-09,7.369521628962021e-05,2.701703988604042e-09,6.437806443060262e-05,2.701703988604042e-09,0.3898355492244676
2.725079201383478e-09,7.369521626945302e-05,2.725079201383478e-09,7.369521627263339e-05,2.725079201383478e-09,7.369521625472563e-05,2.725079201383478e-09,6.437806300643816e-05,2.725079201383478e-09,0.4028217785463767
2.753399842659639e-09,7.369521627553869e-05,2.753399842659639e-09,7.369521626959352e-05,2.753399842659639e-09,7.36952162852845e-05,2.753399842659639e-09,6.437806395440667e-05,2.753399842659639e-09,0.418555468144244
2.784176825806156e-09,7.369521626984297e-05,2.784176825806156e-09,7.36952162723034e-05,2.784176825806156e-09,7.369521625907885e-05,2.784176825806156e-09,6.437806333319947e-05,2.784176825806156e-09,0.4356537921145309
2.81289547710254e-09,7.369521627185489e-05,2.81289547710254e-09,7.369521626978946e-05,2.81289547710254e-09,7.369521627814731e-05,2.81289547710254e-09,6.437806369999671e-05,2.81289547710254e-09,0.4516085983902999
2.842817606890698e-09,7.369521626734682e-05,2.842817606890698e-09,7.369521627209354e-05,2.842817606890698e-09,7.369521626796296e-05,2.842817606890698e-09,6.437806353690801e-05,2.842817606890698e-09,0.4682320038281654
2.86713958582422e-09,7.369521627156181e-05,2.86713958582422e-09,7.369521626992934e-05,2.86713958582422e-09,7.369521627308973e-05,2.86713958582422e-09,6.437806353351055e-05,2.86713958582422e-09,0.4817442143467888
2.895104265130604e-09,7.369521627298211e-05,2.895104265130604e-09,7.36952162721348e-05,2.895104265130604e-09,7.369521627019054e-05,2.895104265130604e-09,6.437806366624994e-05,2.895104265130604e-09,0.4972801472947799
2.921090929981972e-09,7.369521626639091e-05,2.921090929981972e-09,7.369521627281643e-05,2.921090929981972e-09,7.369521627107848e-05,2.921090929981972e-09,6.437806344502354e-05,2.921090929981972e-09,0.5117171833233176
2.973064259684707e-09,7.369521627817258e-05,2.973064259684707e-09,7.369521626660196e-05,2.973064259684707e-09,7.369521627152584e-05,2.973064259684707e-09,6.437806371940182e-05,2.973064259684707e-09,0.5405912553803929
3.015890532229485e-09,7.369521626452813e-05,3.015890532229485e-09,7.369521627161853e-05,3.015890532229485e-09,7.369521626735433e-05,3.015890532229485e-09,6.437806341520042e-05,3.015890532229485e-09,0.5643836290163806
3.059187524506209e-09,7.36952162769167e-05,3.059187524506209e-09,7.369521627023941e-05,3.059187524506209e-09,7.369521627507107e-05,3.059187524506209e-09,6.437806374614913e-05,3.059187524506209e-09,0.5884375136145604
3.07030010981328e-09,7.36952162673283e-05,3.07030010981328e-09,7.369521626906564e-05,3.07030010981328e-09,7.36952162677692e-05,3.07030010981328e-09,6.437806337847846e-05,3.07030010981328e-09,0.5946111721184891
3.092525280427424e-09,7.369521627451145e-05,3.092525280427424e-09,7.369521627305225e-05,3.092525280427424e-09,7.369521627500918e-05,3.092525280427424e-09,6.437806377485962e-05,3.092525280427424e-09,0.6069584891263464
3.099684254192764e-09,7.369521626933598e-05,3.099684254192764e-09,7.369521627005115e-05,3.099684254192764e-09,7.369521626833274e-05,3.099684254192764e-09,6.437806338372333e-05,3.099684254192764e-09,0.6109356967737576
3.114002201723444e-09,7.369521627005076e-05,3.114002201723444e-09,7.36952162722112e-05,3.114002201723444e-09,7.369521627185266e-05,3.114002201723444e-09,6.437806375312814e-05,3.114002201723444e-09,0.61889011206858
3.124927069161252e-09,7.36952162713868e-05,3.124927069161252e-09,7.369521627237728e-05,3.124927069161252e-09,7.369521626897032e-05,3.124927069161252e-09,6.437806336895924e-05,3.124927069161252e-09,0.6249594828673621
3.135313259469693e-09,7.369521627089775e-05,3.135313259469693e-09,7.369521627060608e-05,3.135313259469693e-09,7.369521627732364e-05,3.135313259469693e-09,6.43780638594493e-05,3.135313259469693e-09,0.6307295885942737
3.147649716046268e-09,7.369521626873115e-05,3.147649716046268e-09,7.369521626870964e-05,3.147649716046268e-09,7.369521626952139e-05,3.147649716046268e-09,6.437806360170493e-05,3.147649716046268e-09,0.63758317558126
3.157684697106925e-09,7.369521627306261e-05,3.157684697106925e-09,7.369521627274076e-05,3.157684697106925e-09,7.369521629437419e-05,3.157684697106925e-09,6.437806463263858e-05,3.157684697106925e-09,0.6431581650594025
3.160409149076992e-09,7.369521626367696e-05,3.160409149076992e-09,7.369521627147172e-05,3.160409149076992e-09,7.369521609424721e-05,3.160409149076992e-09,6.437806122335256e-05,3.160409149076992e-09,0.6446717494872175
3.165858053017126e-09,7.369521623439429e-05,3.165858053017126e-09,7.369521627078101e-05,3.165858053017126e-09,7.36952149350316e-05,3.165858053017126e-09,6.437802959005831e-05,3.165858053017126e-09,0.6476989183428477
3.176755860897394e-09,7.369521628960247e-05,3.176755860897394e-09,7.369521627076663e-05,3.176755860897394e-09,7.369521568515012e-05,3.176755860897394e-09,6.437799131609219e-05,3.176755860897394e-09,0.6537532560541077
3.184473711924346e-09,7.369521744302649e-05,3.184473711924346e-09,7.36952162867146e-05,3.184473711924346e-09,7.369525816958871e-05,3.184473711924346e-09,6.437918949628409e-05,3.184473711924346e-09,0.6580409510690809
3.195005775383898e-09,7.369521617707158e-05,3.195005775383898e-09,7.369521624392997e-05,3.195005775383898e-09,7.369522783445583e-05,3.195005775383898e-09,6.438012458629951e-05,3.195005775383898e-09,0.6638920974354988
3.202561376941664e-09,7.369520192451342e-05,3.202561376941664e-09,7.369521595307655e-05,3.202561376941664e-09,7.369364010421403e-05,3.202561376941664e-09,6.433638682901323e-05,3.202561376941664e-09,0.66808965385648
3.210983693492692e-09,7.36952093386945e-05,3.210983693492692e-09,7.369521693350324e-05,3.210983693492692e-09,7.369458375885074e-05,3.210983693492692e-09,6.430510535918844e-05,3.210983693492692e-09,0.6727687186070511
3.218019527615871e-09,7.369526227785448e-05,3.218019527615871e-09,7.369521772333662e-05,3.218019527615871e-09,7.370467430567842e-05,3.218019527615871e-09,6.455225152229548e-05,3.218019527615871e-09,0.6766775153421506
3.224396203616631e-09,7.369530179947296e-05,3.224396203616631e-09,7.369521175061244e-05,3.224396203616631e-09,7.369250226468066e-05,3.224396203616631e-09,6.45137246860401e-05,3.224396203616631e-09,0.6802201131203504
3.231792192124816e-09,7.369518733554484e-05,3.231792192124816e-09,7.369521853330767e-05,3.231792192124816e-09,7.368653556667627e-05,3.231792192124816e-09,6.425880564049203e-05,3.231792192124816e-09,0.6843289956248977
3.239450060515798e-09,7.36951668750252e-05,3.239450060515798e-09,7.369521853255206e-05,3.239450060515798e-09,7.369874694151607e-05,3.239450060515798e-09,6.431900185531181e-05,3.239450060515798e-09,0.688583366953221
3.246950617980201e-09,7.369519935905234e-05,3.246950617980201e-09,7.369521317475167e-05,3.246950617980201e-09,7.369634313359517e-05,3.246950617980201e-09,6.436765380326904e-05,3.246950617980201e-09,0.692750343322334
3.254159827444498e-09,7.369497836272279e-05,3.254159827444498e-09,7.369521662007976e-05,3.254159827444498e-09,7.369573014832333e-05,3.254159827444498e-09,6.438111929729929e-05,3.254159827444498e-09,0.6967554596913875
3.261467825116432e-09,7.369488942625919e-05,3.261467825116432e-09,7.369521533200358e-05,3.261467825116432e-09,7.369346665740838e-05,3.261467825116432e-09,6.432040649043481e-05,3.261467825116432e-09,0.7008154583980177
3.267074252443563e-09,7.369293696012542e-05,3.267074252443563e-09,7.369520696779387e-05,3.267074252443563e-09,7.36903242796157e-05,3.267074252443563e-09,6.414726065042961e-05,3.267074252443563e-09,0.703930140246424
3.271528927270937e-09,7.367737570535087e-05,3.271528927270937e-09,7.369512654594234e-05,3.271528927270937e-09,7.369030184614906e-05,3.271528927270937e-09,6.367826293095255e-05,3.271528927270937e-09,0.706404959594965
3.275483847366715e-09,7.364932726854696e-05,3.275483847366715e-09,7.36950510518608e-05,3.275483847366715e-09,7.369865396723025e-05,3.275483847366715e-09,6.288185223392319e-05,3.275483847366715e-09,0.7086021374259526
3.279521486898088e-09,7.37166915595147e-05,3.279521486898088e-09,7.36956757077366e-05,3.279521486898088e-09,7.370901656538013e-05,3.279521486898088e-09,6.368660278289634e-05,3.279521486898088e-09,0.7108452704989378
3.282944076561549e-09,7.426954347702778e-05,3.282944076561549e-09,7.369903252246118e-05,3.282944076561549e-09,7.371338500825415e-05,3.282944076561549e-09,7.466667889515225e-05,3.282944076561549e-09,0.7127467092008604
3.286376490500561e-09,7.522479286512476e-05,3.286376490500561e-09,7.37014084865164e-05,3.286376490500561e-09,7.371071004341461e-05,3.286376490500561e-09,0.0001002244154097025,3.286376490500561e-09,0.7146536058336448
3.28955310275425e-09,7.496007410952307e-05,3.28955310275425e-09,7.369237251292837e-05,3.28955310275425e-09,7.370667754862687e-05,3.28955310275425e-09,0.0001082861438653046,3.28955310275425e-09,0.7164183904190278
3.291928258024791e-09,7.379941683883784e-05,3.291928258024791e-09,7.368406640973903e-05,3.291928258024791e-09,7.370294141395181e-05,3.291928258024791e-09,6.137409638358177e-05,3.291928258024791e-09,0.7177379211248839
3.294779353782634e-09,7.265550505866255e-05,3.294779353782634e-09,7.368524476628424e-05,3.294779353782634e-09,7.368045411801729e-05,3.294779353782634e-09,-0.0001621473722508759,3.294779353782634e-09,0.7193218632125743
3.298097002862879e-09,6.869786783778891e-05,3.298097002862879e-09,7.369739843703377e-05,3.298097002862879e-09,7.36561408638359e-05,3.298097002862879e-09,-0.0007927026502529608,3.298097002862879e-09,0.7211650015904886
3.302129568440032e-09,5.730945949941393e-05,3.302129568440032e-09,7.37153783282239e-05,3.302129568440032e-09,7.367952204431626e-05,3.302129568440032e-09,-0.00121192536223467,3.302129568440032e-09,0.7234053158000175
3.30505305212073e-09,5.461391781691322e-05,3.30505305212073e-09,7.370558266590299e-05,3.30505305212073e-09,7.369431193117629e-05,3.30505305212073e-09,-0.0009754802170742396,3.30505305212073e-09,0.7250294734004057
3.307772069844926e-09,6.304932151943934e-05,3.307772069844926e-09,7.368624831856371e-05,3.307772069844926e-09,7.369022077015587e-05,3.307772069844926e-09,-0.0005998390111383593,3.307772069844926e-09,0.7265400388027365
3.310486942319181e-09,8.257532199836467e-05,3.310486942319181e-09,7.369036735082235e-05,3.310486942319181e-09,7.368772712393017e-05,3.310486942319181e-09,-0.0002771883705047308,3.310486942319181e-09,0.7280483012884336
3.313380920100994e-09,0.0001226736753025096,3.313380920100994e-09,7.371069849246857e-05,3.313380920100994e-09,7.368708328573328e-05,3.313380920100994e-09,-0.0002643992673463597,3.313380920100994e-09,0.7296560667227745
3.315831372272043e-09,0.0001831627803706268,3.315831372272043e-09,7.372858376800168e-05,3.315831372272043e-09,7.369093598430027e-05,3.315831372272043e-09,-0.0006746331339707906,3.315831372272043e-09,0.7310174290400239
3.318484388890332e-09,0.0003207758460146504,3.318484388890332e-09,7.372082093054333e-05,3.318484388890332e-09,7.369973757632472e-05,3.318484388890332e-09,-0.001509942988118064,3.318484388890332e-09,0.7324913271612954
3.322077774980122e-09,0.0003703787898302706,3.322077774980122e-09,7.36759426391094e-05,3.322077774980122e-09,7.371480308501623e-05,3.322077774980122e-09,-0.002698519790569715,3.322077774980122e-09,0.7344876527667343
3.324817858899413e-09,-0.002652717501658662,3.324817858899413e-09,7.363929678057034e-05,3.324817858899413e-09,7.371803365789653e-05,3.324817858899413e-09,-0.003346611166420691,3.324817858899413e-09,0.7360099216107847
3.327786248117941e-09,-0.01053239878797321,3.327786248117941e-09,7.361818999887835e-05,3.327786248117941e-09,7.371411767063373e-05,3.327786248117941e-09,-0.003581801996578166,3.327786248117941e-09,0.7376590267321896
3.330762459664766e-09,-0.01111070528332367,3.330762459664766e-09,7.363141157925473e-05,3.330762459664766e-09,7.370888749055773e-05,3.330762459664766e-09,-0.003168617466101249,3.330762459664766e-09,0.7393124775915364
3.333407563209385e-09,0.022105624694234,3.333407563209385e-09,7.366705196076394e-05,3.333407563209385e-09,7.369870731060928e-05,3.333407563209385e-09,-0.002362566995315217,3.333407563209385e-09,0.7407819795607696
3.335932462202296e-09,0.100425974896563,3.335932462202296e-09,7.370000723873448e-05,3.335932462202296e-09,7.368242431044301e-05,3.335932462202296e-09,-0.001654610671261306,3.335932462202296e-09,0.7421847012234979
3.338072540466614e-09,0.1939477400315763,3.338072540466614e-09,7.373469353308426e-05,3.338072540466614e-09,7.368552008721322e-05,3.338072540466614e-09,-0.000953232045618869,3.338072540466614e-09,0.7433736335925631
3.340638051762446e-09,0.3214977625131365,3.340638051762446e-09,7.37617963133139e-05,3.340638051762446e-09,7.369469644768886e-05,3.340638051762446e-09,0.0002032267359981459,3.340638051762446e-09,0.7447989176458032
3.343453812577451e-09,0.4719676004066044,3.343453812577451e-09,7.374478390064835e-05,3.343453812577451e-09,7.368553835778736e-05,3.343453812577451e-09,0.001427144843708425,3.343453812577451e-09,0.7463632292096949
3.346189699297752e-09,0.6120191517682215,3.346189699297752e-09,7.372225608331529e-05,3.346189699297752e-09,7.368264993559607e-05,3.346189699297752e-09,0.002370081982876747,3.346189699297752e-09,0.747883166276529
3.34908015006686e-09,0.7320919274186665,3.34908015006686e-09,7.370318186230527e-05,3.34908015006686e-09,7.368278083858703e-05,3.34908015006686e-09,0.002921031184296359,3.34908015006686e-09,0.7494889722593664
3.351618240057162e-09,0.8042392130721954,3.351618240057162e-09,7.369807386914225e-05,3.351618240057162e-09,7.36883161099392e-05,3.351618240057162e-09,0.003049353812399217,3.351618240057162e-09,0.7508990222539789
3.354233821783126e-09,0.8678644301273688,3.354233821783126e-09,7.369864994654057e-05,3.354233821783126e-09,7.369572694658468e-05,3.354233821783126e-09,0.002934561902936677,3.354233821783126e-09,0.7523521232128477
3.357088987501375e-09,1.005100147794081,3.357088987501375e-09,7.369972130613759e-05,3.357088987501375e-09,7.370043415407417e-05,3.357088987501375e-09,0.002625862865221823,3.357088987501375e-09,0.7539383263896525
3.359734590368609e-09,1.335047515881899,3.359734590368609e-09,7.369978847865509e-05,3.359734590368609e-09,7.370279953518397e-05,3.359734590368609e-09,0.002258499559084701,3.359734590368609e-09,0.7554081057603382
3.361815584725305e-09,1.841632768825155,3.361815584725305e-09,7.369939924733845e-05,3.361815584725305e-09,7.370308339116874e-05,3.361815584725305e-09,0.001976541371508299,3.361815584725305e-09,0.7565642137362804
3.363800636574349e-09,2.52314494132611,3.363800636574349e-09,7.36978919784513e-05,3.363800636574349e-09,7.370240863327614e-05,3.363800636574349e-09,0.001733509485055754,3.363800636574349e-09,0.7576670203190827
3.365051950579172e-09,3.001227742273336,3.365051950579172e-09,7.369638215619888e-05,3.365051950579172e-09,7.370094158521796e-05,3.365051950579172e-09,0.001593335986226731,3.365051950579172e-09,0.7583621947662066
3.366762988229443e-09,3.608799922575523,3.366762988229443e-09,7.369433876639997e-05,3.366762988229443e-09,7.369936393128387e-05,3.366762988229443e-09,0.001416599821600403,3.366762988229443e-09,0.7593127712385794
3.368170823216292e-09,3.997680953245455,3.368170823216292e-09,7.369273454142371e-05,3.368170823216292e-09,7.369773585120765e-05,3.368170823216292e-09,0.001281902041101287,3.368170823216292e-09,0.7600949017868289
