/out0 X,/out0 Y,/out1 X,/out1 Y,/out2 X,/out2 Y
0,0.2511617382215548,0,0.1825971918292853,0,0.1825796530195622
0.01066666666666667,0.2511624105385477,0.01066666666666667,0.1825971921431959,0.01066666666666667,0.1825814348237106
0.02133333333333334,0.251163343581635,0.02133333333333334,0.1825971925788493,0.02133333333333334,0.1825814348237473
0.032,0.2511646376239863,0.032,0.1825971931830747,0.032,0.182581434823799
0.04266666666666667,0.251166430984833,0.04266666666666667,0.1825971940204749,0.04266666666666667,0.1825814348238701
0.05333333333333334,0.2511689141452085,0.05333333333333334,0.1825971951800291,0.05333333333333334,0.1825814348239682
0.06400000000000002,0.2511723489057451,0.06400000000000002,0.1825971967840552,0.06400000000000002,0.182581434824104
0.07466666666666669,0.2511770942691727,0.07466666666666669,0.1825971990003323,0.07466666666666669,0.1825814348242925
0.08533333333333336,0.2511836412227091,0.08533333333333336,0.1825972020584124,0.08533333333333336,0.1825814348245519
0.09600000000000003,0.2511926591899523,0.09600000000000003,0.1825972062714361,0.09600000000000003,0.1825814348249089
0.1066666666666667,0.2512050576174414,0.1066666666666667,0.182597212065135,0.1066666666666667,0.1825814348254002
0.1173333333333334,0.251222066936368,0.1173333333333334,0.1825972200160866,0.1173333333333334,0.1825814348260741
0.128,0.2512453439498293,0.128,0.1825972309017587,0.128,0.1825814348269977
0.1386666666666667,0.2512771074557788,0.1386666666666667,0.1825972457653571,0.1386666666666667,0.1825814348282578
0.1493333333333333,0.2513203104995377,0.1493333333333333,0.1825972659990009,0.1493333333333333,0.1825814348299735
0.16,0.2513788558851277,0.16,0.1825972934492871,0.16,0.1825814348323019
0.1706666666666667,0.2514578612691469,0.1706666666666667,0.1825973305497342,0.1706666666666667,0.1825814348354478
0.1813333333333333,0.2515639791462187,0.1813333333333333,0.1825973804853381,0.1813333333333333,0.1825814348396826
0.192,0.2517057752673448,0.192,0.1825974473951913,0.192,0.1825814348453574
0.2026666666666666,0.251894166727432,0.2026666666666666,0.1825975366208582,0.2026666666666666,0.1825814348529237
0.2133333333333333,0.2521429187613219,0.2133333333333333,0.1825976550111623,0.2133333333333333,0.1825814348629634
0.2239999999999999,0.2524691984094297,0.2239999999999999,0.1825978112997368,0.2239999999999999,0.1825814348762174
0.2346666666666666,0.2528941854559346,0.2346666666666666,0.1825980165819006,0.2346666666666666,0.1825814348936259
0.2453333333333333,0.2534437486219352,0.2453333333333333,0.1825982849346722,0.2453333333333333,0.1825814349163838
0.2559999999999999,0.2541492101705927,0.2559999999999999,0.1825986342517138,0.2559999999999999,0.1825814349460077
0.2666666666666666,0.2550482467584221,0.2666666666666666,0.1825990874098002,0.2666666666666666,0.1825814349844385
0.2773333333333333,0.2561860101165442,0.2773333333333333,0.182599673954226,0.2773333333333333,0.1825814350341821
0.2879999999999999,0.2576166002121346,0.2879999999999999,0.1826004326058848,0.2879999999999999,0.1825814350985231
0.2986666666666666,0.2594050914276624,0.2986666666666666,0.1826014150867049,0.2986666666666666,0.1825814351818485
0.3093333333333332,0.2616304123735706,0.3093333333333332,0.1826026921015337,0.3093333333333332,0.1825814352901574
0.3199999999999999,0.2643895407542745,0.3199999999999999,0.1826043629439993,0.3199999999999999,0.1825814354318733
0.3306666666666666,0.2678037519607732,0.3306666666666666,0.1826065714067742,0.3306666666666666,0.1825814356191989
0.3413333333333332,0.2720281591135872,0.3413333333333332,0.182609533126847,0.3413333333333332,0.1825814358704343
0.3519999999999999,0.2772667043173735,0.3519999999999999,0.1826135847037149,0.3519999999999999,0.1825814362141529
0.3626666666666665,0.2837965006218038,0.3626666666666665,0.1826192766601453,0.3626666666666665,0.1825814366970971
0.3733333333333332,0.2920087648609609,0.3733333333333332,0.1826275605574403,0.3733333333333332,0.1825814374000913
0.3839999999999998,0.3024799852032559,0.3839999999999998,0.1826401938147033,0.3839999999999998,0.1825814384724842
0.3946666666666665,0.316098202262358,0.3946666666666665,0.1826606910922159,0.3946666666666665,0.1825814402131953
0.4053333333333332,0.3343053109294689,0.4053333333333332,0.1826969451221947,0.4053333333333332,0.182581443294451
0.4159999999999998,0.3592642549125933,0.4159999999999998,0.1827674441447623,0.4159999999999998,0.1825814492948082
0.4266666666666665,0.393419554773812,0.4266666666666665,0.1829175486163125,0.4266666666666665,0.1825814621087144
0.4373333333333331,0.4365961773403728,0.4373333333333331,0.1832455129801387,0.4373333333333331,0.1825814902872228
0.4479999999999998,0.4859664900264802,0.4479999999999998,0.1840881486451014,0.4479999999999998,0.1825815638354827
0.4586666666666664,0.5396372702123127,0.4586666666666664,0.193743509982,0.4586666666666664,0.1825825365186573
0.4693333333333331,0.5967175865618692,0.4693333333333331,0.2445792805949982,0.4693333333333331,0.1825943354014073
0.4799999999999998,0.6565826096744806,0.4799999999999998,1.412538153120692,0.4799999999999998,1.412613502561684
0.4906666666666664,0.7186279039400971,0.4906666666666664,1.412584022558607,0.4906666666666664,1.412613502793059
0.5013333333333331,0.7822010141948825,0.5013333333333331,1.41259691742155,0.5013333333333331,1.412613502858227
0.5119999999999998,0.8465828735444522,0.5119999999999998,1.412602924441873,0.5119999999999998,1.412613502888584
0.5226666666666665,0.9110018310107352,0.5226666666666665,1.412606271889402,0.5226666666666665,1.412613502905499
0.5333333333333332,0.974667322729588,0.5333333333333332,1.412608367283156,0.5333333333333332,1.412613502916087
0.5439999999999999,1.036818679780352,0.5439999999999999,1.412609779989551,0.5439999999999999,1.412613502923226
0.5546666666666666,1.096707369515235,0.5546666666666666,1.412610782867086,0.5546666666666666,1.412613502928293
0.5653333333333334,1.153283419835557,0.5653333333333334,1.412611517108397,0.5653333333333334,1.412613502932007
0.5760000000000001,1.204221064986247,0.5760000000000001,1.412612052668434,0.5760000000000001,1.412613502934712
0.5866666666666668,1.246660439957485,0.5866666666666668,1.412612429939986,0.5866666666666668,1.412613502936619
0.5973333333333335,1.280373452736305,0.5973333333333335,1.412612693545307,0.5973333333333335,1.412613502937952
0.6080000000000002,1.307471519359159,0.6080000000000002,1.412612885918234,0.6080000000000002,1.412613502938924
0.6186666666666669,1.32977041086266,0.6186666666666669,1.412613032776994,0.6186666666666669,1.412613502939665
0.6293333333333336,1.348511223413904,0.6293333333333336,1.412613148957443,0.6293333333333336,1.412613502940252
0.6400000000000003,1.364544433039397,0.6400000000000003,1.412613243501313,0.6400000000000003,1.412613502940731
0.6506666666666671,1.378457466817251,0.6506666666666671,1.412613322150138,0.6506666666666671,1.412613502941127
0.6613333333333338,1.390663204025713,0.6613333333333338,1.412613388693968,0.6613333333333338,1.412613502941464
0.6720000000000005,1.401458637230711,0.6720000000000005,1.412613445728455,0.6720000000000005,1.412613502941752
0.6826666666666672,1.411062858624961,0.6826666666666672,1.412613495092601,0.6826666666666672,1.412613502942001
0.6933333333333339,1.419641628573645,0.6933333333333339,1.41261353812984,0.6933333333333339,1.412613502942218
0.7040000000000006,1.427323443256815,0.7040000000000006,1.412613575848801,0.7040000000000006,1.41261350294241
0.7146666666666673,1.434210231373372,0.7146666666666673,1.412613609025462,0.7146666666666673,1.412613502942578
0.7253333333333341,1.440384634046032,0.7253333333333341,1.412613638270046,0.7253333333333341,1.412613502942725
0.7360000000000008,1.445915089408694,0.7360000000000008,1.41261366407223,0.7360000000000008,1.412613502942855
0.7466666666666675,1.45085949383889,0.7466666666666675,1.412613686832612,0.7466666666666675,1.412613502942971
0.7573333333333342,1.455267933879637,0.7573333333333342,1.412613706885332,0.7573333333333342,1.412613502943072
0.7680000000000009,1.459184805529546,0.7680000000000009,1.412613724514894,0.7680000000000009,1.412613502943161
0.7786666666666676,1.462650516650402,0.7786666666666676,1.412613739969042,0.7786666666666676,1.412613502943239
0.7893333333333343,1.465702877173346,0.7893333333333343,1.412613753468821,0.7893333333333343,1.412613502943308
0.800000000000001,1.468378207247923,0.800000000000001,1.412613765216403,0.800000000000001,1.412613502943366
0.8106666666666678,1.470712134622021,0.8106666666666678,1.412613775400864,0.8106666666666678,1.412613502943418
0.8213333333333345,1.472740020270822,0.8213333333333345,1.412613784201848,0.8213333333333345,1.412613502943462
0.8320000000000012,1.474496962226722,0.8320000000000012,1.412613791791102,0.8320000000000012,1.412613502943501
0.8426666666666679,1.476017389356292,0.8426666666666679,1.412613798332027,0.8426666666666679,1.412613502943534
0.8533333333333346,1.477334351358287,0.8533333333333346,1.412613803977736,0.8533333333333346,1.412613502943563
0.8640000000000013,1.478478693163446,0.8640000000000013,1.412613808868504,0.8640000000000013,1.412613502943587
0.874666666666668,1.47947832385449,0.874666666666668,1.412613813129482,0.874666666666668,1.412613502943609
0.8853333333333347,1.480357738027635,0.8853333333333347,1.41261381686934,0.8853333333333347,1.412613502943628
0.8960000000000015,1.481137850989686,0.8960000000000015,1.412613820180115,0.8960000000000015,1.412613502943645
0.9066666666666682,1.481836117216471,0.9066666666666682,1.412613823138136,0.9066666666666682,1.41261350294366
0.9173333333333349,1.482466847726823,0.9173333333333349,1.412613825805685,0.9173333333333349,1.412613502943673
0.9280000000000016,1.483041631105926,0.9280000000000016,1.412613828233012,0.9280000000000016,1.412613502943685
0.9386666666666683,1.483569780063107,0.9386666666666683,1.412613830460373,0.9386666666666683,1.412613502943697
0.949333333333335,1.484058752460972,0.949333333333335,1.412613832519939,0.949333333333335,1.412613502943706
0.9600000000000017,1.484514520549768,0.9600000000000017,1.412613834437417,0.9600000000000017,1.412613502943717
0.9706666666666685,1.484941879831624,0.9706666666666685,1.412613836233426,0.9706666666666685,1.412613502943726
0.9813333333333352,1.485344699442641,0.9813333333333352,1.412613837924578,0.9813333333333352,1.412613502943734
0.9920000000000019,1.485726120977647,0.9920000000000019,1.412613839524351,0.9920000000000019,1.412613502943742
1.002666666666669,1.48608871431721,1.002666666666669,1.412613841043768,1.002666666666669,1.41261350294375
1.013333333333335,1.486434598818976,1.013333333333335,1.41261384249191,1.013333333333335,1.412613502943757
1.024000000000002,1.486765537219764,1.024000000000002,1.412613843876322,1.024000000000002,1.412613502943764
1.034666666666668,1.487083008334628,1.034666666666668,1.412613845203345,1.034666666666668,1.412613502943771
1.045333333333335,1.487388263420059,1.045333333333335,1.412613846478328,1.045333333333335,1.412613502943778
1.056000000000002,1.487682370008902,1.056000000000002,1.41261384770585,1.056000000000002,1.412613502943784
1.066666666666668,1.487966246153027,1.066666666666668,1.412613848889828,1.066666666666668,1.412613502943789
1.077333333333335,1.48824068731234,1.077333333333335,1.412613850033675,1.077333333333335,1.412613502943796
1.088000000000001,1.488506387593526,1.088000000000001,1.412613851140359,1.088000000000001,1.412613502943801
1.098666666666668,1.488763956639899,1.098666666666668,1.412613852212486,1.098666666666668,1.412613502943806
1.109333333333335,1.489013933155595,1.109333333333335,1.412613853252365,1.109333333333335,1.412613502943812
1.120000000000001,1.489256795800976,1.120000000000001,1.412613854262045,1.120000000000001,1.412613502943817
1.130666666666668,1.489492972070602,1.130666666666668,1.412613855243346,1.130666666666668,1.412613502943822
1.141333333333334,1.489722845454595,1.141333333333334,1.412613856197917,1.141333333333334,1.412613502943826
1.152000000000001,1.489946761438938,1.152000000000001,1.412613857127236,1.152000000000001,1.412613502943831
1.162666666666668,1.490165032379517,1.162666666666668,1.412613858032632,1.162666666666668,1.412613502943836
1.173333333333334,1.490377941582253,1.173333333333334,1.412613858915328,1.173333333333334,1.41261350294384
1.184000000000001,1.490585746699776,1.184000000000001,1.412613859776418,1.184000000000001,1.412613502943845
1.194666666666667,1.490788682572079,1.194666666666667,1.412613860616907,1.194666666666667,1.412613502943849
1.205333333333334,1.490986963605994,1.205333333333334,1.412613861437718,1.205333333333334,1.412613502943853
1.216000000000001,1.491180785767964,1.216000000000001,1.412613862239683,1.216000000000001,1.412613502943857
1.226666666666667,1.491370328249076,1.226666666666667,1.412613863023576,1.226666666666667,1.412613502943861
1.237333333333334,1.49155575485544,1.237333333333334,1.412613863790097,1.237333333333334,1.412613502943865
1.248,1.491737215151006,1.248,1.412613864539884,1.248,1.412613502943869
1.258666666666667,1.491914845260444,1.258666666666667,1.412613865273525,1.258666666666667,1.412613502943872
1.269333333333334,1.49208876863763,1.269333333333334,1.41261386599155,1.269333333333334,1.412613502943876
1.28,1.492259096584747,1.28,1.412613866694435,1.28,1.412613502943879
1.290666666666667,1.492425928527551,1.290666666666667,1.412613867382609,1.290666666666667,1.412613502943883
1.301333333333333,1.492589352103428,1.301333333333333,1.412613868056456,1.301333333333333,1.412613502943887
1.312,1.492749443033677,1.312,1.412613868716298,1.312,1.41261350294389
1.322666666666667,1.492906264757165,1.322666666666667,1.412613869362416,1.322666666666667,1.412613502943893
1.333333333333333,1.493059867804621,1.333333333333333,1.412613869995032,1.333333333333333,1.412613502943896
1.344,1.493210288926235,1.344,1.412613870614319,1.344,1.4126135029439
1.354666666666666,1.493357550184145,1.354666666666666,1.412613871220368,1.354666666666666,1.412613502943902
1.365333333333333,1.493501659385413,1.365333333333333,1.412613871813241,1.365333333333333,1.412613502943905
1.376,1.493642618158487,1.376,1.412613872392954,1.376,1.412613502943908
1.386666666666666,1.493780413471306,1.386666666666666,1.412613872959461,1.386666666666666,1.412613502943911
1.397333333333333,1.493914947837213,1.397333333333333,1.412613873512376,1.397333333333333,1.412613502943914
1.407999999999999,1.494046087484694,1.407999999999999,1.41261387405117,1.407999999999999,1.412613502943917
1.418666666666666,1.494173669965404,1.418666666666666,1.412613874575181,1.418666666666666,1.41261350294392
1.429333333333333,1.494297476801669,1.429333333333333,1.41261387508353,1.429333333333333,1.412613502943922
1.439999999999999,1.494417210806744,1.439999999999999,1.412613875575008,1.439999999999999,1.412613502943924
1.450666666666666,1.494532468302138,1.450666666666666,1.412613876047977,1.450666666666666,1.412613502943927
1.461333333333332,1.494642700966835,1.461333333333332,1.412613876500202,1.461333333333332,1.412613502943929
1.471999999999999,1.494747163256702,1.471999999999999,1.412613876928643,1.471999999999999,1.412613502943931
1.482666666666666,1.49484484297215,1.482666666666666,1.41261387732917,1.482666666666666,1.412613502943933
1.493333333333332,1.494934380552212,1.493333333333332,1.412613877696224,1.493333333333332,1.412613502943936
1.503999999999999,1.495014009650693,1.503999999999999,1.412613878022594,1.503999999999999,1.412613502943937
1.514666666666665,1.495081620989913,1.514666666666665,1.412613878299655,1.514666666666665,1.412613502943938
1.525333333333332,1.495135167604774,1.525333333333332,1.41261387851905,1.525333333333332,1.412613502943939
1.535999999999999,1.495173585439427,1.535999999999999,1.412613878676439,1.535999999999999,1.41261350294394
1.546666666666665,1.495198079576064,1.546666666666665,1.412613878776782,1.546666666666665,1.412613502943941
1.557333333333332,1.495211839696466,1.557333333333332,1.412613878833145,1.557333333333332,1.412613502943941
1.567999999999999,1.495218737814116,1.567999999999999,1.412613878861404,1.567999999999999,1.412613502943941
1.578666666666665,1.495221894714434,1.578666666666665,1.412613878874336,1.578666666666665,1.412613502943942
1.589333333333332,1.495223326320737,1.589333333333332,1.412613878880198,1.589333333333332,1.412613502943941
1.6,1.495224030988938,1.6,1.412613878883084,1.6,1.412613502943941
