/out0 X,/out0 Y,/out1 X,/out1 Y,/out2 X,/out2 Y
0,0.1844346642841075,0,0.1825816595741095,0,0.247655411619108
0.01066666666666667,0.1844346692215358,0.01066666666666667,0.1825815945747546,0.01066666666666667,0.2476564459873628
0.02133333333333334,0.1844346760736569,0.02133333333333334,0.1825815945753654,0.02133333333333334,0.2476564459873695
0.032,0.1844346855767992,0.032,0.1825815945762117,0.032,0.2476564459873786
0.04266666666666667,0.1844346987466194,0.04266666666666667,0.1825815945773855,0.04266666666666667,0.2476564459873918
0.05333333333333334,0.1844347169817152,0.05333333333333334,0.1825815945790103,0.05333333333333334,0.2476564459874097
0.06400000000000002,0.1844347422041827,0.06400000000000002,0.1825815945812581,0.06400000000000002,0.2476564459874347
0.07466666666666669,0.1844347770494437,0.07466666666666669,0.1825815945843633,0.07466666666666669,0.2476564459874693
0.08533333333333336,0.1844348251212482,0.08533333333333336,0.182581594588647,0.08533333333333336,0.2476564459875173
0.09600000000000003,0.1844348913319266,0.09600000000000003,0.1825815945945475,0.09600000000000003,0.2476564459875829
0.1066666666666667,0.1844349823530807,0.1066666666666667,0.1825815946026582,0.1066666666666667,0.2476564459876738
0.1173333333333334,0.1844351072071811,0.1173333333333334,0.1825815946137843,0.1173333333333334,0.2476564459877984
0.128,0.1844352780360442,0.128,0.1825815946290069,0.128,0.2476564459879688
0.1386666666666667,0.1844355110868405,0.1386666666666667,0.1825815946497749,0.1386666666666667,0.2476564459882006
0.1493333333333333,0.1844358279590896,0.1493333333333333,0.1825815946780125,0.1493333333333333,0.2476564459885173
0.16,0.1844362571552177,0.16,0.1825815947162598,0.16,0.2476564459889441
0.1706666666666667,0.1844368359707681,0.1706666666666667,0.1825815947678417,0.1706666666666667,0.2476564459895199
0.1813333333333333,0.1844376127460995,0.1813333333333333,0.1825815948370657,0.1813333333333333,0.2476564459902937
0.192,0.1844386494776218,0.192,0.1825815949294585,0.192,0.2476564459913305
0.2026666666666666,0.1844400247533724,0.2026666666666666,0.1825815950520261,0.2026666666666666,0.2476564459927004
0.2133333333333333,0.18444183693739,0.2133333333333333,0.182581595213539,0.2133333333333333,0.2476564459945046
0.2239999999999999,0.1844442074864004,0.2239999999999999,0.1825815954248287,0.2239999999999999,0.2476564459968696
0.2346666666666666,0.1844472842504207,0.2346666666666666,0.1825815956990846,0.2346666666666666,0.2476564459999342
0.2453333333333333,0.1844512445985423,0.2453333333333333,0.1825815960521338,0.2453333333333333,0.2476564460038848
0.2559999999999999,0.1844562982319263,0.2559999999999999,0.1825815965027003,0.2559999999999999,0.2476564460089231
0.2666666666666666,0.1844626896013304,0.2666666666666666,0.1825815970726227,0.2666666666666666,0.2476564460152961
0.2773333333333333,0.1844706999273932,0.2773333333333333,0.1825815977870474,0.2773333333333333,0.2476564460232809
0.2879999999999999,0.1844806489092252,0.2879999999999999,0.1825815986745908,0.2879999999999999,0.2476564460332056
0.2986666666666666,0.1844928962778151,0.2986666666666666,0.1825815997674987,0.2986666666666666,0.2476564460454264
0.3093333333333332,0.184507843392666,0.3093333333333332,0.1825816011018092,0.3093333333333332,0.2476564460603485
0.3199999999999999,0.1845259351043332,0.3199999999999999,0.1825816027175528,0.3199999999999999,0.2476564460784133
0.3306666666666666,0.1845476621538527,0.3306666666666666,0.1825816046590027,0.3306666666666666,0.2476564461001231
0.3413333333333332,0.1845735645191176,0.3413333333333332,0.1825816069750279,0.3413333333333332,0.2476564461260272
0.3519999999999999,0.1846042364247438,0.3519999999999999,0.1825816097196042,0.3519999999999999,0.2476564461567127
0.3626666666666665,0.1846403342773356,0.3626666666666665,0.1825816129526067,0.3626666666666665,0.2476564461928645
0.3733333333333332,0.1846825896398651,0.3733333333333332,0.1825816167410839,0.3733333333333332,0.2476564462352248
0.3839999999999998,0.1847318306177517,0.3839999999999998,0.1825816211613027,0.3839999999999998,0.2476564462846509
0.3946666666666665,0.1847890169264945,0.3946666666666665,0.1825816263021053,0.3946666666666665,0.2476564463421373
0.4053333333333332,0.1848552970086269,0.4053333333333332,0.1825816322703022,0.4053333333333332,0.2476564464088703
0.4159999999999998,0.1849321011676546,0.4159999999999998,0.1825816391994608,0.4159999999999998,0.2476564464863568
0.4266666666666665,0.1850212957539264,0.4266666666666665,0.1825816472644446,0.4266666666666665,0.2476564465765327
0.4373333333333331,0.1851254469735052,0.4373333333333331,0.182581656706315,0.4373333333333331,0.2476564466821163
0.4479999999999998,0.1852482967381456,0.4479999999999998,0.1825816678773327,0.4479999999999998,0.2476564468070263
0.4586666666666664,0.1853956874638606,0.4586666666666664,0.1825816813286403,0.4586666666666664,0.2476564469574409
0.4693333333333331,0.1855775484591128,0.4693333333333331,0.1825816979992753,0.4693333333333331,0.2476564471438494
0.4799999999999998,0.1858127676763502,0.4799999999999998,0.1825817196818216,0.4799999999999998,0.2476564473862995
0.4906666666666664,0.1861434285753162,0.4906666666666664,0.1825817503927414,0.4906666666666664,0.2476564477297062
0.5013333333333331,0.186686086907813,0.5013333333333331,0.1825818013738667,0.5013333333333331,0.2476564482997778
0.5119999999999998,0.1878520523694131,0.5119999999999998,0.1825819135145965,0.5119999999999998,0.2476564495537324
0.5226666666666665,0.1901535141460525,0.5226666666666665,0.1825821453445874,0.5226666666666665,0.2476564521460567
0.5333333333333332,0.1934975610512218,0.5333333333333332,0.1825825085166222,0.5333333333333332,0.2476564562070855
0.5439999999999999,0.1977076267106623,0.5439999999999999,0.1825830134988036,0.5439999999999999,0.2476564618539198
0.5546666666666666,0.2028968702852879,0.5546666666666666,0.1825837177112999,0.5546666666666666,0.2476564697287245
0.5653333333333334,0.2093907117953554,0.5653333333333334,0.1825847427173332,0.5653333333333334,0.2476564811910344
0.5760000000000001,0.2177485612612729,0.5760000000000001,0.1825863362098488,0.5760000000000001,0.2476564990111922
0.5866666666666668,0.2294504403521783,0.5866666666666668,0.1825891943011611,0.5866666666666668,0.2476565309753098
0.5973333333333335,0.2501303624635041,0.5973333333333335,0.1825967156413401,0.5973333333333335,0.2476566151040998
0.6080000000000002,0.313267403484065,0.6080000000000002,0.1826560496354666,0.6080000000000002,0.2476572793765036
0.6186666666666669,1.137816883117592,0.6186666666666669,1.412611332444514,0.6186666666666669,1.484840260021593
0.6293333333333336,1.404182895572426,0.6293333333333336,1.412613459856781,0.6293333333333336,1.484840286678437
0.6400000000000003,1.434390443794979,0.6400000000000003,1.412613609884629,0.6400000000000003,1.484840288558307
0.6506666666666671,1.434621596507763,0.6506666666666671,1.412613610987409,0.6506666666666671,1.484840288572125
0.6613333333333338,1.434643477818359,0.6613333333333338,1.412613611091762,0.6613333333333338,1.484840288573432
0.6720000000000005,1.434654933887962,0.6720000000000005,1.412613611146398,0.6720000000000005,1.484840288574116
0.6826666666666672,1.434662525717757,0.6826666666666672,1.4126136111826,0.6826666666666672,1.48484028857457
0.6933333333333339,1.434668169012486,0.6933333333333339,1.412613611209514,0.6933333333333339,1.484840288574907
0.7040000000000006,1.434672561706167,0.7040000000000006,1.412613611230459,0.7040000000000006,1.484840288575169
0.7146666666666673,1.43467609177049,0.7146666666666673,1.412613611247296,0.7146666666666673,1.484840288575381
0.7253333333333341,1.434678993914833,0.7253333333333341,1.412613611261134,0.7253333333333341,1.484840288575554
0.7360000000000008,1.434681421366508,0.7360000000000008,1.412613611272708,0.7360000000000008,1.484840288575699
0.7466666666666675,1.434683479840671,0.7466666666666675,1.412613611282528,0.7466666666666675,1.484840288575821
0.7573333333333342,1.434685245322955,0.7573333333333342,1.412613611290946,0.7573333333333342,1.484840288575927
0.7680000000000009,1.434686774165265,0.7680000000000009,1.412613611298235,0.7680000000000009,1.484840288576019
0.7786666666666676,1.434688109197565,0.7786666666666676,1.412613611304601,0.7786666666666676,1.484840288576099
0.7893333333333343,1.434689283622296,0.7893333333333343,1.412613611310201,0.7893333333333343,1.484840288576169
0.800000000000001,1.4346903236009,0.800000000000001,1.41261361131516,0.800000000000001,1.484840288576231
0.8106666666666678,1.434691250030984,0.8106666666666678,1.412613611319577,0.8106666666666678,1.484840288576286
0.8213333333333345,1.434692079802202,0.8213333333333345,1.412613611323533,0.8213333333333345,1.484840288576335
0.8320000000000012,1.434692826704949,0.8320000000000012,1.412613611327098,0.8320000000000012,1.48484028857638
0.8426666666666679,1.434693502100989,0.8426666666666679,1.412613611330318,0.8426666666666679,1.48484028857642
0.8533333333333346,1.434694115426969,0.8533333333333346,1.412613611333243,0.8533333333333346,1.484840288576457
0.8640000000000013,1.434694674577971,0.8640000000000013,1.412613611335909,0.8640000000000013,1.48484028857649
0.874666666666668,1.43469518620348,0.874666666666668,1.412613611338349,0.874666666666668,1.484840288576521
0.8853333333333347,1.434695655938336,0.8853333333333347,1.412613611340588,0.8853333333333347,1.484840288576549
0.8960000000000015,1.43469608858477,0.8960000000000015,1.412613611342651,0.8960000000000015,1.484840288576575
0.9066666666666682,1.434696488257149,0.9066666666666682,1.412613611344557,0.9066666666666682,1.484840288576599
0.9173333333333349,1.43469685849802,0.9173333333333349,1.412613611346322,0.9173333333333349,1.484840288576621
0.9280000000000016,1.434697202371843,0.9280000000000016,1.412613611347962,0.9280000000000016,1.484840288576642
0.9386666666666683,1.434697522541181,0.9386666666666683,1.412613611349488,0.9386666666666683,1.484840288576661
0.949333333333335,1.434697821329059,0.949333333333335,1.412613611350913,0.949333333333335,1.484840288576679
0.9600000000000017,1.434698100770251,0.9600000000000017,1.412613611352246,0.9600000000000017,1.484840288576696
0.9706666666666685,1.434698362653749,0.9706666666666685,1.412613611353494,0.9706666666666685,1.484840288576711
0.9813333333333352,1.434698608558066,0.9813333333333352,1.412613611354667,0.9813333333333352,1.484840288576726
0.9920000000000019,1.434698839880725,0.9920000000000019,1.412613611355769,0.9920000000000019,1.48484028857674
1.002666666666669,1.434699057863035,1.002666666666669,1.412613611356808,1.002666666666669,1.484840288576753
1.013333333333335,1.434699263610956,1.013333333333335,1.41261361135779,1.013333333333335,1.484840288576765
1.024000000000002,1.434699458112795,1.024000000000002,1.412613611358718,1.024000000000002,1.484840288576777
1.034666666666668,1.434699642254197,1.034666666666668,1.412613611359595,1.034666666666668,1.484840288576788
1.045333333333335,1.434699816830981,1.045333333333335,1.412613611360427,1.045333333333335,1.484840288576798
1.056000000000002,1.434699982560102,1.056000000000002,1.412613611361217,1.056000000000002,1.484840288576808
1.066666666666668,1.434700140089068,1.066666666666668,1.412613611361969,1.066666666666668,1.484840288576817
1.077333333333335,1.434700290004066,1.077333333333335,1.412613611362683,1.077333333333335,1.484840288576826
1.088000000000001,1.434700432836992,1.088000000000001,1.412613611363365,1.088000000000001,1.484840288576835
1.098666666666668,1.434700569071527,1.098666666666668,1.412613611364014,1.098666666666668,1.484840288576843
1.109333333333335,1.434700699148446,1.109333333333335,1.412613611364634,1.109333333333335,1.484840288576851
1.120000000000001,1.434700823470239,1.120000000000001,1.412613611365227,1.120000000000001,1.484840288576858
1.130666666666668,1.434700942405144,1.130666666666668,1.412613611365793,1.130666666666668,1.484840288576865
1.141333333333334,1.434701056290708,1.141333333333334,1.412613611366337,1.141333333333334,1.484840288576872
1.152000000000001,1.434701165436886,1.152000000000001,1.412613611366858,1.152000000000001,1.484840288576879
1.162666666666668,1.434701270128813,1.162666666666668,1.412613611367357,1.162666666666668,1.484840288576885
1.173333333333334,1.434701370629209,1.173333333333334,1.412613611367836,1.173333333333334,1.484840288576891
1.184000000000001,1.43470146718054,1.184000000000001,1.412613611368297,1.184000000000001,1.484840288576896
1.194666666666667,1.434701560006935,1.194666666666667,1.412613611368742,1.194666666666667,1.484840288576902
1.205333333333334,1.434701649315872,1.205333333333334,1.412613611369169,1.205333333333334,1.484840288576907
1.216000000000001,1.434701735299692,1.216000000000001,1.412613611369578,1.216000000000001,1.484840288576912
1.226666666666667,1.434701818136965,1.226666666666667,1.412613611369974,1.226666666666667,1.484840288576917
1.237333333333334,1.434701897993686,1.237333333333334,1.412613611370354,1.237333333333334,1.484840288576922
1.248,1.434701975024369,1.248,1.412613611370722,1.248,1.484840288576926
1.258666666666667,1.434702049373016,1.258666666666667,1.412613611371076,1.258666666666667,1.484840288576931
1.269333333333334,1.434702121173998,1.269333333333334,1.412613611371418,1.269333333333334,1.484840288576935
1.28,1.434702190552852,1.28,1.412613611371749,1.28,1.484840288576939
1.290666666666667,1.434702257626987,1.290666666666667,1.41261361137207,1.290666666666667,1.484840288576943
1.301333333333333,1.434702322506335,1.301333333333333,1.412613611372378,1.301333333333333,1.484840288576947
1.312,1.434702385293938,1.312,1.412613611372677,1.312,1.484840288576951
1.322666666666667,1.434702446086474,1.322666666666667,1.412613611372968,1.322666666666667,1.484840288576955
1.333333333333333,1.434702504974751,1.333333333333333,1.412613611373249,1.333333333333333,1.484840288576958
1.344,1.434702562044134,1.344,1.41261361137352,1.344,1.484840288576962
1.354666666666666,1.43470261737496,1.354666666666666,1.412613611373784,1.354666666666666,1.484840288576965
1.365333333333333,1.43470267104289,1.365333333333333,1.41261361137404,1.365333333333333,1.484840288576968
1.376,1.434702723119251,1.376,1.412613611374288,1.376,1.484840288576971
1.386666666666666,1.434702773671347,1.386666666666666,1.412613611374529,1.386666666666666,1.484840288576974
1.397333333333333,1.43470282276273,1.397333333333333,1.412613611374764,1.397333333333333,1.484840288576977
1.407999999999999,1.434702870453465,1.407999999999999,1.412613611374991,1.407999999999999,1.48484028857698
1.418666666666666,1.434702916800356,1.418666666666666,1.412613611375212,1.418666666666666,1.484840288576983
1.429333333333333,1.434702961857183,1.429333333333333,1.412613611375427,1.429333333333333,1.484840288576986
1.439999999999999,1.434703005674876,1.439999999999999,1.412613611375636,1.439999999999999,1.484840288576988
1.450666666666666,1.434703048301728,1.450666666666666,1.412613611375839,1.450666666666666,1.484840288576991
1.461333333333332,1.434703089783544,1.461333333333332,1.412613611376037,1.461333333333332,1.484840288576993
1.471999999999999,1.434703130163804,1.471999999999999,1.41261361137623,1.471999999999999,1.484840288576996
1.482666666666666,1.434703169483814,1.482666666666666,1.412613611376417,1.482666666666666,1.484840288576998
1.493333333333332,1.434703207782839,1.493333333333332,1.412613611376599,1.493333333333332,1.484840288577
1.503999999999999,1.43470324509822,1.503999999999999,1.412613611376778,1.503999999999999,1.484840288577003
1.514666666666665,1.434703281465504,1.514666666666665,1.412613611376951,1.514666666666665,1.484840288577005
1.525333333333332,1.434703316918534,1.525333333333332,1.41261361137712,1.525333333333332,1.484840288577007
1.535999999999999,1.434703351489566,1.535999999999999,1.412613611377284,1.535999999999999,1.484840288577009
1.546666666666665,1.434703385209353,1.546666666666665,1.412613611377446,1.546666666666665,1.484840288577011
1.557333333333332,1.434703418107229,1.557333333333332,1.412613611377603,1.557333333333332,1.484840288577013
1.567999999999999,1.434703450211195,1.567999999999999,1.412613611377756,1.567999999999999,1.484840288577015
1.578666666666665,1.434703481547995,1.578666666666665,1.412613611377905,1.578666666666665,1.484840288577017
1.589333333333332,1.434703512143183,1.589333333333332,1.412613611378051,1.589333333333332,1.484840288577019
1.6,1.434703542021184,1.6,1.412613611378194,1.6,1.484840288577021
