/Vin X,/Vin Y,/out1 X,/out1 Y,/out0 X,/out0 Y,/out2 X,/out2 Y
0,0.45,0,0.182581670208343,0,0.1852738841191384,0,0.2150037509885151
2e-05,0.4506266661678215,2e-05,0.1825816709527977,2e-05,0.1852820376131752,2e-05,0.215003750993601
4e-05,0.4512434494358243,4e-05,0.1825816716991303,4e-05,0.1852902223658353,4e-05,0.2150037509987115
6.000000000000001e-05,0.4518406227634234,6.000000000000001e-05,0.1825816724242775,6.000000000000001e-05,0.1852981940033293,6.000000000000001e-05,0.2150037510039857
8.000000000000001e-05,0.4524087683705086,8.000000000000001e-05,0.1825816731260739,8.000000000000001e-05,0.1853058572451684,8.000000000000001e-05,0.2150037510067213
0.0001,0.4529389262614624,0.0001,0.1825816737811523,0.0001,0.185313078181176,0.0001,0.2150037510138011
0.00012,0.4534227355296435,0.00012,0.1825816743942953,0.00012,0.1853197285030432,0.00012,0.2150037510159435
0.00014,0.453852566213879,0.00014,0.1825816749292704,0.00014,0.1853256854551072,0.00014,0.2150037510230288
0.00016,0.4542216396275101,0.00016,0.1825816754093036,0.00016,0.1853308379765271,0.00016,0.2150037510234926
0.00018,0.4545241352623301,0.00018,0.1825816757872168,0.00018,0.18533508656934,0.00018,0.2150037510268414
0.0002,0.4547552825814758,0.0002,0.1825816760947493,0.0002,0.1853383492069271,0.0002,0.2150037510293469
0.00022,0.4549114362536434,0.00022,0.1825816762878563,0.00022,0.1853405606551171,0.00022,0.2150037510290754
0.00024,0.4549901336421414,0.00024,0.1825816763978042,0.00024,0.1853416775772709,0.00024,0.2150037510322604
0.00026,0.4549901336421414,0.00026,0.1825816763894547,0.00026,0.1853416767651717,0.00026,0.2150037510287697
0.00028,0.4549114362536434,0.00028,0.1825816762940039,0.00028,0.1853405590226298,0.00028,0.2150037510321424
0.0003,0.4547552825814758,0.0003,0.1825816760873059,0.0003,0.1853383459873167,0.0003,0.2150037510270911
0.00032,0.4545241352623301,0.00032,0.1825816757925761,0.00032,0.1853350826019761,0.00032,0.21500375102933
0.00034,0.4542216396275101,0.00034,0.1825816754017743,0.00034,0.1853308325346028,0.00034,0.2150037510206131
0.00036,0.453852566213879,0.00036,0.182581674933525,0.00036,0.1853256794141857,0.00036,0.2150037510240422
0.00038,0.4534227355296435,0.00038,0.1825816743868472,0.00038,0.1853197211635106,0.00038,0.2150037510151789
0.0004,0.4529389262614624,0.0004,0.182581673784514,0.0004,0.1853130704523125,0.0004,0.2150037510133085
0.00042,0.4524087683705086,0.00042,0.1825816731187795,0.00042,0.1853058484573476,0.00042,0.215003751009088
0.00044,0.4518406227634234,0.00044,0.1825816724288388,0.00044,0.1852981850793906,0.00044,0.2150037510036854
0.00046,0.4512434494358243,0.00046,0.1825816716909014,0.00046,0.1852902126930295,0.00046,0.2150037509976079
0.00048,0.4506266661678215,0.00048,0.182581670960818,0.00048,0.1852820665770305,0.00048,0.215003750993163
0.0005,0.45,0.0005,0.1825816701991833,0.0005,0.1852738791099547,0.0005,0.2150037509887741
0.0005200000000000001,0.4493733338321785,0.0005200000000000001,0.1825816694781797,0.0005200000000000001,0.1852657807000563,0.0005200000000000001,0.2150037509820467
0.0005400000000000001,0.4487565505641757,0.0005400000000000001,0.1825816687419431,0.0005400000000000001,0.1852578946499321,0.0005400000000000001,0.2150037509799144
0.0005600000000000002,0.4481593772365766,0.0005600000000000002,0.1825816680717265,0.0005600000000000002,0.1852503387026726,0.0005600000000000002,0.2150037509727752
0.0005800000000000002,0.4475912316294914,0.0005800000000000002,0.1825816674044733,0.0005800000000000002,0.185243220611685,0.0005800000000000002,0.2150037509716929
0.0006000000000000003,0.4470610737385377,0.0006000000000000003,0.18258166682519,0.0006000000000000003,0.1852366402763136,0.0006000000000000003,0.2150037509611186
0.0006200000000000003,0.4465772644703566,0.0006200000000000003,0.182581666263552,0.0006200000000000003,0.1852306858902096,0.0006200000000000003,0.2150037509637897
0.0006400000000000004,0.446147433786121,0.0006400000000000004,0.1825816658040743,0.0006400000000000004,0.1852254365560395,0.0006400000000000004,0.215003750954481
0.0006600000000000004,0.4457783603724899,0.0006600000000000004,0.1825816653792437,0.0006600000000000004,0.1852209588512465,0.0006600000000000004,0.2150037509588396
0.0006800000000000005,0.4454758647376699,0.0006800000000000005,0.1825816650649748,0.0006800000000000005,0.1852173097595062,0.0006800000000000005,0.2150037509515356
0.0007000000000000005,0.4452447174185242,0.0007000000000000005,0.1825816647945245,0.0007000000000000005,0.1852145334514897,0.0007000000000000005,0.2150037509540584
0.0007200000000000006,0.4450885637463566,0.0007200000000000006,0.1825816646419712,0.0007200000000000006,0.1852126644157144,0.0007200000000000006,0.2150037509458197
0.0007400000000000006,0.4450098663578587,0.0007400000000000006,0.1825816645392703,0.0007400000000000006,0.1852117243035272,0.0007400000000000006,0.2150037509557693
0.0007600000000000007,0.4450098663578587,0.0007600000000000007,0.1825816645552557,0.0007600000000000007,0.1852117251124888,0.0007600000000000007,0.2150037509435412
0.0007800000000000007,0.4450885637463566,0.0007800000000000007,0.1825816646261094,0.0007800000000000007,0.1852126660512126,0.0007800000000000007,0.21500375095619
0.0008000000000000008,0.4452447174185242,0.0008000000000000008,0.1825816648126692,0.0008000000000000008,0.1852145366705643,0.0008000000000000008,0.2150037509463541
0.0008200000000000008,0.4454758647376699,0.0008200000000000008,0.1825816650492589,0.0008200000000000008,0.1852173137280356,0.0008200000000000008,0.2150037509591758
0.0008400000000000009,0.44577836037249,0.0008400000000000009,0.1825816653979267,0.0008400000000000009,0.1852209642900168,0.0008400000000000009,0.2150037509509829
0.000860000000000001,0.4461474337861211,0.000860000000000001,0.1825816657883157,0.000860000000000001,0.1852254426013286,0.000860000000000001,0.2150037509627507
0.000880000000000001,0.4465772644703566,0.000880000000000001,0.1825816662855096,0.000880000000000001,0.1852306932212875,0.000880000000000001,0.2150037509554804
0.0009000000000000011,0.4470610737385377,0.0009000000000000011,0.1825816668071645,0.0009000000000000011,0.1852366480107894,0.0009000000000000011,0.2150037509716038
0.0009200000000000011,0.4475912316294915,0.0009200000000000011,0.1825816674260845,0.0009200000000000011,0.1852432293951002,0.0009200000000000011,0.2150037509643175
0.0009400000000000012,0.4481593772365767,0.0009400000000000012,0.1825816680565694,0.0009400000000000012,0.1852503476261211,0.0009400000000000012,0.2150037509793729
0.0009600000000000012,0.4487565505641758,0.0009600000000000012,0.1825816687604728,0.0009600000000000012,0.1852579043400576,0.0009600000000000012,0.2150037509730043
0.0009800000000000013,0.4493733338321785,0.0009800000000000013,0.1825816694644929,0.0009800000000000013,0.1852657902401207,0.0009800000000000013,0.215003750986941
0.001000000000000001,0.4500000000000001,0.001000000000000001,0.1825816702157954,0.001000000000000001,0.1852738891128184,0.001000000000000001,0.2150037509852347
0.001020000000000001,0.4506266661678216,0.001020000000000001,0.1825816709509665,0.001020000000000001,0.1852820761160666,0.001020000000000001,0.2150037509960901
0.001040000000000001,0.4512434494358243,0.001040000000000001,0.1825816717028328,0.001040000000000001,0.1852902223853399,0.001040000000000001,0.2150037509966665
0.001060000000000001,0.4518406227634235,0.001060000000000001,0.1825816724226068,0.001060000000000001,0.185298194001059,0.001060000000000001,0.2150037510062025
0.001080000000000002,0.4524087683705086,0.001080000000000002,0.1825816731296475,0.001080000000000002,0.1853058572444605,0.001080000000000002,0.2150037510069245
0.001100000000000002,0.4529389262614624,0.001100000000000002,0.1825816737796536,0.001100000000000002,0.185313078181643,0.001100000000000002,0.2150037510136305
0.001120000000000002,0.4534227355296435,0.001120000000000002,0.1825816743963339,0.001120000000000002,0.185319728500613,0.001120000000000002,0.2150037510158808
0.001140000000000002,0.453852566213879,0.001140000000000002,0.1825816749294696,0.001140000000000002,0.18532568545595,0.001140000000000002,0.215003751021917
0.001160000000000002,0.4542216396275101,0.001160000000000002,0.1825816754090895,0.001160000000000002,0.1853308379762882,0.001160000000000002,0.2150037510214087
0.001180000000000002,0.4545241352623302,0.001180000000000002,0.1825816757877927,0.001180000000000002,0.1853350865682048,0.001180000000000002,0.2150037510303095
0.001200000000000002,0.4547552825814758,0.001200000000000002,0.1825816760941482,0.001200000000000002,0.1853383492075075,0.001200000000000002,0.2150037510238531
0.001220000000000002,0.4549114362536434,0.001220000000000002,0.1825816762893472,0.001220000000000002,0.1853405606560967,0.001220000000000002,0.215003751033764
0.001240000000000002,0.4549901336421414,0.001240000000000002,0.1825816763955699,0.001240000000000002,0.1853416775758036,0.001240000000000002,0.2150037510275092
0.001260000000000002,0.4549901336421414,0.001260000000000002,0.1825816763901947,0.001260000000000002,0.1853416767669319,0.001260000000000002,0.215003751034805
0.001280000000000002,0.4549114362536434,0.001280000000000002,0.1825816762957336,0.001280000000000002,0.1853405590191714,0.001280000000000002,0.2150037510259553
0.001300000000000002,0.4547552825814757,0.001300000000000002,0.1825816760848458,0.001300000000000002,0.1853383459904551,0.001300000000000002,0.2150037510334008
0.001320000000000002,0.4545241352623301,0.001320000000000002,0.1825816757963194,0.001320000000000002,0.1853350825998233,0.001320000000000002,0.2150037510223647
0.001340000000000002,0.4542216396275101,0.001340000000000002,0.182581675398112,0.001340000000000002,0.1853308325389153,0.001340000000000002,0.2150037510286453
0.001360000000000002,0.4538525662138789,0.001360000000000002,0.1825816749376376,0.001360000000000002,0.1853256794083264,0.001360000000000002,0.215003751018261
0.001380000000000002,0.4534227355296434,0.001380000000000002,0.1825816743826306,0.001380000000000002,0.1853197211692595,0.001380000000000002,0.2150037510192418
0.001400000000000002,0.4529389262614623,0.001400000000000002,0.1825816737891586,0.001400000000000002,0.1853130704468219,0.001400000000000002,0.2150037510113881
0.001420000000000002,0.4524087683705085,0.001420000000000002,0.1825816731148799,0.001420000000000002,0.1853058484621806,0.001420000000000002,0.2150037510096111
0.001440000000000002,0.4518406227634233,0.001440000000000002,0.1825816724319965,0.001440000000000002,0.1852981850752337,0.001440000000000002,0.2150037510029726
0.001460000000000003,0.4512434494358242,0.001460000000000003,0.182581671688343,0.001460000000000003,0.1852902126958118,0.001460000000000003,0.2150037509979605
0.001480000000000003,0.4506266661678214,0.001480000000000003,0.1825816709605007,0.001480000000000003,0.1852820665732094,0.001480000000000003,0.2150037509945917
0.001500000000000003,0.45,0.001500000000000003,0.1825816702010803,0.001500000000000003,0.1852738791149378,0.001500000000000003,0.2150037509889432
0.001520000000000003,0.4493733338321784,0.001520000000000003,0.1825816694770748,0.001520000000000003,0.1852657806957474,0.001520000000000003,0.2150037509820928
0.001540000000000003,0.4487565505641757,0.001540000000000003,0.1825816687439455,0.001540000000000003,0.1852578946542407,0.001540000000000003,0.2150037509811351
0.001560000000000003,0.4481593772365766,0.001560000000000003,0.1825816680698351,0.001560000000000003,0.1852503386990291,0.001560000000000003,0.215003750969391
0.001580000000000003,0.4475912316294914,0.001580000000000003,0.1825816674091347,0.001580000000000003,0.1852432206155153,0.001580000000000003,0.2150037509726726
0.001600000000000003,0.4470610737385376,0.001600000000000003,0.1825816668186003,0.001600000000000003,0.1852366402744228,0.001600000000000003,0.2150037509623537
0.001620000000000003,0.4465772644703565,0.001620000000000003,0.1825816662700595,0.001620000000000003,0.1852306858910502,0.001620000000000003,0.2150037509647318
0.001640000000000003,0.446147433786121,0.001640000000000003,0.1825816657988292,0.001640000000000003,0.1852254365541961,0.001640000000000003,0.2150037509540277
0.001660000000000003,0.4457783603724899,0.001660000000000003,0.1825816653852335,0.001660000000000003,0.1852209588549486,0.001660000000000003,0.2150037509614432
0.001680000000000003,0.4454758647376699,0.001680000000000003,0.1825816650586013,0.001680000000000003,0.1852173097556882,0.001680000000000003,0.2150037509484424
0.001700000000000003,0.4452447174185242,0.001700000000000003,0.1825816647994499,0.001700000000000003,0.1852145334539815,0.001700000000000003,0.215003750957595
0.001720000000000003,0.4450885637463565,0.001720000000000003,0.1825816646374986,0.001720000000000003,0.1852126644122457,0.001720000000000003,0.215003750944683
0.001740000000000003,0.4450098663578587,0.001740000000000003,0.1825816645432548,0.001740000000000003,0.1852117243043149,0.001740000000000003,0.2150037509557928
0.001760000000000003,0.4450098663578587,0.001760000000000003,0.1825816645527753,0.001760000000000003,0.1852117251122909,0.001760000000000003,0.2150037509442292
0.001780000000000003,0.4450885637463566,0.001780000000000003,0.1825816646279817,0.001780000000000003,0.1852126660532005,0.001780000000000003,0.215003750956039
0.001800000000000003,0.4452447174185243,0.001800000000000003,0.1825816648103594,0.001800000000000003,0.1852145366675634,0.001800000000000003,0.2150037509454499
0.001820000000000003,0.44547586473767,0.001820000000000003,0.1825816650516297,0.001820000000000003,0.1852173137288799,0.001820000000000003,0.2150037509601538
0.001840000000000004,0.44577836037249,0.001840000000000004,0.1825816653948485,0.001840000000000004,0.1852209642903572,0.001840000000000004,0.2150037509482792
0.001860000000000004,0.4461474337861212,0.001860000000000004,0.1825816657922623,0.001860000000000004,0.1852254426018816,0.001860000000000004,0.2150037509656422
0.001880000000000004,0.4465772644703567,0.001880000000000004,0.1825816662792785,0.001880000000000004,0.1852306932228578,0.001880000000000004,0.2150037509566221
0.001900000000000004,0.4470610737385378,0.001900000000000004,0.1825816668126506,0.001900000000000004,0.1852366480084849,0.001900000000000004,0.2150037509687915
0.001920000000000004,0.4475912316294915,0.001920000000000004,0.1825816674214961,0.001920000000000004,0.1852432293964248,0.001920000000000004,0.2150037509661114
0.001940000000000004,0.4481593772365767,0.001940000000000004,0.1825816680608766,0.001940000000000004,0.1852503476234732,0.001940000000000004,0.2150037509776582
0.001960000000000004,0.4487565505641758,0.001960000000000004,0.1825816687577971,0.001960000000000004,0.1852579043453443,0.001960000000000004,0.2150037509751132
0.001980000000000004,0.4493733338321786,0.001980000000000004,0.1825816694681995,0.001980000000000004,0.1852657902343036,0.001980000000000004,0.2150037509863187
0.002000000000000004,0.4500000000000001,0.002000000000000004,0.1825816702135979,0.002000000000000004,0.1852738891172603,0.002000000000000004,0.2150037509867738
0.002020000000000004,0.4506266661678217,0.002020000000000004,0.1825816709531341,0.002020000000000004,0.1852820761086695,0.002020000000000004,0.2150037509969412
0.002040000000000004,0.4512434494358244,0.002040000000000004,0.1825816717023455,0.002040000000000004,0.1852902223936229,0.002040000000000004,0.2150037509967012
0.002060000000000004,0.4518406227634235,0.002060000000000004,0.1825816724223718,0.002060000000000004,0.1852981939933022,0.002060000000000004,0.2150037510055837
0.002080000000000004,0.4524087683705087,0.002080000000000004,0.1825816731295713,0.002080000000000004,0.1853058572506371,0.002080000000000004,0.2150037510061751
0.002100000000000004,0.4529389262614625,0.002100000000000004,0.1825816737781508,0.002100000000000004,0.1853130781766691,0.002100000000000004,0.2150037510160365
0.002120000000000004,0.4534227355296436,0.002120000000000004,0.1825816743961444,0.002120000000000004,0.1853197285050132,0.002120000000000004,0.2150037510136401
0.002140000000000004,0.453852566213879,0.002140000000000004,0.1825816749287707,0.002140000000000004,0.1853256854531844,0.002140000000000004,0.2150037510238829
0.002160000000000004,0.4542216396275102,0.002160000000000004,0.1825816754101396,0.002160000000000004,0.1853308379785506,0.002160000000000004,0.2150037510211694
0.002180000000000004,0.4545241352623302,0.002180000000000004,0.1825816757869235,0.002180000000000004,0.1853350865673207,0.002180000000000004,0.2150037510318434
0.002200000000000004,0.4547552825814758,0.002200000000000004,0.1825816760943688,0.002200000000000004,0.1853383492083701,0.002200000000000004,0.2150037510232927
0.002220000000000005,0.4549114362536435,0.002220000000000005,0.1825816762891141,0.002220000000000005,0.1853405606548691,0.002220000000000005,0.2150037510356261
0.002240000000000005,0.4549901336421414,0.002240000000000005,0.1825816763947678,0.002240000000000005,0.1853416775788021,0.002240000000000005,0.2150037510266078
0.002260000000000005,0.4549901336421414,0.002260000000000005,0.1825816763919889,0.002260000000000005,0.1853416767629222,0.002260000000000005,0.2150037510355685
0.002280000000000005,0.4549114362536434,0.002280000000000005,0.1825816762930062,0.002280000000000005,0.1853405590246488,0.002280000000000005,0.2150037510251817
0.002300000000000005,0.4547552825814757,0.002300000000000005,0.182581676085391,0.002300000000000005,0.1853383459846148,0.002300000000000005,0.2150037510337243
0.002320000000000005,0.45452413526233,0.002320000000000005,0.1825816757944525,0.002320000000000005,0.185335082606613,0.002320000000000005,0.2150037510234488
0.002340000000000005,0.45422163962751,0.002340000000000005,0.1825816753995686,0.002340000000000005,0.185330832531163,0.002340000000000005,0.2150037510278985
0.002360000000000005,0.4538525662138789,0.002360000000000005,0.182581674934744,0.002360000000000005,0.1853256794176769,0.002360000000000005,0.2150037510182985
0.002380000000000005,0.4534227355296434,0.002380000000000005,0.1825816743861196,0.002380000000000005,0.185319721159651,0.002380000000000005,0.215003751019209
0.002400000000000005,0.4529389262614623,0.002400000000000005,0.1825816737847259,0.002400000000000005,0.1853130704547792,0.002400000000000005,0.2150037510111929
0.002420000000000005,0.4524087683705084,0.002420000000000005,0.1825816731185593,0.002420000000000005,0.1853058484554231,0.002420000000000005,0.2150037510114984
0.002440000000000005,0.4518406227634232,0.002440000000000005,0.1825816724279003,0.002440000000000005,0.1852981850806183,0.002440000000000005,0.2150037510001049
0.002460000000000005,0.4512434494358241,0.002460000000000005,0.1825816716934359,0.002460000000000005,0.1852902126912891,0.002460000000000005,0.2150037510025541
0.002480000000000005,0.4506266661678214,0.002480000000000005,0.1825816709568111,0.002480000000000005,0.1852820665768513,0.002480000000000005,0.2150037509890946
0.002500000000000005,0.4499999999999998,0.002500000000000005,0.1825816702038224,0.002500000000000005,0.1852738791092398,0.002500000000000005,0.2150037509912087
0.002520000000000005,0.4493733338321783,0.002520000000000005,0.1825816694731001,0.002520000000000005,0.1852657807029917,0.002520000000000005,0.2150037509820138
0.002540000000000005,0.4487565505641756,0.002540000000000005,0.1825816687480041,0.002540000000000005,0.1852578946465226,0.002540000000000005,0.2150037509813626
0.002560000000000005,0.4481593772365765,0.002560000000000005,0.1825816680646671,0.002560000000000005,0.1852503387078397,0.002560000000000005,0.21500375097073
0.002580000000000005,0.4475912316294913,0.002580000000000005,0.1825816674111202,0.002580000000000005,0.1852432206076105,0.002580000000000005,0.2150037509722198
0.002600000000000006,0.4470610737385375,0.002600000000000006,0.1825816668173705,0.002600000000000006,0.1852366402827976,0.002600000000000006,0.2150037509619577
0.002620000000000006,0.4465772644703564,0.002620000000000006,0.1825816662698511,0.002620000000000006,0.1852306858848256,0.002620000000000006,0.2150037509665165
