/net039 X,/net039 Y,/net010 X,/net010 Y,/net09 X,/net09 Y,/net08 X,/net08 Y,/net02 X,/net02 Y
0,2.971417134201446e-05,0,2.971417134201288e-05,0,2.971417134182397e-05,0,3.611433739927683e-05,0,0
1.5e-11,2.971417134186018e-05,1.5e-11,2.971417134183757e-05,1.5e-11,2.97141713418521e-05,1.5e-11,3.611433739927713e-05,1.5e-11,0
4.5e-11,2.971417134202198e-05,4.5e-11,2.971417134198502e-05,4.5e-11,2.97141713419577e-05,4.5e-11,3.611433739948154e-05,4.5e-11,0
1.05e-10,2.971417134334179e-05,1.05e-10,2.971417134075976e-05,1.05e-10,2.971417134080028e-05,1.05e-10,3.611433739936636e-05,1.05e-10,0
2.25e-10,2.971417134098381e-05,2.25e-10,2.971417134349551e-05,2.25e-10,2.97141713464508e-05,2.25e-10,3.611433739925624e-05,2.25e-10,0
4.65e-10,2.971417134334868e-05,4.65e-10,2.971417134090295e-05,4.65e-10,2.971417133525503e-05,4.65e-10,3.611433739959353e-05,4.65e-10,0
7.649999999999999e-10,2.971417133802758e-05,7.649999999999999e-10,2.971417134330495e-05,7.649999999999999e-10,2.971417134888603e-05,7.649999999999999e-10,3.611433739933383e-05,7.649999999999999e-10,0
1.065e-09,2.97141713433946e-05,1.065e-09,2.971417133818696e-05,1.065e-09,2.971417133843171e-05,1.065e-09,3.611433739937287e-05,1.065e-09,0
1.365e-09,2.971417134088803e-05,1.365e-09,2.971417134888974e-05,1.365e-09,2.971417134305315e-05,1.365e-09,3.611433739920053e-05,1.365e-09,0
1.665e-09,2.971417134341323e-05,1.665e-09,2.971417133569786e-05,1.665e-09,2.971417134146794e-05,1.665e-09,3.611433739940276e-05,1.665e-09,0
1.8325e-09,2.971417134087787e-05,1.8325e-09,2.97141713512404e-05,1.8325e-09,2.97141713428977e-05,1.8325e-09,3.611433739931836e-05,1.8325e-09,0
2e-09,2.971417134371955e-05,2e-09,2.971417133062671e-05,2e-09,2.971417134176245e-05,2e-09,3.611433739962782e-05,2e-09,0
2.120144127384571e-09,2.971417134190224e-05,2.120144127384571e-09,2.97141713419323e-05,2.120144127384571e-09,2.971417134210022e-05,2.120144127384571e-09,3.611433740213015e-05,2.120144127384571e-09,0.06674673743587282
2.261585129605973e-09,2.971417134365682e-05,2.261585129605973e-09,2.971417134346107e-05,2.261585129605973e-09,2.971417134049621e-05,2.261585129605973e-09,3.611433736479333e-05,2.261585129605973e-09,0.1453250720033182
2.400273542617921e-09,2.971417134082575e-05,2.400273542617921e-09,2.971417134100469e-05,2.400273542617921e-09,2.971417134412767e-05,2.400273542617921e-09,3.611433751975651e-05,2.400273542617921e-09,0.2223741903432893
2.461897831167285e-09,2.971417134648368e-05,2.461897831167285e-09,2.97141713434309e-05,2.461897831167285e-09,2.971417133954121e-05,2.461897831167285e-09,3.611433687006155e-05,2.461897831167285e-09,0.2566099062040472
2.492709975441967e-09,2.97141713386297e-05,2.492709975441967e-09,2.971417134084314e-05,2.492709975441967e-09,2.971417135211737e-05,2.492709975441967e-09,3.611433920028325e-05,2.492709975441967e-09,0.273727764134426
2.554334263991331e-09,2.971417134584772e-05,2.554334263991331e-09,2.971417134332164e-05,2.554334263991331e-09,2.971417132596813e-05,2.554334263991331e-09,3.611433495853836e-05,2.554334263991331e-09,0.3079634799951836
2.576175243567067e-09,2.971417133927175e-05,2.576175243567067e-09,2.971417134111944e-05,2.576175243567067e-09,2.971417137126078e-05,2.576175243567067e-09,3.611434048765754e-05,2.576175243567067e-09,0.3200973575372592
2.619857202718539e-09,2.971417134479663e-05,2.619857202718539e-09,2.971417134584535e-05,2.619857202718539e-09,2.971417130638943e-05,2.619857202718539e-09,3.611433466438536e-05,2.619857202718539e-09,0.3443651126214103
2.629882193799552e-09,2.971417134063841e-05,2.629882193799552e-09,2.971417133744059e-05,2.629882193799552e-09,2.971417137044909e-05,2.629882193799552e-09,3.611433713319971e-05,2.629882193799552e-09,0.3499345521108622
2.649932175961579e-09,2.971417134117612e-05,2.649932175961579e-09,2.971417134382472e-05,2.649932175961579e-09,2.971417133013523e-05,2.649932175961579e-09,3.611433897842546e-05,2.649932175961579e-09,0.361073431089766
2.667369321515968e-09,2.971417134273911e-05,2.667369321515968e-09,2.971417134070363e-05,2.667369321515968e-09,2.97141713334547e-05,2.667369321515968e-09,3.611433531075877e-05,2.667369321515968e-09,0.3707607341755375
2.690081070481163e-09,2.971417134184839e-05,2.690081070481163e-09,2.971417134385205e-05,2.690081070481163e-09,2.971417136000224e-05,2.690081070481163e-09,3.611433939559327e-05,2.690081070481163e-09,0.3833783724895352
2.707418938047692e-09,2.97141713422841e-05,2.707418938047692e-09,2.971417134071449e-05,2.707418938047692e-09,2.971417131746723e-05,2.707418938047692e-09,3.611433576300813e-05,2.707418938047692e-09,0.3930105211376069
2.726298613947408e-09,2.971417133978341e-05,2.726298613947408e-09,2.971417134114884e-05,2.726298613947408e-09,2.971417136693939e-05,2.726298613947408e-09,3.611433865039392e-05,2.726298613947408e-09,0.4034992299707823
2.748824624350568e-09,2.97141713416573e-05,2.748824624350568e-09,2.971417134295161e-05,2.748824624350568e-09,2.971417132122234e-05,2.748824624350568e-09,3.611433644353446e-05,2.748824624350568e-09,0.4160136801947596
2.783311299360259e-09,2.971417134249794e-05,2.783311299360259e-09,2.971417134143011e-05,2.783311299360259e-09,2.971417135933725e-05,2.783311299360259e-09,3.611433818548021e-05,2.783311299360259e-09,0.435172944089033
2.809859530995716e-09,2.971417133922965e-05,2.809859530995716e-09,2.971417134017396e-05,2.809859530995716e-09,2.971417132421446e-05,2.809859530995716e-09,3.611433680294659e-05,2.809859530995716e-09,0.4499219616642866
2.837467069331346e-09,2.971417134476409e-05,2.837467069331346e-09,2.971417134369089e-05,2.837467069331346e-09,2.9714171355757e-05,2.837467069331346e-09,3.611433784410491e-05,2.837467069331346e-09,0.4652594829618587
2.867288315571924e-09,2.971417133946063e-05,2.867288315571924e-09,2.971417134061558e-05,2.867288315571924e-09,2.971417133026143e-05,2.867288315571924e-09,3.611433707051487e-05,2.867288315571924e-09,0.4818268419844021
2.900548129450858e-09,2.971417134461597e-05,2.900548129450858e-09,2.971417134342311e-05,2.900548129450858e-09,2.971417135553478e-05,2.900548129450858e-09,3.611433764149654e-05,2.900548129450858e-09,0.5003045163615879
2.926017529074907e-09,2.97141713402299e-05,2.926017529074907e-09,2.971417133853487e-05,2.926017529074907e-09,2.971417133102257e-05,2.926017529074907e-09,3.611433724929255e-05,2.926017529074907e-09,0.5144541828193928
2.965035807426573e-09,2.971417134415398e-05,2.965035807426573e-09,2.971417134309303e-05,2.965035807426573e-09,2.971417135258647e-05,2.965035807426573e-09,3.611433750086933e-05,2.965035807426573e-09,0.5361310041258738
3.002829316164563e-09,2.971417134026588e-05,3.002829316164563e-09,2.971417134113914e-05,3.002829316164563e-09,2.971417133288372e-05,3.002829316164563e-09,3.611433733985759e-05,3.002829316164563e-09,0.5571273978692017
3.050273198127691e-09,2.971417134411499e-05,3.050273198127691e-09,2.971417134315608e-05,3.050273198127691e-09,2.971417135359204e-05,3.050273198127691e-09,3.6114337430863e-05,3.050273198127691e-09,0.5834851100709396
3.093918352345879e-09,2.971417134041166e-05,3.093918352345879e-09,2.971417134111622e-05,3.093918352345879e-09,2.971417133189778e-05,3.093918352345879e-09,3.611433739477407e-05,3.093918352345879e-09,0.6077324179699328
3.10711256482217e-09,2.971417134354266e-05,3.10711256482217e-09,2.971417134299077e-05,3.10711256482217e-09,2.971417134905636e-05,3.10711256482217e-09,3.611433733894346e-05,3.10711256482217e-09,0.6150625360123166
3.113709671060315e-09,2.971417134346581e-05,3.113709671060315e-09,2.971417134141746e-05,3.113709671060315e-09,2.971417134125497e-05,3.113709671060315e-09,3.611433751294855e-05,3.113709671060315e-09,0.6187275950335084
3.126903883536606e-09,2.97141713439289e-05,3.126903883536606e-09,2.971417134074459e-05,3.126903883536606e-09,2.971417134123667e-05,3.126903883536606e-09,3.611433727799725e-05,3.126903883536606e-09,0.6260577130758921
3.130481609572021e-09,2.971417134137852e-05,3.130481609572021e-09,2.971417134013055e-05,3.130481609572021e-09,2.971417134121234e-05,3.130481609572021e-09,3.611433748489799e-05,3.130481609572021e-09,0.6280453386511224
3.13763706164285e-09,2.971417134351973e-05,3.13763706164285e-09,2.971417134341719e-05,3.13763706164285e-09,2.971417133771947e-05,3.13763706164285e-09,3.611433715103386e-05,3.13763706164285e-09,0.6320205898015835
3.143740554719021e-09,2.971417134106409e-05,3.143740554719021e-09,2.971417134176612e-05,3.143740554719021e-09,2.971417135977803e-05,3.143740554719021e-09,3.611433776612328e-05,3.143740554719021e-09,0.635411419288345
3.150227599946394e-09,2.971417134429519e-05,3.150227599946394e-09,2.971417134197889e-05,3.150227599946394e-09,2.9714171363249e-05,3.150227599946394e-09,3.611433816732188e-05,3.150227599946394e-09,0.639015333303552
3.156473238504741e-09,2.971417133715103e-05,3.156473238504741e-09,2.97141713405235e-05,3.156473238504741e-09,2.971417125906448e-05,3.156473238504741e-09,3.611433636447087e-05,3.156473238504741e-09,0.6424851325026338
3.165908004100565e-09,2.971417134554702e-05,3.165908004100565e-09,2.971417134371506e-05,3.165908004100565e-09,2.971417150117999e-05,3.165908004100565e-09,3.611434046804843e-05,3.165908004100565e-09,0.6477266689447582
3.173799335102549e-09,2.971417131728934e-05,3.173799335102549e-09,2.971417133975766e-05,3.173799335102549e-09,2.971417050821699e-05,3.173799335102549e-09,3.611431788288666e-05,3.173799335102549e-09,0.6521107417236383
3.183118236531407e-09,2.971417122225054e-05,3.183118236531407e-09,2.971417134216852e-05,3.183118236531407e-09,2.971416583995463e-05,3.183118236531407e-09,3.611413365343923e-05,3.183118236531407e-09,0.6572879091841151
3.190779766872946e-09,2.971417313732289e-05,3.190779766872946e-09,2.971417136808726e-05,3.190779766872946e-09,2.971422929657234e-05,3.190779766872946e-09,3.611573457720153e-05,3.190779766872946e-09,0.6615443149294146
3.192934369104082e-09,2.971417897504831e-05,3.192934369104082e-09,2.971417150240347e-05,3.192934369104082e-09,2.971438128326131e-05,3.192934369104082e-09,3.611866630363616e-05,3.192934369104082e-09,0.6627413161689343
3.197243573566353e-09,2.971417324394256e-05,3.197243573566353e-09,2.971417118673486e-05,3.197243573566353e-09,2.971433621545868e-05,3.197243573566353e-09,3.612196108945883e-05,3.197243573566353e-09,0.6651353186479737
3.202385444440177e-09,2.971414125555249e-05,3.202385444440177e-09,2.971417078320185e-05,3.202385444440177e-09,2.971333892026967e-05,3.202385444440177e-09,3.610313986066606e-05,3.202385444440177e-09,0.6679919135778761
3.207282155387572e-09,2.97141727936359e-05,3.207282155387572e-09,2.971417178061892e-05,3.207282155387572e-09,2.971195102087214e-05,3.207282155387572e-09,3.605538750888848e-05,3.207282155387572e-09,0.670712308548651
3.212514607834335e-09,2.971417149917064e-05,3.212514607834335e-09,2.971417153365831e-05,3.212514607834335e-09,2.971093725991158e-05,3.212514607834335e-09,3.598154441425711e-05,3.212514607834335e-09,0.6736192265746306
3.218600226574804e-09,2.971416064476383e-05,3.218600226574804e-09,2.971417406864353e-05,3.218600226574804e-09,2.972597145160189e-05,3.218600226574804e-09,3.625355063983658e-05,3.218600226574804e-09,0.6770001258748908
3.223366017568423e-09,2.971430887855533e-05,3.223366017568423e-09,2.97141669261322e-05,3.223366017568423e-09,2.971951510191403e-05,3.223366017568423e-09,3.637615261472136e-05,3.223366017568423e-09,0.679647787538013
3.229109683874842e-09,2.971420272638986e-05,3.229109683874842e-09,2.971416907503344e-05,3.229109683874842e-09,2.970082763960239e-05,3.229109683874842e-09,3.606742583120612e-05,3.229109683874842e-09,0.6828387132638009
3.235296288800045e-09,2.971402871849332e-05,3.235296288800045e-09,2.971417770471859e-05,3.235296288800045e-09,2.971355018344884e-05,3.235296288800045e-09,3.600399481622169e-05,3.235296288800045e-09,0.6862757160000252
3.241514504978132e-09,2.971433831265633e-05,3.241514504978132e-09,2.971416892868947e-05,3.241514504978132e-09,2.971682082097882e-05,3.241514504978132e-09,3.608011860453783e-05,3.241514504978132e-09,0.6897302805434068
3.247944188109496e-09,2.971432932604693e-05,3.247944188109496e-09,2.971417149939534e-05,3.247944188109496e-09,2.971466806027722e-05,3.247944188109496e-09,3.611240989798944e-05,3.247944188109496e-09,0.6933023267274979
3.253974051008976e-09,2.971404021008527e-05,3.253974051008976e-09,2.971416912027763e-05,3.253974051008976e-09,2.971222766529773e-05,3.253974051008976e-09,3.60656579980343e-05,3.253974051008976e-09,0.6966522505605425
3.25900553389167e-09,2.971431228918905e-05,3.25900553389167e-09,2.971417280235028e-05,3.25900553389167e-09,2.970790208784824e-05,3.25900553389167e-09,3.59242128862346e-05,3.25900553389167e-09,0.6994475188287056
3.262876757336654e-09,2.970798673093664e-05,3.262876757336654e-09,2.971413212192069e-05,3.262876757336654e-09,2.970849253053481e-05,3.262876757336654e-09,3.570987257839682e-05,3.262876757336654e-09,0.7015981985203631
3.266355732324838e-09,2.964296203362254e-05,3.266355732324838e-09,2.971373199414049e-05,3.266355732324838e-09,2.971720700822442e-05,3.266355732324838e-09,3.448804552502588e-05,3.266355732324838e-09,0.7035309624026876
3.269904019238078e-09,2.962232673020253e-05,3.269904019238078e-09,2.971405793574315e-05,3.269904019238078e-09,2.973003896718325e-05,3.269904019238078e-09,3.324159115717286e-05,3.269904019238078e-09,0.7055022329100432
3.272962346064374e-09,2.987594078985674e-05,3.272962346064374e-09,2.971617669351041e-05,3.272962346064374e-09,2.973617446779109e-05,3.272962346064374e-09,3.675507484386502e-05,3.272962346064374e-09,0.7072013033690965
3.275936530674738e-09,3.09575565888307e-05,3.275936530674738e-09,2.97221987190095e-05,3.275936530674738e-09,2.973441306923271e-05,3.275936530674738e-09,5.759455767456942e-05,3.275936530674738e-09,0.7088536281526324
3.278798749162704e-09,3.198844119737291e-05,3.278798749162704e-09,2.972172169508971e-05,3.278798749162704e-09,2.97317400550597e-05,3.278798749162704e-09,9.000590621719787e-05,3.278798749162704e-09,0.7104437495348356
3.280897922377409e-09,3.149235777615162e-05,3.280897922377409e-09,2.970931241516803e-05,3.280897922377409e-09,2.973042378565653e-05,3.280897922377409e-09,0.0001004853111181885,3.280897922377409e-09,0.7116099568763382
3.283471208107847e-09,2.981392977059358e-05,3.283471208107847e-09,2.96978422478672e-05,3.283471208107847e-09,2.97026495328549e-05,3.283471208107847e-09,2.859945200220482e-05,3.283471208107847e-09,0.7130395600599152
3.286264138338454e-09,2.78736759775098e-05,3.286264138338454e-09,2.969760542590936e-05,3.286264138338454e-09,2.966779015065958e-05,3.286264138338454e-09,-0.0003777478813420889,3.286264138338454e-09,0.7145911879658079
3.289041481765652e-09,1.874370524705113e-05,3.289041481765652e-09,2.971307394549667e-05,3.289041481765652e-09,2.967136647413597e-05,3.289041481765652e-09,-0.001177337802229667,3.289041481765652e-09,0.7161341565364732
3.291650950511688e-09,6.7322220724234e-06,3.291650950511688e-09,2.974446078851585e-05,3.291650950511688e-09,2.970966012328104e-05,3.291650950511688e-09,-0.001408009286026016,3.291650950511688e-09,0.7175838613953819
3.293962809617869e-09,5.401044566696023e-06,3.293962809617869e-09,2.974297702597713e-05,3.293962809617869e-09,2.971759507708041e-05,3.293962809617869e-09,-0.001129341237483727,3.293962809617869e-09,0.7188682275654827
3.296333036693104e-09,1.420731533124386e-05,3.296333036693104e-09,2.972162857492864e-05,3.296333036693104e-09,2.970574295417419e-05,3.296333036693104e-09,-0.0007291126311374886,3.296333036693104e-09,0.7201850203850578
3.298467526951633e-09,2.656920399718081e-05,3.298467526951633e-09,2.972725715392798e-05,3.298467526951633e-09,2.970342347703196e-05,3.298467526951633e-09,-0.0004666808356979287,3.298467526951633e-09,0.7213708483064626
3.300608582396288e-09,4.294445052272868e-05,3.300608582396288e-09,2.973537081099289e-05,3.300608582396288e-09,2.970141136473447e-05,3.300608582396288e-09,-0.0005259651297381147,3.300608582396288e-09,0.7225603235534934
3.302664933059417e-09,8.053908183799479e-05,3.302664933059417e-09,2.975008701261319e-05,3.302664933059417e-09,2.970926804175816e-05,3.302664933059417e-09,-0.0009522868793661155,3.302664933059417e-09,0.723702740588565
3.305182489847029e-09,0.0002387129640229286,3.305182489847029e-09,2.972809879769716e-05,3.305182489847029e-09,2.971989822359096e-05,3.305182489847029e-09,-0.001873500876132976,3.305182489847029e-09,0.7251013832483495
3.307872189530517e-09,0.0006690834732632956,3.307872189530517e-09,2.967788511348216e-05,3.307872189530517e-09,2.973722433051308e-05,3.307872189530517e-09,-0.002862614790861611,3.307872189530517e-09,0.7265956608502873
3.310326585023842e-09,-0.0002735248480732552,3.310326585023842e-09,2.963821176511076e-05,3.310326585023842e-09,2.974070592049252e-05,3.310326585023842e-09,-0.003521194236895286,3.310326585023842e-09,0.7279592139021346
3.312913195254834e-09,-0.007897260463527784,3.312913195254834e-09,2.961950761161985e-05,3.312913195254834e-09,2.973716132461121e-05,3.312913195254834e-09,-0.003791036045866997,3.312913195254834e-09,0.7293962195860189
3.315424493959605e-09,-0.01626131935194704,3.315424493959605e-09,2.963754660033354e-05,3.315424493959605e-09,2.973235121613327e-05,3.315424493959605e-09,-0.003486784430736042,3.315424493959605e-09,0.730791385533114
3.317703037752718e-09,-0.01148840541075253,3.317703037752718e-09,2.967954586326598e-05,3.317703037752718e-09,2.972428947935744e-05,3.317703037752718e-09,-0.002718240842552441,3.317703037752718e-09,0.7320572431959547
3.320094234148646e-09,0.03517376763206167,3.320094234148646e-09,2.971844525585158e-05,3.320094234148646e-09,2.970164907040077e-05,3.320094234148646e-09,-0.001960309689529051,3.320094234148646e-09,0.7333856856381369
3.321956032933674e-09,0.1128357220863215,3.321956032933674e-09,2.97561591012013e-05,3.321956032933674e-09,2.97022006451558e-05,3.321956032933674e-09,-0.001293055153166483,3.321956032933674e-09,0.7344200182964853
3.324207532118957e-09,0.2412920391717894,3.324207532118957e-09,2.979771801587e-05,3.324207532118957e-09,2.97169135305466e-05,3.324207532118957e-09,-8.659486353976577e-05,3.324207532118957e-09,0.7356708511771984
3.326630904180716e-09,0.3984755811414115,3.326630904180716e-09,2.977808434708327e-05,3.326630904180716e-09,2.970545030228702e-05,3.326630904180716e-09,0.001265359783538054,3.326630904180716e-09,0.7370171689892864
3.329769020877189e-09,0.5962506354429513,3.329769020877189e-09,2.973969662016e-05,3.329769020877189e-09,2.96968281209665e-05,3.329769020877189e-09,0.002642367774030899,3.329769020877189e-09,0.7387605671539939
3.332308556188003e-09,0.723557703357755,3.332308556188003e-09,2.971597958898727e-05,3.332308556188003e-09,2.969575666519488e-05,3.332308556188003e-09,0.003209088344363321,3.332308556188003e-09,0.740171420104446
3.334621403606065e-09,0.8028000589398364,3.334621403606065e-09,2.971322739760195e-05,3.334621403606065e-09,2.970362828324877e-05,3.334621403606065e-09,0.003310517801415346,3.334621403606065e-09,0.7414563353367029
3.336924121415041e-09,0.8772686487131642,3.336924121415041e-09,2.971638217694802e-05,3.336924121415041e-09,2.971398911146754e-05,3.336924121415041e-09,0.003148916994822153,3.336924121415041e-09,0.7427356230083559
3.33960577841035e-09,1.049703914279531,3.33960577841035e-09,2.972050137668339e-05,3.33960577841035e-09,2.972079657844426e-05,3.33960577841035e-09,0.002751961134631502,3.33960577841035e-09,0.7442254324501947
3.341909743161746e-09,1.413635575181081,3.341909743161746e-09,2.972136649470982e-05,3.341909743161746e-09,2.97243097228376e-05,3.341909743161746e-09,0.002348688422810245,3.341909743161746e-09,0.7455054128676366
3.343740956185539e-09,1.959494465965943,3.343740956185539e-09,2.972189985713846e-05,3.343740956185539e-09,2.972484598995813e-05,3.343740956185539e-09,0.002050766473015751,3.343740956185539e-09,0.7465227534364103
3.345485345270196e-09,2.666708186959156,3.345485345270196e-09,2.971909495830574e-05,3.345485345270196e-09,2.972343407878673e-05,3.345485345270196e-09,0.001799977304059361,3.345485345270196e-09,0.7474918584834422
