/net039 X,/net039 Y,/net010 X,/net010 Y,/net09 X,/net09 Y,/net08 X,/net08 Y,/net02 X,/net02 Y
0,2.663217325358913e-05,0,2.663217325358047e-05,0,2.663217325364643e-05,0,3.331728382202624e-05,0,0
1.5e-11,2.663217325350111e-05,1.5e-11,2.663217325367821e-05,1.5e-11,2.663217325356029e-05,1.5e-11,3.33172838220185e-05,1.5e-11,0
4.5e-11,2.663217325366041e-05,4.5e-11,2.663217325357201e-05,4.5e-11,2.663217325349548e-05,4.5e-11,3.33172838219952e-05,4.5e-11,0
1.05e-10,2.663217325241102e-05,1.05e-10,2.66321732501782e-05,1.05e-10,2.663217325271934e-05,1.05e-10,3.331728382165267e-05,1.05e-10,0
2.25e-10,2.663217325562e-05,2.25e-10,2.663217325515359e-05,2.25e-10,2.663217325527703e-05,2.25e-10,3.331728382177515e-05,2.25e-10,0
4.65e-10,2.66321732523959e-05,4.65e-10,2.663217325260314e-05,4.65e-10,2.663217325007908e-05,4.65e-10,3.331728382179332e-05,4.65e-10,0
7.649999999999999e-10,2.663217325574856e-05,7.649999999999999e-10,2.663217325560262e-05,7.649999999999999e-10,2.663217325779925e-05,7.649999999999999e-10,3.331728382172909e-05,7.649999999999999e-10,0
1.065e-09,2.663217325235659e-05,1.065e-09,2.663217325228316e-05,1.065e-09,2.663217325035277e-05,1.065e-09,3.33172838218914e-05,1.065e-09,0
1.365e-09,2.663217325567798e-05,1.365e-09,2.663217325584062e-05,1.365e-09,2.663217326049278e-05,1.365e-09,3.331728382157076e-05,1.365e-09,0
1.665e-09,2.663217325225867e-05,1.665e-09,2.663217325212147e-05,1.665e-09,2.663217324783562e-05,1.665e-09,3.331728382245137e-05,1.665e-09,0
1.8325e-09,2.663217325310241e-05,1.8325e-09,2.663217325585795e-05,1.8325e-09,2.663217326021492e-05,1.8325e-09,3.331728382137523e-05,1.8325e-09,0
2e-09,2.663217325760377e-05,2e-09,2.663217325202175e-05,2e-09,2.663217324517524e-05,2e-09,3.331728382234692e-05,2e-09,0
2.120144127384571e-09,2.663217325371693e-05,2.120144127384571e-09,2.663217325360516e-05,2.120144127384571e-09,2.663217325348883e-05,2.120144127384571e-09,3.331728382406881e-05,2.120144127384571e-09,0.06674673743587282
2.261585129605973e-09,2.663217325260521e-05,2.261585129605973e-09,2.663217325265381e-05,2.261585129605973e-09,2.663217325277418e-05,2.261585129605973e-09,3.331728379277578e-05,2.261585129605973e-09,0.1453250720033182
2.400273549669918e-09,2.663217325289904e-05,2.400273549669918e-09,2.663217325534825e-05,2.400273549669918e-09,2.663217325242019e-05,2.400273549669918e-09,3.331728392462022e-05,2.400273549669918e-09,0.2223741942610655
2.463884243481865e-09,2.663217325502372e-05,2.463884243481865e-09,2.663217325005366e-05,2.463884243481865e-09,2.663217325525627e-05,2.463884243481865e-09,3.331728337864152e-05,2.463884243481865e-09,0.2577134686010359
2.495689590387838e-09,2.663217325325089e-05,2.495689590387838e-09,2.663217325757681e-05,2.495689590387838e-09,2.66321732569985e-05,2.495689590387838e-09,3.331728537331269e-05,2.495689590387838e-09,0.2753831057710212
2.559300284199785e-09,2.663217325209657e-05,2.559300284199785e-09,2.663217325048126e-05,2.559300284199785e-09,2.663217324236346e-05,2.559300284199785e-09,3.33172816751928e-05,2.559300284199785e-09,0.3107223801109916
2.581177121833801e-09,2.663217325820737e-05,2.581177121833801e-09,2.663217325716699e-05,2.581177121833801e-09,2.663217327750923e-05,2.581177121833801e-09,3.331728674975393e-05,2.581177121833801e-09,0.3228761787965563
2.624930797101834e-09,2.663217324759617e-05,2.624930797101834e-09,2.6632173251151e-05,2.624930797101834e-09,2.663217322328399e-05,2.624930797101834e-09,3.331728111284098e-05,2.624930797101834e-09,0.3471837761676857
2.636704581815561e-09,2.663217325620847e-05,2.636704581815561e-09,2.663217325590709e-05,2.636704581815561e-09,2.66321732839818e-05,2.636704581815561e-09,3.331728416572365e-05,2.636704581815561e-09,0.3537247676753115
2.660252151243014e-09,2.663217325167045e-05,2.660252151243014e-09,2.663217325188555e-05,2.660252151243014e-09,2.663217323604316e-05,2.660252151243014e-09,3.331728480453449e-05,2.660252151243014e-09,0.3668067506905632
2.677693199870216e-09,2.663217325370892e-05,2.677693199870216e-09,2.663217325572514e-05,2.677693199870216e-09,2.663217325092252e-05,2.677693199870216e-09,3.331728187503007e-05,2.677693199870216e-09,0.3764962221501202
2.694139070647545e-09,2.663217325420168e-05,2.694139070647545e-09,2.66321732525997e-05,2.694139070647545e-09,2.663217327130997e-05,2.694139070647545e-09,3.33172859341808e-05,2.694139070647545e-09,0.3856328170264138
2.711226755010682e-09,2.663217325384601e-05,2.711226755010682e-09,2.663217325295208e-05,2.711226755010682e-09,2.663217323067678e-05,2.711226755010682e-09,3.331728199441773e-05,2.711226755010682e-09,0.3951259750059343
2.728934022984649e-09,2.66321732538943e-05,2.728934022984649e-09,2.66321732547328e-05,2.728934022984649e-09,2.663217327838263e-05,2.728934022984649e-09,3.331728524363629e-05,2.728934022984649e-09,0.4049633461025827
2.750522669345479e-09,2.6632173254245e-05,2.750522669345479e-09,2.663217325579997e-05,2.750522669345479e-09,2.663217323027046e-05,2.750522669345479e-09,3.331728273110377e-05,2.750522669345479e-09,0.4169570385252661
2.774966099297913e-09,2.66321732538041e-05,2.774966099297913e-09,2.663217325261785e-05,2.774966099297913e-09,2.663217327619005e-05,2.774966099297913e-09,3.331728465146014e-05,2.774966099297913e-09,0.4305367218321737
2.801960707580163e-09,2.663217325411758e-05,2.801960707580163e-09,2.663217325529906e-05,2.801960707580163e-09,2.663217323358337e-05,2.801960707580163e-09,3.331728319590379e-05,2.801960707580163e-09,0.4455337264334237
2.827844435030243e-09,2.663217325122853e-05,2.827844435030243e-09,2.663217325304165e-05,2.827844435030243e-09,2.663217326957619e-05,2.827844435030243e-09,3.331728426936964e-05,2.827844435030243e-09,0.4599135750168014
2.855533207142256e-09,2.663217325917591e-05,2.855533207142256e-09,2.663217325493834e-05,2.855533207142256e-09,2.663217324000593e-05,2.855533207142256e-09,3.331728351253536e-05,2.855533207142256e-09,0.4752962261901423
2.880310642011524e-09,2.663217325197625e-05,2.880310642011524e-09,2.663217325338818e-05,2.880310642011524e-09,2.663217326558298e-05,2.880310642011524e-09,3.331728400686119e-05,2.880310642011524e-09,0.4890614677841802
2.907231770533753e-09,2.663217325571629e-05,2.907231770533753e-09,2.663217325201794e-05,2.907231770533753e-09,2.663217324408055e-05,2.907231770533753e-09,3.331728372780632e-05,2.907231770533753e-09,0.5040176502965295
2.932459389522909e-09,2.663217325220334e-05,2.932459389522909e-09,2.663217325544478e-05,2.932459389522909e-09,2.663217325982857e-05,2.932459389522909e-09,3.331728384005525e-05,2.932459389522909e-09,0.518032994179394
2.982914627501221e-09,2.663217325591914e-05,2.982914627501221e-09,2.663217325285872e-05,2.982914627501221e-09,2.663217324858583e-05,2.982914627501221e-09,3.331728383452688e-05,2.982914627501221e-09,0.5460636819451229
3.020783403081599e-09,2.663217324959495e-05,3.020783403081599e-09,2.663217325474571e-05,3.020783403081599e-09,2.663217325871071e-05,3.020783403081599e-09,3.331728377435783e-05,3.020783403081599e-09,0.5671018906008883
3.068259075954396e-09,2.663217325827334e-05,3.068259075954396e-09,2.66321732506924e-05,3.068259075954396e-09,2.663217324994977e-05,3.068259075954396e-09,3.33172838939029e-05,3.068259075954396e-09,0.5934772644191091
3.079454852786647e-09,2.663217325320086e-05,3.079454852786647e-09,2.663217325641219e-05,3.079454852786647e-09,2.663217325523656e-05,3.079454852786647e-09,3.331728367848869e-05,3.079454852786647e-09,0.5996971404370259
3.101846406451147e-09,2.663217325508193e-05,3.101846406451147e-09,2.663217324930969e-05,3.101846406451147e-09,2.663217325289439e-05,3.101846406451147e-09,3.331728398437301e-05,3.101846406451147e-09,0.6121368924728593
3.110845141028105e-09,2.663217325323517e-05,3.110845141028105e-09,2.663217325719286e-05,3.110845141028105e-09,2.663217325162338e-05,3.110845141028105e-09,3.331728363699508e-05,3.110845141028105e-09,0.6171361894600583
3.128842610182021e-09,2.663217325274274e-05,3.128842610182021e-09,2.663217324830705e-05,3.128842610182021e-09,2.663217325641242e-05,3.128842610182021e-09,3.331728400615637e-05,3.128842610182021e-09,0.6271347834344561
3.132480009598107e-09,2.66321732521065e-05,3.132480009598107e-09,2.663217325365711e-05,3.132480009598107e-09,2.663217325001898e-05,3.132480009598107e-09,3.331728362131451e-05,3.132480009598107e-09,0.629155560887837
3.139754808430278e-09,2.663217325561977e-05,3.139754808430278e-09,2.663217325290934e-05,3.139754808430278e-09,2.663217325178891e-05,3.139754808430278e-09,3.331728385881427e-05,3.139754808430278e-09,0.6331971157945987
3.14596837680563e-09,2.663217325425352e-05,3.14596837680563e-09,2.663217325557621e-05,3.14596837680563e-09,2.663217325989215e-05,3.14596837680563e-09,3.331728379841513e-05,3.14596837680563e-09,0.63664909822535
3.152946124760293e-09,2.663217325546878e-05,3.152946124760293e-09,2.66321732525726e-05,3.152946124760293e-09,2.663217328903352e-05,3.152946124760293e-09,3.331728505523849e-05,3.152946124760293e-09,0.6405256248668294
3.158996346155035e-09,2.663217324905172e-05,3.158996346155035e-09,2.663217325292311e-05,3.158996346155035e-09,2.663217314701306e-05,3.158996346155035e-09,3.331728231427621e-05,3.158996346155035e-09,0.6438868589750192
3.168206121310588e-09,2.663217325788567e-05,3.168206121310588e-09,2.663217325645328e-05,3.168206121310588e-09,2.663217344943277e-05,3.168206121310588e-09,3.331728766378595e-05,3.168206121310588e-09,0.6490034007281043
3.175702628529099e-09,2.663217322561564e-05,3.175702628529099e-09,2.663217324965043e-05,3.175702628529099e-09,2.663217238899346e-05,3.175702628529099e-09,3.331726437728284e-05,3.175702628529099e-09,0.6531681269606103
3.184866768011688e-09,2.663217312042949e-05,3.184866768011688e-09,2.663217325425269e-05,3.184866768011688e-09,2.663216716687827e-05,3.184866768011688e-09,3.331705870548788e-05,3.184866768011688e-09,0.6582593155620486
3.192046462548953e-09,2.663217510159137e-05,3.192046462548953e-09,2.663217328221452e-05,3.192046462548953e-09,2.663223146343801e-05,3.192046462548953e-09,3.331863145401924e-05,3.192046462548953e-09,0.6622480347494184
3.194163695289369e-09,2.663218130965342e-05,3.194163695289369e-09,2.663217342578041e-05,3.194163695289369e-09,2.663239444706534e-05,3.194163695289369e-09,3.332174166227362e-05,3.194163695289369e-09,0.6634242751607603
3.198398160770199e-09,2.663217565301218e-05,3.198398160770199e-09,2.663217309143906e-05,3.198398160770199e-09,2.663235860056766e-05,3.198398160770199e-09,3.332555860424828e-05,3.198398160770199e-09,0.665776755983444
3.203248101568083e-09,2.663214111174491e-05,3.203248101568083e-09,2.663217264895302e-05,3.203248101568083e-09,2.663137583855817e-05,3.203248101568083e-09,3.330776592646004e-05,3.203248101568083e-09,0.6684711675378238
3.208030613973929e-09,2.663217403377756e-05,3.208030613973929e-09,2.66321737883721e-05,3.208030613973929e-09,2.663024516695104e-05,3.208030613973929e-09,3.326582156908524e-05,3.208030613973929e-09,0.6711281188744049
3.212982549237353e-09,2.663218750119743e-05,3.212982549237353e-09,2.663217330453888e-05,3.212982549237353e-09,2.662856223763601e-05,3.212982549237353e-09,3.318566625785436e-05,3.212982549237353e-09,0.6738791940207518
3.218239684788294e-09,2.663212240532415e-05,3.218239684788294e-09,2.663217584664723e-05,3.218239684788294e-09,2.664137902070237e-05,3.218239684788294e-09,3.338334974028071e-05,3.218239684788294e-09,0.6767998248823857
3.223004261298946e-09,2.663231733657719e-05,3.223004261298946e-09,2.663217109843356e-05,3.223004261298946e-09,2.664184628646437e-05,3.223004261298946e-09,3.36052906694006e-05,3.223004261298946e-09,0.6794468118327476
3.228037717808487e-09,2.663225600700673e-05,3.228037717808487e-09,2.663216739644014e-05,3.228037717808487e-09,2.661961221926966e-05,3.228037717808487e-09,3.333723784787129e-05,3.228037717808487e-09,0.6822431765602704
3.235074595970926e-09,2.663198534253562e-05,3.235074595970926e-09,2.663218126566952e-05,3.235074595970926e-09,2.662994283877836e-05,3.235074595970926e-09,3.318897279930842e-05,3.235074595970926e-09,0.6861525533171808
3.240698355211108e-09,2.663232785662131e-05,3.240698355211108e-09,2.663217158218775e-05,3.240698355211108e-09,2.663574200586283e-05,3.240698355211108e-09,3.328287100263878e-05,3.240698355211108e-09,0.6892768640061708
3.246339571187242e-09,2.663245279065861e-05,3.246339571187242e-09,2.663217110121762e-05,3.246339571187242e-09,2.663196214614077e-05,3.246339571187242e-09,3.329802832784446e-05,3.246339571187242e-09,0.6924108728818009
3.251758266566436e-09,2.663228944104447e-05,3.251758266566436e-09,2.663217440571587e-05,3.251758266566436e-09,2.663047328760665e-05,3.251758266566436e-09,3.3267099464352e-05,3.251758266566436e-09,0.6954212592035756
3.25657813667572e-09,2.663269231521893e-05,3.25657813667572e-09,2.663217467995087e-05,3.25657813667572e-09,2.662563934968149e-05,3.25657813667572e-09,3.312792412000407e-05,3.25657813667572e-09,0.6980989648198446
3.260181396479085e-09,2.663004147912341e-05,3.260181396479085e-09,2.663215643534037e-05,3.260181396479085e-09,2.662682769603398e-05,3.260181396479085e-09,3.300115373880354e-05,3.260181396479085e-09,0.700100775821714
3.263488973456462e-09,2.656385850113916e-05,3.263488973456462e-09,2.663171923135999e-05,3.263488973456462e-09,2.663516287177265e-05,3.263488973456462e-09,3.18366824308747e-05,3.263488973456462e-09,0.7019383185869235
3.266821520110928e-09,2.651231592033584e-05,3.266821520110928e-09,2.663184073554901e-05,3.266821520110928e-09,2.664895406699124e-05,3.266821520110928e-09,3.013625178128189e-05,3.266821520110928e-09,0.7037897333949602
3.269753181186038e-09,2.670825051314759e-05,3.269753181186038e-09,2.663375576789765e-05,3.269753181186038e-09,2.665525862153882e-05,3.269753181186038e-09,3.218310876753097e-05,3.269753181186038e-09,0.7054184339922435
3.2725530460128e-09,2.760907718414762e-05,3.2725530460128e-09,2.663910041762276e-05,3.2725530460128e-09,2.665350291792374e-05,3.2725530460128e-09,4.87019200435873e-05,3.2725530460128e-09,0.7069739144515558
3.275256809715221e-09,2.89344830534664e-05,3.275256809715221e-09,2.664221877360946e-05,3.275256809715221e-09,2.665052069470498e-05,3.275256809715221e-09,8.233888556098805e-05,3.275256809715221e-09,0.7084760053973449
3.277257949200766e-09,2.896579880945862e-05,3.277257949200766e-09,2.663233086368895e-05,3.277257949200766e-09,2.665047007662433e-05,3.277257949200766e-09,0.0001027426825610914,3.277257949200766e-09,0.7095877495559809
3.279688571008432e-09,2.742105173802527e-05,3.279688571008432e-09,2.661750867804745e-05,3.279688571008432e-09,2.662285398768137e-05,3.279688571008432e-09,7.5261825462145e-05,3.279688571008432e-09,0.7109380950046845
3.28237233972964e-09,2.528238563934976e-05,3.28237233972964e-09,2.66111565465604e-05,3.28237233972964e-09,2.658556599287384e-05,3.28237233972964e-09,-0.000223261313098506,3.28237233972964e-09,0.7124290776275777
3.284963572036846e-09,1.861642337308686e-05,3.284963572036846e-09,2.661388046000571e-05,3.284963572036846e-09,2.658192881626835e-05,3.284963572036846e-09,-0.001036104097077205,3.284963572036846e-09,0.7138686511315813
3.287418902481868e-09,4.772112245014147e-06,3.287418902481868e-09,2.664484679671432e-05,3.287418902481868e-09,2.662005280444558e-05,3.287418902481868e-09,-0.00146721007072999,3.287418902481868e-09,0.715232723601038
3.289610816676953e-09,1.072426457530648e-07,3.289610816676953e-09,2.665894438379517e-05,3.289610816676953e-09,2.663825320303207e-05,3.289610816676953e-09,-0.001278599136594805,3.289610816676953e-09,0.7164504537094183
3.291878016763676e-09,7.530978890417461e-06,3.291878016763676e-09,2.665365500350857e-05,3.291878016763676e-09,2.662685807409387e-05,3.291878016763676e-09,-0.0008759133869339674,3.291878016763676e-09,0.7177100093131535
3.293908596275895e-09,1.852029380833687e-05,3.293908596275895e-09,2.665710650222723e-05,3.293908596275895e-09,2.662203499469679e-05,3.293908596275895e-09,-0.0005762218084570927,3.293908596275895e-09,0.7188381090421636
3.295963185936109e-09,2.972940129529578e-05,3.295963185936109e-09,2.667303009908504e-05,3.295963185936109e-09,2.661931867630149e-05,3.295963185936109e-09,-0.0005756128472334828,3.295963185936109e-09,0.719979547742283
3.29791734292429e-09,4.916360561574861e-05,3.29791734292429e-09,2.669496009057009e-05,3.29791734292429e-09,2.662644712079531e-05,3.29791734292429e-09,-0.0009350020636959087,3.29791734292429e-09,0.7210651905134945
3.300195258392104e-09,0.00015147477509899,3.300195258392104e-09,2.667966397932553e-05,3.300195258392104e-09,2.663619279866869e-05,3.300195258392104e-09,-0.001752933500005198,3.300195258392104e-09,0.7223306991067245
3.303046788119377e-09,0.0006052963540957717,3.303046788119377e-09,2.659630940500295e-05,3.303046788119377e-09,2.665464313093429e-05,3.303046788119377e-09,-0.002850969283123972,3.303046788119377e-09,0.7239148822885427
3.305319617195288e-09,0.0006467817256206241,3.305319617195288e-09,2.653949504192619e-05,3.305319617195288e-09,2.666002472866684e-05,3.305319617195288e-09,-0.003507372533777466,3.305319617195288e-09,0.7251775651084936
3.307836176585366e-09,-0.00582210010371583,3.307836176585366e-09,2.651038531800206e-05,3.307836176585366e-09,2.665600339256373e-05,3.307836176585366e-09,-0.003833750608052531,3.307836176585366e-09,0.7265756536585367
3.310268657034145e-09,-0.01539970855305093,3.310268657034145e-09,2.653236156970698e-05,3.310268657034145e-09,2.665137028149729e-05,3.310268657034145e-09,-0.003587778449420593,3.310268657034145e-09,0.7279270316856361
3.312441872122239e-09,-0.01646953546191921,3.312441872122239e-09,2.658425074312237e-05,3.312441872122239e-09,2.664461861968371e-05,3.312441872122239e-09,-0.002841651435054671,3.312441872122239e-09,0.7291343734012441
3.314879365565193e-09,0.01771389002642649,3.314879365565193e-09,2.663159949564323e-05,3.314879365565193e-09,2.661923009630563e-05,3.314879365565193e-09,-0.002036420622589121,3.314879365565193e-09,0.7304885364251075
3.316660934701924e-09,0.08439493992697433,3.316660934701924e-09,2.667593176584816e-05,3.316660934701924e-09,2.66192358652537e-05,3.316660934701924e-09,-0.001380203636013553,3.316660934701924e-09,0.7314782970566241
3.318783571130657e-09,0.2085799612014944,3.318783571130657e-09,2.672163098694175e-05,3.318783571130657e-09,2.663592360268073e-05,3.318783571130657e-09,-0.0001785234606655077,3.318783571130657e-09,0.7326575395170319
3.321125971738859e-09,0.370415860569721,3.321125971738859e-09,2.670454928595488e-05,3.321125971738859e-09,2.662429677472111e-05,3.321125971738859e-09,0.001244236457901393,3.321125971738859e-09,0.7339588731882548
3.323807672755585e-09,0.5545290437947931,3.323807672755585e-09,2.666290392066622e-05,3.323807672755585e-09,2.661380523065336e-05,3.323807672755585e-09,0.00257728251976431,3.323807672755585e-09,0.7354487070864359
3.326239330799819e-09,0.6929046279098606,3.326239330799819e-09,2.663755559823939e-05,3.326239330799819e-09,2.66109694871285e-05,3.326239330799819e-09,0.003243659734758859,3.326239330799819e-09,0.7367996282221216
3.328430175343838e-09,0.7812325549710022,3.328430175343838e-09,2.663036807077196e-05,3.328430175343838e-09,2.661859304235846e-05,3.328430175343838e-09,0.003402481924964431,3.328430175343838e-09,0.7380167640799101
3.33062255198415e-09,0.8557249900767836,3.33062255198415e-09,2.663620323200962e-05,3.33062255198415e-09,2.663027566550472e-05,3.33062255198415e-09,0.00327252465512062,3.33062255198415e-09,0.7392347511023057
3.333050694543352e-09,0.9961201983283698,3.333050694543352e-09,2.663847287026932e-05,3.333050694543352e-09,2.663818944042838e-05,3.333050694543352e-09,0.002908004539820549,3.333050694543352e-09,0.7405837191907509
3.335361379334503e-09,1.311075073148775,3.335361379334503e-09,2.664214999746129e-05,3.335361379334503e-09,2.664285799789112e-05,3.335361379334503e-09,0.002474565391383899,3.335361379334503e-09,0.7418674329636127
3.337200930045955e-09,1.819730569760958,3.337200930045955e-09,2.664078284132966e-05,3.337200930045955e-09,2.664389020678026e-05,3.337200930045955e-09,0.00214693541217493,3.337200930045955e-09,0.7428894055810864
