/net039 X,/net039 Y,/net010 X,/net010 Y,/net09 X,/net09 Y,/net08 X,/net08 Y,/net02 X,/net02 Y
0,0.0006146074913887529,0,0.0006146074913841908,0,0.0006146074778258789,0,0.0003390569200707209,0,0
1.5e-11,0.0006146074913887224,1.5e-11,0.0006146074913840151,1.5e-11,0.0006146074778258629,1.5e-11,0.0003390569200707296,1.5e-11,0
4.5e-11,0.0006146074913886307,4.5e-11,0.0006146074913840979,4.5e-11,0.0006146074778258244,4.5e-11,0.0003390569200707886,4.5e-11,0
1.05e-10,0.0006146074913858838,1.05e-10,0.0006146074913828367,1.05e-10,0.0006146074778229762,1.05e-10,0.0003390569200708167,1.05e-10,0
2.25e-10,0.0006146074913921125,2.25e-10,0.0006146074913858514,2.25e-10,0.0006146074778291748,2.25e-10,0.0003390569200704848,2.25e-10,0
4.65e-10,0.0006146074913856219,4.65e-10,0.0006146074913832855,4.65e-10,0.0006146074778229524,4.65e-10,0.0003390569200706138,4.65e-10,0
7.649999999999999e-10,0.0006146074913919432,7.649999999999999e-10,0.000614607491382746,7.649999999999999e-10,0.0006146074778292268,7.649999999999999e-10,0.0003390569200708062,7.649999999999999e-10,0
1.065e-09,0.0006146074913824091,1.065e-09,0.0006146074913860129,1.065e-09,0.0006146074778228343,1.065e-09,0.0003390569200704828,1.065e-09,0
1.365e-09,0.0006146074913948573,1.365e-09,0.0006146074913832,1.365e-09,0.0006146074778328479,1.365e-09,0.0003390569200706722,1.365e-09,0
1.665e-09,0.0006146074913823915,1.665e-09,0.0006146074913828303,1.665e-09,0.0006146074778201723,1.665e-09,0.0003390569200707256,1.665e-09,0
1.8325e-09,0.0006146074913918968,1.8325e-09,0.0006146074913862381,1.8325e-09,0.0006146074778321187,1.8325e-09,0.0003390569200707504,1.8325e-09,0
2e-09,0.00061460749138598,2e-09,0.0006146074913798378,2e-09,0.0006146074778203306,2e-09,0.000339056920070586,2e-09,0
2.120144127384571e-09,0.0006146074913887366,2.120144127384571e-09,0.0006146074913838115,2.120144127384571e-09,0.0006146074778257409,2.120144127384571e-09,0.0003390569201145447,2.120144127384571e-09,0.06674673743587282
2.261585129605973e-09,0.000614607491388755,2.261585129605973e-09,0.0006146074913859252,2.261585129605973e-09,0.0006146074778261037,2.261585129605973e-09,0.000339056920146672,2.261585129605973e-09,0.1453250720033182
2.400273538304042e-09,0.0006146074913888551,2.400273538304042e-09,0.0006146074913829599,2.400273538304042e-09,0.0006146074778259652,2.400273538304042e-09,0.0003390569198056024,2.400273538304042e-09,0.2223741879466899
2.452575229949407e-09,0.0006146074913851832,2.452575229949407e-09,0.0006146074913821819,2.452575229949407e-09,0.0006146074778245137,2.452575229949407e-09,0.000339056920507757,2.452575229949407e-09,0.2514306833052258
2.478726075772089e-09,0.0006146074913890021,2.478726075772089e-09,0.0006146074913888224,2.478726075772089e-09,0.0006146074778231035,2.478726075772089e-09,0.0003390569202215411,2.478726075772089e-09,0.2659589309844938
2.531027767417454e-09,0.0006146074913915375,2.531027767417454e-09,0.00061460749137713,2.531027767417454e-09,0.0006146074778284357,2.531027767417454e-09,0.0003390569196870849,2.531027767417454e-09,0.2950154263430297
2.561794319884261e-09,0.0006146074913866442,2.561794319884261e-09,0.0006146074913872851,2.561794319884261e-09,0.0006146074778233191,2.561794319884261e-09,0.0003390569197414694,2.561794319884261e-09,0.3121079554912562
2.601822938843675e-09,0.0006146074913909678,2.601822938843675e-09,0.0006146074913814871,2.601822938843675e-09,0.0006146074778268257,2.601822938843675e-09,0.000339056921602243,2.601822938843675e-09,0.334346077135375
2.631357902136239e-09,0.0006146074913870287,2.631357902136239e-09,0.0006146074913872666,2.631357902136239e-09,0.0006146074778154641,2.631357902136239e-09,0.0003390569169170591,2.631357902136239e-09,0.3507543900756883
2.646125383782521e-09,0.0006146074913903007,2.646125383782521e-09,0.0006146074913828203,2.646125383782521e-09,0.0006146074778581836,2.646125383782521e-09,0.0003390569246134134,2.646125383782521e-09,0.358958546545845
2.673035263870558e-09,0.0006146074913848416,2.673035263870558e-09,0.0006146074913835093,2.673035263870558e-09,0.0006146074777775273,2.673035263870558e-09,0.0003390569158603871,2.673035263870558e-09,0.3739084799280878
2.697098425686545e-09,0.0006146074913923846,2.697098425686545e-09,0.0006146074913824149,2.697098425686545e-09,0.0006146074778748691,2.697098425686545e-09,0.0003390569234156612,2.697098425686545e-09,0.3872769031591917
2.73020135399309e-09,0.0006146074913853848,2.73020135399309e-09,0.0006146074913833868,2.73020135399309e-09,0.0006146074777770324,2.73020135399309e-09,0.0003390569174589461,2.73020135399309e-09,0.4056674188850501
2.758925193100359e-09,0.000614607491392125,2.758925193100359e-09,0.0006146074913822573,2.758925193100359e-09,0.000614607477870983,2.758925193100359e-09,0.000339056921867749,2.758925193100359e-09,0.421625107277977
2.794617691737259e-09,0.0006146074913858156,2.794617691737259e-09,0.0006146074913830706,2.794617691737259e-09,0.0006146074777871703,2.794617691737259e-09,0.0003390569188520224,2.794617691737259e-09,0.4414542731873663
2.825978608653089e-09,0.0006146074913917099,2.825978608653089e-09,0.0006146074913853794,2.825978608653089e-09,0.0006146074778568188,2.825978608653089e-09,0.0003390569207226407,2.825978608653089e-09,0.4588770048072714
2.861891137688627e-09,0.0006146074913860019,2.861891137688627e-09,0.0006146074913835692,2.861891137688627e-09,0.0006146074777992032,2.861891137688627e-09,0.0003390569198219392,2.861891137688627e-09,0.4788284098270147
2.889771236678683e-09,0.0006146074913915543,2.889771236678683e-09,0.0006146074913850636,2.889771236678683e-09,0.0006146074778469318,2.889771236678683e-09,0.0003390569199007433,2.889771236678683e-09,0.4943173537103797
2.917330096202577e-09,0.0006146074913894182,2.917330096202577e-09,0.0006146074913840132,2.917330096202577e-09,0.0006146074778131004,2.917330096202577e-09,0.0003390569205515599,2.917330096202577e-09,0.5096278312236538
2.951949754514828e-09,0.0006146074913884771,2.951949754514828e-09,0.0006146074913820443,2.951949754514828e-09,0.0006146074778352591,2.951949754514828e-09,0.0003390569194008381,2.951949754514828e-09,0.5288609747304598
3.002252416901208e-09,0.0006146074913890572,3.002252416901208e-09,0.000614607491386803,3.002252416901208e-09,0.0006146074778187719,3.002252416901208e-09,0.0003390569208383294,3.002252416901208e-09,0.556806898278449
3.044976560899403e-09,0.0006146074913888302,3.044976560899403e-09,0.0006146074913820491,3.044976560899403e-09,0.0006146074778305333,3.044976560899403e-09,0.0003390569192049737,3.044976560899403e-09,0.5805425338330016
3.055210366925513e-09,0.0006146074913865476,3.055210366925513e-09,0.0006146074913858685,3.055210366925513e-09,0.0006146074778305167,3.055210366925513e-09,0.0003390569211482608,3.055210366925513e-09,0.5862279816252851
3.075677978977734e-09,0.0006146074913882811,3.075677978977734e-09,0.0006146074913828198,3.075677978977734e-09,0.0006146074778191092,3.075677978977734e-09,0.0003390569189664488,3.075677978977734e-09,0.5975988772098521
3.094691975163221e-09,0.0006146074913889846,3.094691975163221e-09,0.0006146074913859873,3.094691975163221e-09,0.0006146074778321391,3.094691975163221e-09,0.0003390569211669002,3.094691975163221e-09,0.6081622084240118
3.099374383265614e-09,0.0006146074913867947,3.099374383265614e-09,0.0006146074913824967,3.099374383265614e-09,0.0006146074778127881,3.099374383265614e-09,0.0003390569190902233,3.099374383265614e-09,0.6107635462586746
3.1087391994704e-09,0.0006146074913878564,3.1087391994704e-09,0.0006146074913843179,3.1087391994704e-09,0.0006146074778376301,3.1087391994704e-09,0.0003390569209955481,3.1087391994704e-09,0.615966221928
3.124422933770372e-09,0.0006146074913869348,3.124422933770372e-09,0.0006146074913865136,3.124422933770372e-09,0.0006146074778101839,3.124422933770372e-09,0.0003390569191630649,3.124422933770372e-09,0.6246794076502068
3.129931464442378e-09,0.0006146074913872797,3.129931464442378e-09,0.0006146074913839023,3.129931464442378e-09,0.000614607477847439,3.129931464442378e-09,0.0003390569208784782,3.129931464442378e-09,0.6277397024679878
3.14094852578639e-09,0.0006146074913915158,3.14094852578639e-09,0.0006146074913852946,3.14094852578639e-09,0.0006146074777968506,3.14094852578639e-09,0.0003390569189100138,3.14094852578639e-09,0.6338602921035499
3.154045076141341e-09,0.0006146074913864604,3.154045076141341e-09,0.0006146074913835346,3.154045076141341e-09,0.0006146074777882435,3.154045076141341e-09,0.0003390569156232729,3.154045076141341e-09,0.6411361534118563
3.158239218780717e-09,0.0006146074913689131,3.158239218780717e-09,0.0006146074913845128,3.158239218780717e-09,0.0006146074770691838,3.158239218780717e-09,0.0003390568933575282,3.158239218780717e-09,0.6434662326559537
3.166627504059467e-09,0.0006146074914703261,3.166627504059467e-09,0.0006146074913858436,3.166627504059467e-09,0.0006146074814340658,3.166627504059467e-09,0.0003390570332881045,3.166627504059467e-09,0.6481263911441484
3.177259383463728e-09,0.0006146074913838461,3.177259383463728e-09,0.0006146074913799176,3.177259383463728e-09,0.0006146074834716514,3.177259383463728e-09,0.0003390575116815479,3.177259383463728e-09,0.6540329908131822
3.188518941022156e-09,0.0006146074908264388,3.188518941022156e-09,0.0006146074913772553,3.188518941022156e-09,0.0006146074021468862,3.188518941022156e-09,0.0003390535686235119,3.188518941022156e-09,0.6602883005678647
3.199297246155537e-09,0.0006146074907612001,3.199297246155537e-09,0.000614607491387735,3.199297246155537e-09,0.000614607113853541,3.199297246155537e-09,0.0003390287238404605,3.199297246155537e-09,0.6662762478641874
3.208971508888457e-09,0.0006146074946753409,3.208971508888457e-09,0.0006146074915669837,3.208971508888457e-09,0.0006146089412312258,3.208971508888457e-09,0.0003390790295347802,3.208971508888457e-09,0.6716508382713651
3.218954526299128e-09,0.000614607508629044,3.218954526299128e-09,0.0006146074909671567,3.218954526299128e-09,0.0006146082946878951,3.218954526299128e-09,0.0003391664692479892,3.218954526299128e-09,0.6771969590550709
3.227183914833181e-09,0.0006146074609488633,3.227183914833181e-09,0.0006146074909517007,3.227183914833181e-09,0.0006146020531316085,3.227183914833181e-09,0.0003389949306001482,3.227183914833181e-09,0.6817688415739896
3.237396805455603e-09,0.00061460745012168,3.237396805455603e-09,0.0006146074932602018,3.237396805455603e-09,0.00061461026898816,3.237396805455603e-09,0.000338991953890844,3.237396805455603e-09,0.6874426696975571
3.247755036150784e-09,0.0006146075249055916,3.247755036150784e-09,0.0006146074891157883,3.247755036150784e-09,0.0006146086215775805,3.247755036150784e-09,0.0003390688745309909,3.247755036150784e-09,0.693197242305991
3.256184646265736e-09,0.0006146075147689106,3.256184646265736e-09,0.0006146074924622914,3.256184646265736e-09,0.0006146069396366227,3.256184646265736e-09,0.0003390545698103434,3.256184646265736e-09,0.6978803590365199
3.264395943877078e-09,0.0006146074734919909,3.264395943877078e-09,0.0006146074912861768,3.264395943877078e-09,0.0006146077760735957,3.264395943877078e-09,0.0003390650255429761,3.264395943877078e-09,0.7024421910428208
3.272307087069289e-09,0.0006146072263712007,3.272307087069289e-09,0.0006146074901077364,3.272307087069289e-09,0.0006146058385983909,3.272307087069289e-09,0.0003389863066296157,3.272307087069289e-09,0.7068372705940492
3.278363028297507e-09,0.0006146054295771927,3.278363028297507e-09,0.000614607484199966,3.278363028297507e-09,0.0006146055684012709,3.278363028297507e-09,0.0003388237980765103,3.278363028297507e-09,0.7102016823875039
3.28297324249145e-09,0.0006146017042906008,3.28297324249145e-09,0.0006146074729973241,3.28297324249145e-09,0.0006146078268307985,3.28297324249145e-09,0.0003386068382564627,3.28297324249145e-09,0.7127629124952499
3.287323130153482e-09,0.0006146282443559734,3.287323130153482e-09,0.0006146076454426173,3.287323130153482e-09,0.000614614755524621,3.287323130153482e-09,0.000339273596674712,3.287323130153482e-09,0.7151795167519344
3.29124440435114e-09,0.0006148030337898628,3.29124440435114e-09,0.0006146085258635208,3.29124440435114e-09,0.0006146172770125951,3.29124440435114e-09,0.0003445520862865494,3.29124440435114e-09,0.7173580024173001
3.295002600434636e-09,0.0006151435672935613,3.295002600434636e-09,0.0006146094065541197,3.295002600434636e-09,0.0006146152098557763,3.295002600434636e-09,0.0003576931818211855,3.295002600434636e-09,0.7194458891303531
3.298802115504125e-09,0.0006149864033233849,3.298802115504125e-09,0.0006146060447840682,3.298802115504125e-09,0.0006146074947623826,3.298802115504125e-09,0.000359027102839628,3.298802115504125e-09,0.7215567308356252
3.301671135256877e-09,0.0006143068105775128,3.301671135256877e-09,0.0006146023473642293,3.301671135256877e-09,0.0006146036384753558,3.301671135256877e-09,0.0003156614767632495,3.301671135256877e-09,0.7231506306982651
3.30430067303723e-09,0.0006137815426393953,3.30430067303723e-09,0.0006146035004986766,3.30430067303723e-09,0.0006145999458545293,3.30430067303723e-09,0.0001996464288622314,3.30430067303723e-09,0.7246114850206831
3.307462491753999e-09,0.0006129449184175534,3.307462491753999e-09,0.0006146088653475366,3.307462491753999e-09,0.0006145887537340167,3.307462491753999e-09,-0.0001135468361408209,3.307462491753999e-09,0.7263680509744437
3.311083573157485e-09,0.0006094661659785138,3.311083573157485e-09,0.0006146155046858358,3.311083573157485e-09,0.0006145871785848317,3.311083573157485e-09,-0.0005287488634426708,3.311083573157485e-09,0.7283797628652694
3.3150830947633e-09,0.0006072177795326307,3.3150830947633e-09,0.0006146135496698233,3.3150830947633e-09,0.0006146022513022427,3.3150830947633e-09,-0.0005856110793994206,3.3150830947633e-09,0.7306017193129443
3.318169183451447e-09,0.0006115791452354201,3.318169183451447e-09,0.0006145994148149782,3.318169183451447e-09,0.00061460696409163,3.318169183451447e-09,-0.0003697798575894741,3.318169183451447e-09,0.732316213028582
3.321095942479306e-09,0.0006234757787694332,3.321095942479306e-09,0.0006145978471991956,3.321095942479306e-09,0.0006146097395410897,3.321095942479306e-09,-9.46334827624737e-05,3.321095942479306e-09,0.7339421902662812
3.324141114998575e-09,0.0006445180788855316,3.324141114998575e-09,0.0006146063137886428,3.324141114998575e-09,0.0006146114653868032,3.324141114998575e-09,0.0001191968683425665,3.324141114998575e-09,0.7356339527769861
3.327246609189721e-09,0.000671326614367139,3.327246609189721e-09,0.0006146214763543041,3.327246609189721e-09,0.0006146125884911943,3.327246609189721e-09,4.034139377657856e-05,3.327246609189721e-09,0.7373592273276226
3.329910798839204e-09,0.0006988128153787499,3.329910798839204e-09,0.0006146269068828795,3.329910798839204e-09,0.0006146150723495101,3.329910798839204e-09,-0.0004023944126095239,3.329910798839204e-09,0.7388393326884465
3.332829637640479e-09,0.0007220102326614213,3.332829637640479e-09,0.0006146136371453048,3.332829637640479e-09,0.0006146195296215605,3.332829637640479e-09,-0.001229843702595333,3.332829637640479e-09,0.7404609098002662
3.336520458848859e-09,0.0001431175143704234,3.336520458848859e-09,0.0006145852854265554,3.336520458848859e-09,0.0006146250885763723,3.336520458848859e-09,-0.002263486706256968,3.336520458848859e-09,0.7425113660271438
3.339506122871964e-09,-0.002805191363685977,3.339506122871964e-09,0.0006145673946853419,3.339506122871964e-09,0.0006146213722908356,3.339506122871964e-09,-0.002822633849184238,3.339506122871964e-09,0.7441700682622021
3.342715059963211e-09,-0.006717785994638029,3.342715059963211e-09,0.0006145640568458642,3.342715059963211e-09,0.0006146137510290513,3.342715059963211e-09,-0.00295874077483794,3.342715059963211e-09,0.7459528110906729
3.345935968107929e-09,0.005107577024931113,3.345935968107929e-09,0.0006145836451048681,3.345935968107929e-09,0.0006146071765028179,3.345935968107929e-09,-0.002475365825986428,3.345935968107929e-09,0.7477422045044049
3.348906673132744e-09,0.05229786264259358,3.348906673132744e-09,0.0006146151122020003,3.348906673132744e-09,0.0006145988815383344,3.348906673132744e-09,-0.001629154312364055,3.348906673132744e-09,0.7493925961848578
3.351668275579236e-09,0.1326841021491102,3.351668275579236e-09,0.000614635528445816,3.351668275579236e-09,0.0006145893782723694,3.351668275579236e-09,-0.001007247900997812,3.351668275579236e-09,0.7509268197662421
3.3540184992316e-09,0.2170376434346792,3.3540184992316e-09,0.0006146568169836151,3.3540184992316e-09,0.0006145977766437894,3.3540184992316e-09,-0.0004170492246074823,3.3540184992316e-09,0.7522324995731109
3.356814616818024e-09,0.3309746031647124,3.356814616818024e-09,0.0006146643035026585,3.356814616818024e-09,0.0006146075416865402,3.356814616818024e-09,0.0005939345648792272,3.356814616818024e-09,0.7537858982322357
3.359915196089809e-09,0.4681699679942661,3.359915196089809e-09,0.0006146407910928033,3.359915196089809e-09,0.0006146006834736113,3.359915196089809e-09,0.001679627227330803,3.359915196089809e-09,0.7555084422721159
3.364136593268203e-09,0.6442088622382114,3.364136593268203e-09,0.0006146144391550363,3.364136593268203e-09,0.0006146018278162547,3.364136593268203e-09,0.002701336397486909,3.364136593268203e-09,0.7578536629267794
3.367137196323702e-09,0.7397459145447852,3.367137196323702e-09,0.0006146056888448533,3.367137196323702e-09,0.0006146056156047139,3.367137196323702e-09,0.002978538116554508,3.367137196323702e-09,0.7595206646242789
3.369994987519545e-09,0.8045163701544088,3.369994987519545e-09,0.0006146044845891217,3.369994987519545e-09,0.0006146115905067855,3.369994987519545e-09,0.002964620578948266,3.369994987519545e-09,0.761108326399747
3.372803148249418e-09,0.8824795899120148,3.372803148249418e-09,0.0006146045082039874,3.372803148249418e-09,0.0006146144542582163,3.372803148249418e-09,0.002770063722103407,3.372803148249418e-09,0.7626684156941211
3.376271352218035e-09,1.132026624152962,3.376271352218035e-09,0.0006146026561275609,3.376271352218035e-09,0.0006146145311304271,3.376271352218035e-09,0.002403523292283935,3.376271352218035e-09,0.764595195676686
3.378822562194322e-09,1.563250910473567,3.378822562194322e-09,0.0006146015342280069,3.378822562194322e-09,0.0006146132023056794,3.378822562194322e-09,0.002106072078827594,3.378822562194322e-09,0.766012534552401
3.381020092091344e-09,2.171811571388218,3.381020092091344e-09,0.0006145997588737756,3.381020092091344e-09,0.0006146114580977184,3.381020092091344e-09,0.001875136921416213,3.381020092091344e-09,0.767233384495191
3.38347176127694e-09,2.997311803026005,3.38347176127694e-09,0.0006145982409781954,3.38347176127694e-09,0.000614609091730221,3.38347176127694e-09,0.001643527511051113,3.38347176127694e-09,0.7685954229316333
3.385488079197344e-09,3.64108968286504,3.385488079197344e-09,0.0006145966636459183,3.385488079197344e-09,0.0006146071478692209,3.385488079197344e-09,0.001475608598164011,3.385488079197344e-09,0.7697155995540802
3.387174643106988e-09,4.046461551853268,3.387174643106988e-09,0.0006145965253199649,3.387174643106988e-09,0.000614606223624042,3.387174643106988e-09,0.00134690130315086,3.387174643106988e-09,0.7706525795038823
3.388798746176169e-09,4.321374239019605,3.388798746176169e-09,0.0006145961198846311,3.388798746176169e-09,0.0006146053593033859,3.388798746176169e-09,0.001235001452465091,3.388798746176169e-09,0.7715548589867606
3.390788290658057e-09,4.556640263002026,3.390788290658057e-09,0.0006145967857935391,3.390788290658057e-09,0.0006146050817895984,3.390788290658057e-09,0.001111198896122897,3.390788290658057e-09,0.7726601614766982
3.392798098164087e-09,4.713388863053675,3.392798098164087e-09,0.0006145972476948911,3.392798098164087e-09,0.0006146047910652086,3.392798098164087e-09,0.00100222943845365,3.392798098164087e-09,0.7737767212022703
3.395274392149068e-09,4.835032027605096,3.395274392149068e-09,0.0006145986234843354,3.395274392149068e-09,0.0006146050279284438,3.395274392149068e-09,0.0008867137548611751,3.395274392149068e-09,0.7751524400828158
3.398016566537754e-09,4.910208247741112,3.398016566537754e-09,0.0006145998178464152,3.398016566537754e-09,0.0006146051625448599,3.398016566537754e-09,0.0007803918158245762,3.398016566537754e-09,0.7766758702987521
