/net039 X,/net039 Y,/net010 X,/net010 Y,/net09 X,/net09 Y,/net08 X,/net08 Y,/net02 X,/net02 Y
0,0.001071422166539236,0,0.001071422166513762,0,0.001071422007403158,0,0.0005345349439142875,0,0
1.5e-11,0.001071422166539326,1.5e-11,0.001071422166513878,1.5e-11,0.001071422007403292,1.5e-11,0.0005345349439279526,1.5e-11,0
4.5e-11,0.001071422166539386,4.5e-11,0.00107142216651387,4.5e-11,0.001071422007403282,4.5e-11,0.0005345349439188503,4.5e-11,0
1.05e-10,0.00107142216654181,1.05e-10,0.001071422166516402,1.05e-10,0.001071422007400482,1.05e-10,0.0005345349439122382,1.05e-10,0
2.25e-10,0.001071422166542153,2.25e-10,0.001071422166513001,2.25e-10,0.001071422007406494,2.25e-10,0.0005345349439161803,2.25e-10,0
4.65e-10,0.001071422166538957,4.65e-10,0.001071422166516179,4.65e-10,0.001071422007397055,4.65e-10,0.0005345349439131157,4.65e-10,0
7.649999999999999e-10,0.001071422166539018,7.649999999999999e-10,0.001071422166513436,7.649999999999999e-10,0.001071422007409632,7.649999999999999e-10,0.0005345349439157738,7.649999999999999e-10,0
1.065e-09,0.001071422166538786,1.065e-09,0.001071422166516414,1.065e-09,0.001071422007397272,1.065e-09,0.0005345349439137601,1.065e-09,0
1.365e-09,0.001071422166538574,1.365e-09,0.001071422166513367,1.365e-09,0.00107142200740951,1.365e-09,0.0005345349439148812,1.365e-09,0
1.665e-09,0.0010714221665387,1.665e-09,0.001071422166516132,1.665e-09,0.001071422007397133,1.665e-09,0.000534534943914316,1.665e-09,0
1.8325e-09,0.001071422166539393,1.8325e-09,0.001071422166513354,1.8325e-09,0.001071422007412728,1.8325e-09,0.0005345349439143705,1.8325e-09,0
2e-09,0.001071422166541421,2e-09,0.00107142216651613,2e-09,0.001071422007394681,2e-09,0.0005345349439146003,2e-09,0
2.120144127384571e-09,0.001071422166539248,2.120144127384571e-09,0.001071422166514032,2.120144127384571e-09,0.0010714220074028,2.120144127384571e-09,0.000534534944060837,2.120144127384571e-09,0.06674673743587282
2.261585129605973e-09,0.001071422166539283,2.261585129605973e-09,0.001071422166513195,2.261585129605973e-09,0.001071422007405103,2.261585129605973e-09,0.0005345349439177678,2.261585129605973e-09,0.1453250720033182
2.400273538304042e-09,0.001071422166539023,2.400273538304042e-09,0.001071422166513657,2.400273538304042e-09,0.001071422007399479,2.400273538304042e-09,0.0005345349435807896,2.400273538304042e-09,0.2223741879466899
2.452381691578501e-09,0.001071422166538858,2.452381691578501e-09,0.001071422166515762,2.452381691578501e-09,0.00107142200740029,2.452381691578501e-09,0.0005345349449582802,2.452381691578501e-09,0.2513231619880563
2.478435768215731e-09,0.001071422166538605,2.478435768215731e-09,0.001071422166511212,2.478435768215731e-09,0.001071422007402117,2.478435768215731e-09,0.0005345349427848713,2.478435768215731e-09,0.2657976490087395
2.530543921490191e-09,0.001071422166541941,2.530543921490191e-09,0.001071422166514888,2.530543921490191e-09,0.001071422007408522,2.530543921490191e-09,0.0005345349449222439,2.530543921490191e-09,0.2947466230501061
2.56458835511521e-09,0.001071422166536538,2.56458835511521e-09,0.001071422166514247,2.56458835511521e-09,0.001071422007393826,2.56458835511521e-09,0.000534534942144473,2.56458835511521e-09,0.3136601972862277
2.601839124955186e-09,0.001071422166543952,2.601839124955186e-09,0.001071422166514869,2.601839124955186e-09,0.001071422007414683,2.601839124955186e-09,0.0005345349471313088,2.601839124955186e-09,0.3343550694195478
2.634762486312414e-09,0.001071422166537781,2.634762486312414e-09,0.001071422166514262,2.634762486312414e-09,0.001071422007381183,2.634762486312414e-09,0.0005345349390659247,2.634762486312414e-09,0.3526458257291187
2.661174684838785e-09,0.001071422166540617,2.661174684838785e-09,0.001071422166514932,2.661174684838785e-09,0.001071422007440316,2.661174684838785e-09,0.0005345349499397507,2.661174684838785e-09,0.3673192693548805
2.688720859460973e-09,0.001071422166537737,2.688720859460973e-09,0.00107142216651143,2.688720859460973e-09,0.001071422007347013,2.688720859460973e-09,0.0005345349378270382,2.688720859460973e-09,0.3826226997005407
2.717362021991435e-09,0.001071422166539961,2.717362021991435e-09,0.001071422166514768,2.717362021991435e-09,0.001071422007469887,2.717362021991435e-09,0.0005345349493291513,2.717362021991435e-09,0.398534456661908
2.754115221098338e-09,0.001071422166537619,2.754115221098338e-09,0.001071422166512219,2.754115221098338e-09,0.00107142200733136,2.754115221098338e-09,0.0005345349393060626,2.754115221098338e-09,0.4189529006101875
2.792794319761207e-09,0.001071422166543131,2.792794319761207e-09,0.001071422166513967,2.792794319761207e-09,0.001071422007476958,2.792794319761207e-09,0.0005345349476716118,2.792794319761207e-09,0.4404412887562261
2.826716061921852e-09,0.001071422166534922,2.826716061921852e-09,0.001071422166512064,2.826716061921852e-09,0.001071422007331534,2.826716061921852e-09,0.0005345349411223013,2.826716061921852e-09,0.4592867010676954
2.8616413497015e-09,0.001071422166542759,2.8616413497015e-09,0.0010714221665144,2.8616413497015e-09,0.001071422007469417,2.8616413497015e-09,0.0005345349458367492,2.8616413497015e-09,0.4786896387230558
2.888629791615465e-09,0.001071422166538273,2.888629791615465e-09,0.001071422166515328,2.888629791615465e-09,0.001071422007345395,2.888629791615465e-09,0.0005345349429617843,2.888629791615465e-09,0.4936832175641475
2.916394345037999e-09,0.001071422166542524,2.916394345037999e-09,0.001071422166511787,2.916394345037999e-09,0.001071422007450515,2.916394345037999e-09,0.0005345349441044828,2.916394345037999e-09,0.5091079694655549
2.949859127304347e-09,0.001071422166535407,2.949859127304347e-09,0.001071422166517198,2.949859127304347e-09,0.001071422007369419,2.949859127304347e-09,0.0005345349442240283,2.949859127304347e-09,0.5276995151690814
3.005755924942929e-09,0.001071422166539472,3.005755924942929e-09,0.001071422166509203,3.005755924942929e-09,0.001071422007432181,3.005755924942929e-09,0.0005345349433543451,3.005755924942929e-09,0.5587532916349607
3.01640259834156e-09,0.00107142216653842,3.01640259834156e-09,0.001071422166518002,3.01640259834156e-09,0.001071422007398207,3.01640259834156e-09,0.0005345349453122033,3.01640259834156e-09,0.5646681101897553
3.03769594513882e-09,0.001071422166539291,3.03769594513882e-09,0.001071422166514092,3.03769594513882e-09,0.001071422007403421,3.03769594513882e-09,0.0005345349423310818,3.03769594513882e-09,0.5764977472993447
3.07416240626201e-09,0.001071422166540731,3.07416240626201e-09,0.001071422166512591,3.07416240626201e-09,0.001071422007410566,3.07416240626201e-09,0.0005345349455569918,3.07416240626201e-09,0.5967568923677835
3.081436135854126e-09,0.001071422166539999,3.081436135854126e-09,0.001071422166515409,3.081436135854126e-09,0.0010714220073886,3.081436135854126e-09,0.0005345349422021107,3.081436135854126e-09,0.600797853252292
3.095983595038356e-09,0.001071422166540008,3.095983595038356e-09,0.001071422166513927,3.095983595038356e-09,0.001071422007423362,3.095983595038356e-09,0.0005345349455603833,3.095983595038356e-09,0.6088797750213087
3.11822465245039e-09,0.00107142216654061,3.11822465245039e-09,0.001071422166512852,3.11822465245039e-09,0.001071422007383392,3.11822465245039e-09,0.0005345349423104997,3.11822465245039e-09,0.6212359180279945
3.123889996977562e-09,0.001071422166538584,3.123889996977562e-09,0.001071422166514282,3.123889996977562e-09,0.001071422007426412,3.123889996977562e-09,0.0005345349453820854,3.123889996977562e-09,0.6243833316542009
3.135220686031904e-09,0.001071422166539377,3.135220686031904e-09,0.00107142216651509,3.135220686031904e-09,0.001071422007375089,3.135220686031904e-09,0.0005345349420879477,3.135220686031904e-09,0.6306781589066136
3.150195049461594e-09,0.00107142216654115,3.150195049461594e-09,0.001071422166514646,3.150195049461594e-09,0.001071422007443748,3.150195049461594e-09,0.0005345349447612969,3.150195049461594e-09,0.6389972497008856
3.154990087649792e-09,0.001071422166537968,3.154990087649792e-09,0.001071422166514314,3.154990087649792e-09,0.001071422007405399,3.154990087649792e-09,0.0005345349434213504,3.154990087649792e-09,0.6416611598054399
3.164580164026188e-09,0.001071422166555484,3.164580164026188e-09,0.00107142216651508,3.164580164026188e-09,0.001071422009079509,3.164580164026188e-09,0.0005345350648536137,3.164580164026188e-09,0.6469889800145486
3.177083403321273e-09,0.001071422166485078,3.177083403321273e-09,0.001071422166511147,3.177083403321273e-09,0.00107142200401592,3.177083403321273e-09,0.0005345350239017485,3.177083403321273e-09,0.6539352240673741
3.188755834838064e-09,0.001071422166407551,3.188755834838064e-09,0.001071422166513548,3.188755834838064e-09,0.001071421943406109,3.188755834838064e-09,0.0005345289403428555,3.188755834838064e-09,0.6604199082433688
3.20283651141231e-09,0.001071422167157923,3.20283651141231e-09,0.001071422166526988,3.20283651141231e-09,0.001071422126964273,3.20283651141231e-09,0.0005345257104806947,3.20283651141231e-09,0.6682425063401723
3.214117612445289e-09,0.001071422168244332,3.214117612445289e-09,0.001071422166497899,3.214117612445289e-09,0.00107142287811249,3.214117612445289e-09,0.0005345968592976197,3.214117612445289e-09,0.6745097846918274
3.225388527426345e-09,0.001071422161795188,3.225388527426345e-09,0.001071422166296329,3.225388527426345e-09,0.001071419799244569,3.225388527426345e-09,0.0005345418579018736,3.225388527426345e-09,0.680771404125747
3.227995859143816e-09,0.00107142214198603,3.227995859143816e-09,0.001071422166533467,3.227995859143816e-09,0.001071418869185652,3.227995859143816e-09,0.0005344788751498055,3.227995859143816e-09,0.6822199217465644
3.233210522578759e-09,0.001071422136371379,3.233210522578759e-09,0.001071422167810928,3.233210522578759e-09,0.00107142293133169,3.233210522578759e-09,0.000534463173635315,3.233210522578759e-09,0.6851169569881996
3.242548605425464e-09,0.001071422217083974,3.242548605425464e-09,0.001071422165323627,3.242548605425464e-09,0.001071423965467443,3.242548605425464e-09,0.0005345271488892069,3.242548605425464e-09,0.6903047807919245
3.252241556316806e-09,0.001071422193307986,3.252241556316806e-09,0.001071422166640356,3.252241556316806e-09,0.001071421692602462,3.252241556316806e-09,0.000534539837472089,3.252241556316806e-09,0.6956897535093367
3.260072889066656e-09,0.001071422147489505,3.260072889066656e-09,0.00107142216689625,3.260072889066656e-09,0.001071422068374188,3.260072889066656e-09,0.0005345480146088879,3.260072889066656e-09,0.7000404939259202
3.268060519123411e-09,0.001071422121114322,3.268060519123411e-09,0.001071422166166012,3.268060519123411e-09,0.00107142149218335,3.268060519123411e-09,0.0005345323628110306,3.268060519123411e-09,0.7044780661796729
3.27497573258162e-09,0.001071422011654375,3.27497573258162e-09,0.001071422166405728,3.27497573258162e-09,0.00107142107727182,3.27497573258162e-09,0.0005344784675484648,3.27497573258162e-09,0.7083198514342336
3.280928309356448e-09,0.001071421144291468,3.280928309356448e-09,0.001071422162659274,3.280928309356448e-09,0.001071420816882364,3.280928309356448e-09,0.0005343438968642657,3.280928309356448e-09,0.7116268385313597
3.285392239996882e-09,0.00107142019530042,3.285392239996882e-09,0.001071422163009065,3.285392239996882e-09,0.001071424185222416,3.285392239996882e-09,0.0005342642888170411,3.285392239996882e-09,0.7141067999982676
3.28977096863012e-09,0.00107144447914372,3.28977096863012e-09,0.001071422298954157,3.28977096863012e-09,0.001071428559032501,3.28977096863012e-09,0.0005350985907713644,3.28977096863012e-09,0.7165394270167332
3.293590944000844e-09,0.001071570108226094,3.293590944000844e-09,0.001071422892765641,3.293590944000844e-09,0.001071429024245509,3.293590944000844e-09,0.0005398744971824548,3.293590944000844e-09,0.7186616355560246
3.297398704986958e-09,0.001071760622505801,3.297398704986958e-09,0.001071423164988806,3.297398704986958e-09,0.001071424400627623,3.297398704986958e-09,0.0005505101860942823,3.297398704986958e-09,0.7207770583260875
3.301242355279651e-09,0.001071525611334222,3.301242355279651e-09,0.001071420408776852,3.301242355279651e-09,0.001071416701973965,3.301242355279651e-09,0.0005474185003836493,3.301242355279651e-09,0.7229124195998059
3.304079152039072e-09,0.00107099433918959,3.304079152039072e-09,0.001071418396696524,3.304079152039072e-09,0.001071413382486966,3.304079152039072e-09,0.0005050875460054898,3.304079152039072e-09,0.7244884177994846
3.306725930976924e-09,0.001070646982871883,3.306725930976924e-09,0.001071420044557968,3.306725930976924e-09,0.001071412276689877,3.306725930976924e-09,0.0003981578397169428,3.306725930976924e-09,0.7259588505427352
3.309908506370823e-09,0.001070112629510668,3.309908506370823e-09,0.001071424362531773,3.309908506370823e-09,0.001071405666775182,3.309908506370823e-09,0.0001251275766534598,3.309908506370823e-09,0.7277269479837905
3.313563429658878e-09,0.001067903212499554,3.313563429658878e-09,0.001071428226464794,3.313563429658878e-09,0.001071407406093769,3.313563429658878e-09,-0.000244384173449846,3.313563429658878e-09,0.729757460921599
3.317355881168002e-09,0.001067042741637248,3.317355881168002e-09,0.001071425289456053,3.317355881168002e-09,0.001071421122883145,3.317355881168002e-09,-0.0003245980153960273,3.317355881168002e-09,0.7318643784266676
3.320427227852597e-09,0.001071185660408258,3.320427227852597e-09,0.001071414555816767,3.320427227852597e-09,0.001071426539849449,3.320427227852597e-09,-0.0001536893556306178,3.320427227852597e-09,0.7335706821403317
3.323345278061522e-09,0.001080780202210669,3.323345278061522e-09,0.001071414182236306,3.323345278061522e-09,0.001071429102576761,3.323345278061522e-09,8.81531281579726e-05,3.323345278061522e-09,0.7351918211452898
3.326434680838958e-09,0.001095841465131433,3.326434680838958e-09,0.001071421754053453,3.326434680838958e-09,0.001071430756142949,3.326434680838958e-09,0.0002911752487176166,3.326434680838958e-09,0.7369081560216432
3.329635572801719e-09,0.001112081344233298,3.329635572801719e-09,0.001071433677887588,3.329635572801719e-09,0.001071431385782625,3.329635572801719e-09,0.0002285555779743512,3.329635572801719e-09,0.7386864293342883
3.332339390431863e-09,0.001124449907474391,3.332339390431863e-09,0.001071436268981169,3.332339390431863e-09,0.00107143292019151,3.332339390431863e-09,-0.0001797471854183832,3.332339390431863e-09,0.7401885502399237
3.335231266429849e-09,0.001125085169872281,3.335231266429849e-09,0.001071423372087722,3.335231266429849e-09,0.001071435066636153,3.335231266429849e-09,-0.0009564562325137616,3.335231266429849e-09,0.7417951480165826
3.339104658634164e-09,0.0005922509090622862,3.339104658634164e-09,0.00107139982236635,3.339104658634164e-09,0.001071437159298912,3.339104658634164e-09,-0.001996052314348078,3.339104658634164e-09,0.7439470325745356
3.342077901806492e-09,-0.001735802064505765,3.342077901806492e-09,0.001071389411668838,3.342077901806492e-09,0.001071431087275066,3.342077901806492e-09,-0.002524134189711204,3.342077901806492e-09,0.74559883433694
3.345327504803642e-09,-0.004485154769094131,3.345327504803642e-09,0.001071393137750234,3.345327504803642e-09,0.001071422020853197,3.345327504803642e-09,-0.00264537593620926,3.345327504803642e-09,0.7474041693353565
3.348557597909655e-09,0.007423700680158777,3.348557597909655e-09,0.00107141586556953,3.348557597909655e-09,0.001071415713579908,3.348557597909655e-09,-0.002164414158283923,3.348557597909655e-09,0.7491986655053641
3.351558404896651e-09,0.05127044078229085,3.351558404896651e-09,0.001071444860382045,3.351558404896651e-09,0.001071409331181479,3.351558404896651e-09,-0.001307699860203389,3.351558404896651e-09,0.7508657804981392
3.354404505591677e-09,0.1266858325030408,3.354404505591677e-09,0.00107145936347611,3.354404505591677e-09,0.001071402442002893,3.354404505591677e-09,-0.0007038984305178844,3.354404505591677e-09,0.7524469475509316
3.356763474701839e-09,0.2053518024377203,3.356763474701839e-09,0.001071473960388332,3.356763474701839e-09,0.001071413074092126,3.356763474701839e-09,-0.0001762486451589098,3.356763474701839e-09,0.7537574859454662
3.359570068893611e-09,0.3133622702371389,3.359570068893611e-09,0.001071474360024734,3.359570068893611e-09,0.001071423932568141,3.359570068893611e-09,0.0007825300874248737,3.359570068893611e-09,0.755316704940895
3.362713181932687e-09,0.447670387736895,3.362713181932687e-09,0.001071445326091015,3.362713181932687e-09,0.001071416593834485,3.362713181932687e-09,0.001845164818901694,3.362713181932687e-09,0.7570628788514926
3.366910199093314e-09,0.6202992981788324,3.366910199093314e-09,0.001071419236578096,3.366910199093314e-09,0.001071418674190606,3.366910199093314e-09,0.002826927789112343,3.366910199093314e-09,0.7593945550518414
3.36990872853565e-09,0.7173826974327444,3.36990872853565e-09,0.001071412094238803,3.36990872853565e-09,0.001071422943660624,3.36990872853565e-09,0.003089326974880807,3.36990872853565e-09,0.761060404742028
3.372782217953615e-09,0.7853198100720763,3.372782217953615e-09,0.001071411725927106,3.372782217953615e-09,0.001071428522807375,3.372782217953615e-09,0.003073901821384375,3.372782217953615e-09,0.7626567877520083
3.375603133511727e-09,0.8630830322070746,3.375603133511727e-09,0.001071411382686332,3.375603133511727e-09,0.001071429836952224,3.375603133511727e-09,0.002881066838938838,3.375603133511727e-09,0.7642239630620707
3.379224633722308e-09,1.116956403069684,3.379224633722308e-09,0.001071409303412041,3.379224633722308e-09,0.001071428240213908,3.379224633722308e-09,0.002509093770994844,3.379224633722308e-09,0.7662359076235046
3.381835118534375e-09,1.551795264742996,3.381835118534375e-09,0.001071408146053216,3.381835118534375e-09,0.001071425794857064,3.381835118534375e-09,0.00221359214316204,3.381835118534375e-09,0.7676861769635415
3.384064137554516e-09,2.164231124340573,3.384064137554516e-09,0.001071406795132476,3.384064137554516e-09,0.001071423585258448,3.384064137554516e-09,0.001989974091513313,3.384064137554516e-09,0.7689245208636198
3.386507965003642e-09,2.983215716907452,3.386507965003642e-09,0.001071406004446526,3.386507965003642e-09,0.001071421004158881,3.386507965003642e-09,0.001768983046042014,3.386507965003642e-09,0.770282202779801
3.388561461377791e-09,3.635434611059357,3.388561461377791e-09,0.001071405367499567,3.388561461377791e-09,0.001071419254646776,3.388561461377791e-09,0.001606654781994284,3.388561461377791e-09,0.771423034098773
3.390248901216952e-09,4.039961718890207,3.390248901216952e-09,0.001071406080027959,3.390248901216952e-09,0.00107141858229736,3.390248901216952e-09,0.001483560079276647,3.390248901216952e-09,0.7723605006760846
3.391889282393727e-09,4.317399123647709,3.391889282393727e-09,0.001071406524943912,3.391889282393727e-09,0.001071418045987187,3.391889282393727e-09,0.001376461858655791,3.391889282393727e-09,0.7732718235520704
3.393883628563615e-09,4.552258253395669,3.393883628563615e-09,0.001071408179131904,3.393883628563615e-09,0.001071418135507629,3.393883628563615e-09,0.001258120761904785,3.393883628563615e-09,0.7743797936464528
3.395926388108992e-09,4.710394219737867,3.395926388108992e-09,0.001071409547964428,3.395926388108992e-09,0.001071418203519076,3.395926388108992e-09,0.001153314888470279,3.395926388108992e-09,0.7755146600605509
3.398418607171966e-09,4.831517847742163,3.398418607171966e-09,0.001071411912501163,3.398418607171966e-09,0.001071418803791485,3.398418607171966e-09,0.001043231587095286,3.398418607171966e-09,0.776899226206648
3.401172693020048e-09,4.906821482784037,3.401172693020048e-09,0.001071413971594559,3.401172693020048e-09,0.001071419258888631,3.401172693020048e-09,0.0009429451868903744,3.401172693020048e-09,0.7784292739000266
3.404522911688285e-09,4.953635326745108,3.404522911688285e-09,0.001071416746155457,3.404522911688285e-09,0.001071420136857275,3.404522911688285e-09,0.0008444234755370136,3.404522911688285e-09,0.7802905064934915
3.408292200933602e-09,4.976572987569361,3.408292200933602e-09,0.001071419016991591,3.408292200933602e-09,0.001071420755926123,3.408292200933602e-09,0.0007597958857833136,3.408292200933602e-09,0.7823845560742234
