/net039 X,/net039 Y,/net010 X,/net010 Y,/net09 X,/net09 Y,/net08 X,/net08 Y,/net02 X,/net02 Y
0,5.062948104982573e-05,0,5.062948104953845e-05,0,5.062948104960711e-05,0,5.0337653261815e-05,0,0
1.5e-11,5.062948104947537e-05,1.5e-11,5.062948104957786e-05,1.5e-11,5.062948105004583e-05,1.5e-11,5.033765488266707e-05,1.5e-11,0
4.5e-11,5.062948104966822e-05,4.5e-11,5.062948104970826e-05,4.5e-11,5.062948104946664e-05,4.5e-11,5.033765272119096e-05,4.5e-11,0
1.05e-10,5.06294810492409e-05,1.05e-10,5.062948104923414e-05,1.05e-10,5.062948104682897e-05,1.05e-10,5.033765318470859e-05,1.05e-10,0
2.25e-10,5.062948104932239e-05,2.25e-10,5.062948105228268e-05,2.25e-10,5.062948105130454e-05,2.25e-10,5.033765356008938e-05,2.25e-10,0
4.65e-10,5.062948105197376e-05,4.65e-10,5.062948104910083e-05,4.65e-10,5.062948104748566e-05,4.65e-10,5.033765291573126e-05,4.65e-10,0
7.649999999999999e-10,5.062948104934963e-05,7.649999999999999e-10,5.062948104922561e-05,7.649999999999999e-10,5.062948105369421e-05,7.649999999999999e-10,5.033765364296285e-05,7.649999999999999e-10,0
1.065e-09,5.062948104922704e-05,1.065e-09,5.062948104896512e-05,1.065e-09,5.062948104501244e-05,1.065e-09,5.033765285486624e-05,1.065e-09,0
1.365e-09,5.062948104902812e-05,1.365e-09,5.062948105252899e-05,1.365e-09,5.062948105318977e-05,1.365e-09,5.033765368752889e-05,1.365e-09,0
1.665e-09,5.062948105243991e-05,1.665e-09,5.062948104596962e-05,1.665e-09,5.062948104526078e-05,1.665e-09,5.033765282504705e-05,1.665e-09,0
1.8325e-09,5.062948104626315e-05,1.8325e-09,5.062948105215758e-05,1.8325e-09,5.062948105603183e-05,1.8325e-09,5.033765370558359e-05,1.8325e-09,0
2e-09,5.06294810523061e-05,2e-09,5.062948104641827e-05,2e-09,5.062948104249794e-05,2e-09,5.033765282589815e-05,2e-09,0
2.12014412738544e-09,5.062948104973036e-05,2.12014412738544e-09,5.062948104964321e-05,2.12014412738544e-09,5.062948104948564e-05,2.12014412738544e-09,5.033765325806317e-05,2.12014412738544e-09,0.06674673743635534
2.261585129607755e-09,5.062948104915308e-05,2.261585129607755e-09,5.062948104915578e-05,2.261585129607755e-09,5.062948104913412e-05,2.261585129607755e-09,5.033765323643612e-05,2.261585129607755e-09,0.1453250720043085
2.400273538306825e-09,5.062948104910317e-05,2.400273538306825e-09,5.062948105221943e-05,2.400273538306825e-09,5.062948105232248e-05,2.400273538306825e-09,5.033765338340543e-05,2.400273538306825e-09,0.2223741879482359
2.456815776163603e-09,5.062948105242264e-05,2.456815776163603e-09,5.062948104614908e-05,2.456815776163603e-09,5.062948104526951e-05,2.456815776163603e-09,5.033765261235765e-05,2.456815776163603e-09,0.2537865423131127
2.485086895091992e-09,5.062948104680757e-05,2.485086895091992e-09,5.062948105188554e-05,2.485086895091992e-09,5.062948105601234e-05,2.485086895091992e-09,5.033765541326202e-05,2.485086895091992e-09,0.2694927194955511
2.54162913294877e-09,5.062948105139942e-05,2.54162913294877e-09,5.062948104952851e-05,2.54162913294877e-09,5.062948103479034e-05,2.54162913294877e-09,5.033765049938157e-05,2.54162913294877e-09,0.3009050738604279
2.563826200565204e-09,5.062948104736491e-05,2.563826200565204e-09,5.062948104925287e-05,2.563826200565204e-09,5.062948107831977e-05,2.563826200565204e-09,5.033765606645576e-05,2.563826200565204e-09,0.31323677809178
2.574924734373421e-09,5.062948105303612e-05,2.574924734373421e-09,5.062948104886718e-05,2.574924734373421e-09,5.062948102449142e-05,2.574924734373421e-09,5.03376534402163e-05,2.574924734373421e-09,0.3194026302074559
2.597121801989854e-09,5.06294810484808e-05,2.597121801989854e-09,5.062948104926056e-05,2.597121801989854e-09,5.062948106065049e-05,2.597121801989854e-09,5.033765164624384e-05,2.597121801989854e-09,0.3317343344388078
2.624423042981055e-09,5.062948105020509e-05,2.624423042981055e-09,5.06294810489242e-05,2.624423042981055e-09,5.062948105370829e-05,2.624423042981055e-09,5.033765537656349e-05,2.624423042981055e-09,0.3469016905450304
2.64472793062748e-09,5.062948105123309e-05,2.64472793062748e-09,5.062948104658631e-05,2.64472793062748e-09,5.062948103149119e-05,2.64472793062748e-09,5.033765111489601e-05,2.64472793062748e-09,0.3581821836819331
2.671306116827304e-09,5.062948104768584e-05,2.671306116827304e-09,5.062948104883159e-05,2.671306116827304e-09,5.062948107300888e-05,2.671306116827304e-09,5.03376551651796e-05,2.671306116827304e-09,0.3729478426818356
2.692302283382839e-09,5.062948105060443e-05,2.692302283382839e-09,5.062948104955459e-05,2.692302283382839e-09,5.062948102400536e-05,2.692302283382839e-09,5.033765176104674e-05,2.692302283382839e-09,0.3846123796571329
2.712105299161062e-09,5.062948104792925e-05,2.712105299161062e-09,5.062948105183561e-05,2.712105299161062e-09,5.062948107302875e-05,2.712105299161062e-09,5.033765434446678e-05,2.712105299161062e-09,0.3956140550894791
2.735106794283018e-09,5.062948105025925e-05,2.735106794283018e-09,5.062948104979022e-05,2.735106794283018e-09,5.062948102711754e-05,2.735106794283018e-09,5.03376524879061e-05,2.735106794283018e-09,0.4083926634905655
2.763002588729351e-09,5.062948105111568e-05,2.763002588729351e-09,5.06294810459749e-05,2.763002588729351e-09,5.062948107192343e-05,2.763002588729351e-09,5.033765382542065e-05,2.763002588729351e-09,0.4238903270718616
2.791387264847549e-09,5.062948104768371e-05,2.791387264847549e-09,5.062948105196793e-05,2.791387264847549e-09,5.06294810319014e-05,2.791387264847549e-09,5.033765286651289e-05,2.791387264847549e-09,0.4396595915819715
2.819621616818447e-09,5.062948105324121e-05,2.819621616818447e-09,5.062948104950131e-05,2.819621616818447e-09,5.062948106447953e-05,2.819621616818447e-09,5.033765352311396e-05,2.819621616818447e-09,0.4553453426769148
2.849427205216692e-09,5.062948104848444e-05,2.849427205216692e-09,5.062948104914163e-05,2.849427205216692e-09,5.062948103869735e-05,2.849427205216692e-09,5.033765310128574e-05,2.849427205216692e-09,0.4719040028981621
2.864329999415815e-09,5.062948105017934e-05,2.864329999415815e-09,5.062948105186071e-05,2.864329999415815e-09,5.062948105601613e-05,2.864329999415815e-09,5.033765328017388e-05,2.864329999415815e-09,0.4801833330087859
2.891709747321254e-09,5.062948104796386e-05,2.891709747321254e-09,5.062948105238263e-05,2.891709747321254e-09,5.062948104559012e-05,2.891709747321254e-09,5.033765329431368e-05,2.891709747321254e-09,0.4953943040673631
2.916345576789941e-09,5.062948105020193e-05,2.916345576789941e-09,5.062948104658206e-05,2.916345576789941e-09,5.06294810517894e-05,2.916345576789941e-09,5.033765318815598e-05,2.916345576789941e-09,0.5090808759944118
2.965617235727316e-09,5.062948104797975e-05,2.965617235727316e-09,5.062948105456509e-05,2.965617235727316e-09,5.062948104721166e-05,2.965617235727316e-09,5.033765335161375e-05,2.965617235727316e-09,0.5364540198485087
3.005025415939091e-09,5.062948104744602e-05,3.005025415939091e-09,5.062948104753616e-05,3.005025415939091e-09,5.062948105093352e-05,3.005025415939091e-09,5.033765315577843e-05,3.005025415939091e-09,0.5583474532994946
3.050146067316077e-09,5.06294810509369e-05,3.050146067316077e-09,5.062948105363769e-05,3.050146067316077e-09,5.062948105041487e-05,3.050146067316077e-09,5.033765338013951e-05,3.050146067316077e-09,0.5834144818422649
3.093670816548814e-09,5.06294810478318e-05,3.093670816548814e-09,5.062948104800017e-05,3.093670816548814e-09,5.062948104804554e-05,3.093670816548814e-09,5.033765313360532e-05,3.093670816548814e-09,0.6075948980826746
3.106072866842363e-09,5.062948105011097e-05,3.106072866842363e-09,5.062948104765887e-05,3.106072866842363e-09,5.06294810482526e-05,3.106072866842363e-09,5.033765341209076e-05,3.106072866842363e-09,0.6144849260235351
3.112273891989138e-09,5.062948104857761e-05,3.112273891989138e-09,5.06294810496088e-05,3.112273891989138e-09,5.062948104799962e-05,3.112273891989138e-09,5.033765308748215e-05,3.112273891989138e-09,0.6179299399939653
3.124675942282686e-09,5.062948105018157e-05,3.124675942282686e-09,5.062948104914104e-05,3.124675942282686e-09,5.062948105087732e-05,3.124675942282686e-09,5.033765342052638e-05,3.124675942282686e-09,0.6248199679348256
3.134284301722894e-09,5.062948104817188e-05,3.134284301722894e-09,5.06294810513906e-05,3.134284301722894e-09,5.062948104843587e-05,3.134284301722894e-09,5.033765305793143e-05,3.134284301722894e-09,0.6301579454016075
3.146999025054364e-09,5.062948105011309e-05,3.146999025054364e-09,5.06294810478447e-05,3.146999025054364e-09,5.062948106133673e-05,3.146999025054364e-09,5.0337653783179e-05,3.146999025054364e-09,0.6372216805857578
3.156982687063162e-09,5.062948104906228e-05,3.156982687063162e-09,5.062948104957876e-05,3.156982687063162e-09,5.06294810537278e-05,3.156982687063162e-09,5.033765380750486e-05,3.156982687063162e-09,0.6427681594795344
3.160168826426434e-09,5.062948105337252e-05,3.160168826426434e-09,5.062948105216482e-05,3.160168826426434e-09,5.062948114633113e-05,3.160168826426434e-09,5.033765573611851e-05,3.160168826426434e-09,0.6445382369035741
3.166541105152977e-09,5.062948102592193e-05,3.166541105152977e-09,5.062948104838572e-05,3.166541105152977e-09,5.062948039879141e-05,3.166541105152977e-09,5.033763949233736e-05,3.166541105152977e-09,0.6480783917516537
3.176209406450577e-09,5.062948099002834e-05,3.176209406450577e-09,5.062948104868819e-05,3.176209406450577e-09,5.06294778283246e-05,3.176209406450577e-09,5.033752874035048e-05,3.176209406450577e-09,0.6534496702503204
3.183635932066575e-09,5.062948170825065e-05,3.183635932066575e-09,5.062948105915529e-05,3.183635932066575e-09,5.062950105041396e-05,3.183635932066575e-09,5.033806478243681e-05,3.183635932066575e-09,0.6575755178147636
3.192867611207983e-09,5.062948336695054e-05,3.192867611207983e-09,5.062948106066689e-05,3.192867611207983e-09,5.062958421412834e-05,3.192867611207983e-09,5.034149181027725e-05,3.192867611207983e-09,0.6627042284488797
3.20036440611489e-09,5.062946990638823e-05,3.20036440611489e-09,5.062948082383978e-05,3.20036440611489e-09,5.062890699859638e-05,3.20036440611489e-09,5.03263026149425e-05,3.20036440611489e-09,0.666869114508272
3.202605577724991e-09,5.062946412612951e-05,3.202605577724991e-09,5.062948055170968e-05,3.202605577724991e-09,5.062788619917902e-05,3.202605577724991e-09,5.03047472562165e-05,3.202605577724991e-09,0.6681142098472174
3.207087920945194e-09,5.062947955537279e-05,3.207087920945194e-09,5.062948109521885e-05,3.207087920945194e-09,5.062555794859235e-05,3.207087920945194e-09,5.022591147568119e-05,3.207087920945194e-09,0.6706044005251079
3.211890004869466e-09,5.062945009911359e-05,3.211890004869466e-09,5.062948309498909e-05,3.211890004869466e-09,5.063155238785637e-05,3.211890004869466e-09,5.02708633649654e-05,3.211890004869466e-09,0.6732722249274813
3.216676780322024e-09,5.062952459662035e-05,3.216676780322024e-09,5.062948254604952e-05,3.216676780322024e-09,5.064253994708075e-05,3.216676780322024e-09,5.054840341965928e-05,3.216676780322024e-09,0.6759315446233465
3.221460532053229e-09,5.062962091652589e-05,3.221460532053229e-09,5.062947499174981e-05,3.221460532053229e-09,5.06286304225567e-05,3.221460532053229e-09,5.052547433533715e-05,3.221460532053229e-09,0.6785891844740159
3.229561566938012e-09,5.062942893676668e-05,3.229561566938012e-09,5.062948391860149e-05,3.229561566938012e-09,5.062030497780512e-05,3.229561566938012e-09,5.024878097896516e-05,3.229561566938012e-09,0.6830897594100066
3.236125496479089e-09,5.062944304339805e-05,3.236125496479089e-09,5.062948354614468e-05,3.236125496479089e-09,5.063071227176497e-05,3.236125496479089e-09,5.025967285810409e-05,3.236125496479089e-09,0.6867363869328272
3.243843391182404e-09,5.062956100746008e-05,3.243843391182404e-09,5.062947882204474e-05,3.243843391182404e-09,5.063079593565465e-05,3.243843391182404e-09,5.030776187450108e-05,3.243843391182404e-09,0.6910241062124469
3.250484488410939e-09,5.062933673933579e-05,3.250484488410939e-09,5.062948095671485e-05,3.250484488410939e-09,5.063080378500653e-05,3.250484488410939e-09,5.03485240492183e-05,3.250484488410939e-09,0.6947136046727441
3.257571663935285e-09,5.06292028781971e-05,3.257571663935285e-09,5.062947947647088e-05,3.257571663935285e-09,5.062804387666054e-05,3.257571663935285e-09,5.030128828996642e-05,3.257571663935285e-09,0.6986509244084915
3.263069409080521e-09,5.062889834241404e-05,3.263069409080521e-09,5.062948059110768e-05,3.263069409080521e-09,5.062543781199691e-05,3.263069409080521e-09,5.019356414698961e-05,3.263069409080521e-09,0.7017052272669561
3.267771406603405e-09,5.062135506011372e-05,3.267771406603405e-09,5.062943774863855e-05,3.267771406603405e-09,5.062331114782028e-05,3.267771406603405e-09,4.98931588669665e-05,3.267771406603405e-09,0.7043174481130027
3.271773862376786e-09,5.058346042228426e-05,3.271773862376786e-09,5.062924957523254e-05,3.271773862376786e-09,5.06297247875515e-05,3.271773862376786e-09,4.902277894369764e-05,3.271773862376786e-09,0.7065410346537697
3.275781056480266e-09,5.058041252001848e-05,3.275781056480266e-09,5.062949572028391e-05,3.275781056480266e-09,5.064069622989237e-05,3.275781056480266e-09,4.837913064246683e-05,3.275781056480266e-09,0.7087672536001475
3.279134649914033e-09,5.08606905678268e-05,3.279134649914033e-09,5.063148496785913e-05,3.279134649914033e-09,5.064819063358174e-05,3.279134649914033e-09,5.310153606164487e-05,3.279134649914033e-09,0.7106303610633514
3.282639184486954e-09,5.192444831541031e-05,3.282639184486954e-09,5.063653011240716e-05,3.282639184486954e-09,5.064759596052306e-05,3.282639184486954e-09,7.622414040589163e-05,3.282639184486954e-09,0.7125773247149743
3.28486212302316e-09,5.246437087369161e-05,3.28486212302316e-09,5.063504316082595e-05,3.28486212302316e-09,5.064415777606259e-05,3.28486212302316e-09,9.621421850262403e-05,3.28486212302316e-09,0.713812290568422
3.287208554236624e-09,5.188523620758468e-05,3.287208554236624e-09,5.062425303046232e-05,3.287208554236624e-09,5.064495576109694e-05,3.287208554236624e-09,9.956579096649261e-05,3.287208554236624e-09,0.7151158634647911
3.289488064075203e-09,5.075202456250536e-05,3.289488064075203e-09,5.06173633894065e-05,3.289488064075203e-09,5.063677257370441e-05,3.289488064075203e-09,5.38089685422559e-05,3.289488064075203e-09,0.7163822578195571
3.292601453092137e-09,4.944492132196233e-05,3.292601453092137e-09,5.061993099797635e-05,3.292601453092137e-09,5.060287872877033e-05,3.292601453092137e-09,-0.0002331021631676309,3.292601453092137e-09,0.7181119183845206
3.295690196428922e-09,4.423917800646227e-05,3.295690196428922e-09,5.06315519085771e-05,3.295690196428922e-09,5.05869945973025e-05,3.295690196428922e-09,-0.0009202246293660872,3.295690196428922e-09,0.7198278869049565
3.298377954653063e-09,3.419241756514631e-05,3.298377954653063e-09,5.06511024865955e-05,3.298377954653063e-09,5.06112368739379e-05,3.298377954653063e-09,-0.001269930675213632,3.298377954653063e-09,0.7213210859183682
3.301154764432858e-09,2.910567087893213e-05,3.301154764432858e-09,5.064715327628173e-05,3.301154764432858e-09,5.062905160260804e-05,3.301154764432858e-09,-0.001123481614549012,3.301154764432858e-09,0.7228637580182546
3.303663698662883e-09,3.4089468813288e-05,3.303663698662883e-09,5.062520224135991e-05,3.303663698662883e-09,5.06244907021488e-05,3.303663698662883e-09,-0.0007779402229109943,3.303663698662883e-09,0.7242576103682682
3.306318862134902e-09,4.858576783027851e-05,3.306318862134902e-09,5.062406586101358e-05,3.306318862134902e-09,5.062182628554047e-05,3.306318862134902e-09,-0.0004010503698464418,3.306318862134902e-09,0.7257327011860566
3.309329794302749e-09,8.124181048283147e-05,3.309329794302749e-09,5.064142541642093e-05,3.309329794302749e-09,5.061884743225484e-05,3.309329794302749e-09,-0.0002971877110974931,3.309329794302749e-09,0.7274054412793052
3.311686642151311e-09,0.0001311088248315049,3.311686642151311e-09,5.066240960773577e-05,3.311686642151311e-09,5.062305331823838e-05,3.311686642151311e-09,-0.000623304927680757,3.311686642151311e-09,0.7287148011951728
3.314195145733236e-09,0.0002532360984594381,3.314195145733236e-09,5.066075196556733e-05,3.314195145733236e-09,5.063091402459335e-05,3.314195145733236e-09,-0.001381820381226757,3.314195145733236e-09,0.7301084142962424
3.317528151192369e-09,0.0005460189802470585,3.317528151192369e-09,5.061797846209376e-05,3.317528151192369e-09,5.064713397909287e-05,3.317528151192369e-09,-0.00255313349390703,3.317528151192369e-09,0.7319600839957607
3.320185021397224e-09,-0.000918775409141396,3.320185021397224e-09,5.057678667392441e-05,3.320185021397224e-09,5.065374789755773e-05,3.320185021397224e-09,-0.003277481631459235,3.320185021397224e-09,0.733436122998458
3.323024994357785e-09,-0.008146318623233407,3.323024994357785e-09,5.054971372111832e-05,3.323024994357785e-09,5.065093235774336e-05,3.323024994357785e-09,-0.003645361667441012,3.323024994357785e-09,0.7350138857543251
3.325904214056457e-09,-0.01469843397946566,3.325904214056457e-09,5.055394367328689e-05,3.325904214056457e-09,5.06459194282084e-05,3.325904214056457e-09,-0.003420338795872745,3.325904214056457e-09,0.736613452253587
3.328421250080102e-09,0.0003479801595499761,3.328421250080102e-09,5.058899522195867e-05,3.328421250080102e-09,5.063950848918719e-05,3.328421250080102e-09,-0.002680425901967468,3.328421250080102e-09,0.7380118056000569
3.331242247433964e-09,0.07028754468660313,3.331242247433964e-09,5.062730388680189e-05,3.331242247433964e-09,5.061848708239062e-05,3.331242247433964e-09,-0.001847489859241297,3.331242247433964e-09,0.7395790263522021
3.333305732565474e-09,0.1593946278338226,3.333305732565474e-09,5.066275913888287e-05,3.333305732565474e-09,5.061801974333047e-05,3.333305732565474e-09,-0.001180361178812708,3.333305732565474e-09,0.7407254069808191
3.335751952381127e-09,0.2848063680474476,3.335751952381127e-09,5.069892929642143e-05,3.335751952381127e-09,5.062929237178023e-05,3.335751952381127e-09,-5.135910769701063e-05,3.335751952381127e-09,0.742084417989515
3.338384555827607e-09,0.4324700772749827,3.338384555827607e-09,5.068700365410022e-05,3.338384555827607e-09,5.062134786886224e-05,3.338384555827607e-09,0.001198621830802798,3.338384555827607e-09,0.7435469754597819
3.341890407612199e-09,0.6219447458366638,3.341890407612199e-09,5.065529766217556e-05,3.341890407612199e-09,5.061531318898903e-05,3.341890407612199e-09,0.002494781826564498,3.341890407612199e-09,0.7454946708956661
3.344717239252628e-09,0.741873635893102,3.344717239252628e-09,5.063523286745187e-05,3.344717239252628e-09,5.061568752522348e-05,3.344717239252628e-09,0.003029525714572556,3.344717239252628e-09,0.7470651329181268
3.347265855348178e-09,0.8140543259278248,3.347265855348178e-09,5.063098152209402e-05,3.347265855348178e-09,5.06219893152814e-05,3.347265855348178e-09,0.003121707942646349,3.347265855348178e-09,0.7484810307489875
3.349769029594431e-09,0.8818370351574215,3.349769029594431e-09,5.063263616645403e-05,3.349769029594431e-09,5.063016316111627e-05,3.349769029594431e-09,0.002973309955333173,3.349769029594431e-09,0.749871683108017
3.352671880183758e-09,1.052332962324862,3.352671880183758e-09,5.063458879244243e-05,3.352671880183758e-09,5.063539481915804e-05,3.352671880183758e-09,0.002611595068478912,3.352671880183758e-09,0.7514843778798658
3.355131572443417e-09,1.416574005987678,3.355131572443417e-09,5.063484660089955e-05,3.355131572443417e-09,5.063777845368557e-05,3.355131572443417e-09,0.002243815154115061,3.355131572443417e-09,0.7528508735796761
3.357110491947022e-09,1.959037520952999,3.357110491947022e-09,5.063475260613687e-05,3.357110491947022e-09,5.063819366518976e-05,3.357110491947022e-09,0.001963195457114878,3.357110491947022e-09,0.7539502733039013
3.359060954934315e-09,2.676950364231639,3.359060954934315e-09,5.063269590957516e-05,3.359060954934315e-09,5.06370111146893e-05,3.359060954934315e-09,0.001717378645645759,3.359060954934315e-09,0.7550338638523973
3.360487772053499e-09,3.237033353241068,3.360487772053499e-09,5.063089164556995e-05,3.360487772053499e-09,5.063529240414857e-05,3.360487772053499e-09,0.001552219280445459,3.360487772053499e-09,0.7558265400297217
