/net039 X,/net039 Y,/net010 X,/net010 Y,/net09 X,/net09 Y,/net08 X,/net08 Y,/net02 X,/net02 Y
0,6.447691462325735e-05,0,6.447691462329005e-05,0,6.447691462315636e-05,0,5.884351497011705e-05,0,0
1.5e-11,6.447691462308945e-05,1.5e-11,6.447691462169637e-05,1.5e-11,6.447691462320828e-05,1.5e-11,5.884352162140763e-05,1.5e-11,0
4.5e-11,6.447691462327532e-05,4.5e-11,6.447691462396505e-05,4.5e-11,6.447691462318533e-05,4.5e-11,5.884352568964713e-05,4.5e-11,0
1.05e-10,6.447691462497853e-05,1.05e-10,6.447691462460076e-05,1.05e-10,6.447691462509511e-05,1.05e-10,5.884352750595232e-05,1.05e-10,0
2.25e-10,6.447691461902502e-05,2.25e-10,6.447691462210811e-05,2.25e-10,6.447691462194172e-05,2.25e-10,5.884352628672114e-05,2.25e-10,0
4.65e-10,6.447691462788119e-05,4.65e-10,6.44769146281767e-05,4.65e-10,6.447691462187612e-05,4.65e-10,5.884352726941901e-05,4.65e-10,0
7.649999999999999e-10,6.447691461902177e-05,7.649999999999999e-10,6.447691461859321e-05,7.649999999999999e-10,6.447691462227088e-05,7.649999999999999e-10,5.884352637109341e-05,7.649999999999999e-10,0
1.065e-09,6.447691462796822e-05,1.065e-09,6.447691463151972e-05,1.065e-09,6.447691462502422e-05,1.065e-09,5.884352715201666e-05,1.065e-09,0
1.365e-09,6.447691461866636e-05,1.365e-09,6.447691461557639e-05,1.365e-09,6.447691462226094e-05,1.365e-09,5.884352642160281e-05,1.365e-09,0
1.665e-09,6.447691463130315e-05,1.665e-09,6.447691463138328e-05,1.665e-09,6.447691462511861e-05,1.665e-09,5.884352705031559e-05,1.665e-09,0
1.8325e-09,6.447691461280827e-05,1.8325e-09,6.447691461260898e-05,1.8325e-09,6.447691462226341e-05,1.8325e-09,5.884352648740632e-05,1.8325e-09,0
2e-09,6.447691463400002e-05,2e-09,6.44769146372552e-05,2e-09,6.447691462805355e-05,2e-09,5.884352693447243e-05,2e-09,0
2.120144127384571e-09,6.447691462360954e-05,2.120144127384571e-09,6.447691462336616e-05,2.120144127384571e-09,6.447691462339473e-05,2.120144127384571e-09,5.884352673841122e-05,2.120144127384571e-09,0.06674673743587282
2.261585129605973e-09,6.447691462170016e-05,2.261585129605973e-09,6.447691462484793e-05,2.261585129605973e-09,6.447691462497853e-05,2.261585129605973e-09,5.88435266764315e-05,2.261585129605973e-09,0.1453250720033182
2.400273538304042e-09,6.447691462199724e-05,2.400273538304042e-09,6.447691462212799e-05,2.400273538304042e-09,6.447691462234952e-05,2.400273538304042e-09,5.884352684304792e-05,2.400273538304042e-09,0.2223741879466899
2.455863980564142e-09,6.447691462469224e-05,2.455863980564142e-09,6.447691462456501e-05,2.455863980564142e-09,6.447691462371693e-05,2.455863980564142e-09,5.884352603640173e-05,2.455863980564142e-09,0.2532577669800788
2.483659201694192e-09,6.447691461986979e-05,2.483659201694192e-09,6.447691462257899e-05,2.483659201694192e-09,6.447691462969979e-05,2.483659201694192e-09,5.884352888497636e-05,2.483659201694192e-09,0.2686995564967732
2.539249643954292e-09,6.447691462677732e-05,2.539249643954292e-09,6.447691462139304e-05,2.539249643954292e-09,6.447691460961872e-05,2.539249643954292e-09,5.884352394759761e-05,2.539249643954292e-09,0.299583135530162
2.561653996332941e-09,6.447691462132847e-05,2.561653996332941e-09,6.447691462511716e-05,2.561653996332941e-09,6.447691464597953e-05,2.561653996332941e-09,5.884352933065954e-05,2.561653996332941e-09,0.3120299979627447
2.572856172522265e-09,6.447691462488013e-05,2.572856172522265e-09,6.447691462226067e-05,2.572856172522265e-09,6.447691460362333e-05,2.572856172522265e-09,5.884352716652888e-05,2.572856172522265e-09,0.3182534291790361
2.595260524900914e-09,6.447691462211555e-05,2.595260524900914e-09,6.447691462433647e-05,2.595260524900914e-09,6.447691462692187e-05,2.595260524900914e-09,5.884352488411007e-05,2.595260524900914e-09,0.3307002916116187
2.620828796454248e-09,6.447691462469228e-05,2.620828796454248e-09,6.447691462272724e-05,2.620828796454248e-09,6.447691463352165e-05,2.620828796454248e-09,5.884352894166068e-05,2.620828796454248e-09,0.3449048869190269
2.641644702358287e-09,6.447691462220318e-05,2.641644702358287e-09,6.447691462416343e-05,2.641644702358287e-09,6.447691459910595e-05,2.641644702358287e-09,5.884352454225275e-05,2.641644702358287e-09,0.3564692790879371
2.670639409180923e-09,6.447691462477797e-05,2.670639409180923e-09,6.447691462311421e-05,2.670639409180923e-09,6.447691465003445e-05,2.670639409180923e-09,5.884352858177361e-05,2.670639409180923e-09,0.372577449544957
2.691389359848593e-09,6.447691462234868e-05,2.691389359848593e-09,6.447691462392111e-05,2.691389359848593e-09,6.447691459669049e-05,2.691389359848593e-09,5.884352525388094e-05,2.691389359848593e-09,0.384105199915885
2.712108555556981e-09,6.447691462425742e-05,2.712108555556981e-09,6.44769146257618e-05,2.712108555556981e-09,6.447691464560276e-05,2.712108555556981e-09,5.884352772002566e-05,2.712108555556981e-09,0.3956158641983228
2.736162301359784e-09,6.447691462257421e-05,2.736162301359784e-09,6.447691462119108e-05,2.736162301359784e-09,6.447691460606438e-05,2.736162301359784e-09,5.884352597097175e-05,2.736162301359784e-09,0.4089790563109909
2.772164736510033e-09,6.447691462124262e-05,2.772164736510033e-09,6.447691462269052e-05,2.772164736510033e-09,6.447691463694917e-05,2.772164736510033e-09,5.884352724569549e-05,2.772164736510033e-09,0.4289804091722407
2.800617347820899e-09,6.447691462525541e-05,2.800617347820899e-09,6.44769146240737e-05,2.800617347820899e-09,6.447691461219589e-05,2.800617347820899e-09,5.884352631416377e-05,2.800617347820899e-09,0.444787415456055
2.830104502738887e-09,6.447691462204478e-05,2.830104502738887e-09,6.447691462282494e-05,2.830104502738887e-09,6.447691463046767e-05,2.830104502738887e-09,5.884352692940346e-05,2.830104502738887e-09,0.4611691681882708
2.862068354533426e-09,6.447691462230332e-05,2.862068354533426e-09,6.447691462142907e-05,2.862068354533426e-09,6.447691461751125e-05,2.862068354533426e-09,5.884352654713526e-05,2.862068354533426e-09,0.478926863629681
2.895045334307108e-09,6.447691462453187e-05,2.895045334307108e-09,6.447691462539514e-05,2.895045334307108e-09,6.447691462563724e-05,2.895045334307108e-09,5.884352674940054e-05,2.895045334307108e-09,0.4972474079483934
2.921373997417591e-09,6.447691462240301e-05,2.921373997417591e-09,6.447691462177577e-05,2.921373997417591e-09,6.447691462537542e-05,2.921373997417591e-09,5.884352669625464e-05,2.921373997417591e-09,0.5118744430097726
2.963024883825309e-09,6.447691462438831e-05,2.963024883825309e-09,6.447691462501851e-05,2.963024883825309e-09,6.447691462131933e-05,2.963024883825309e-09,5.884352663487129e-05,2.963024883825309e-09,0.5350138243473938
3.004424101361566e-09,6.447691462239651e-05,3.004424101361566e-09,6.447691462193564e-05,3.004424101361566e-09,6.44769146230661e-05,3.004424101361566e-09,5.884352675820905e-05,3.004424101361566e-09,0.5580133896453144
3.048801690506523e-09,6.447691462427081e-05,3.048801690506523e-09,6.447691462496996e-05,3.048801690506523e-09,6.447691462329385e-05,3.048801690506523e-09,5.884352657863661e-05,3.048801690506523e-09,0.582667605836957
3.091691276301005e-09,6.447691462288604e-05,3.091691276301005e-09,6.447691462221543e-05,3.091691276301005e-09,6.44769146213258e-05,3.091691276301005e-09,5.884352679541026e-05,3.091691276301005e-09,0.606495153500558
3.103704678448337e-09,6.447691462150632e-05,3.103704678448337e-09,6.447691462684172e-05,3.103704678448337e-09,6.447691462633264e-05,3.103704678448337e-09,5.884352651370523e-05,3.103704678448337e-09,0.6131692658046316
3.109711379522003e-09,6.447691462437482e-05,3.109711379522003e-09,6.447691462203307e-05,3.109711379522003e-09,6.44769146236367e-05,3.109711379522003e-09,5.884352684664987e-05,3.109711379522003e-09,0.6165063219566684
3.121724781669336e-09,6.447691462300446e-05,3.121724781669336e-09,6.44769146229461e-05,3.121724781669336e-09,6.447691462349312e-05,3.121724781669336e-09,5.884352649950241e-05,3.121724781669336e-09,0.623180434260742
3.131349989116498e-09,6.447691462379865e-05,3.131349989116498e-09,6.447691462094513e-05,3.131349989116498e-09,6.447691462105151e-05,3.131349989116498e-09,5.884352680139831e-05,3.131349989116498e-09,0.6285277717313877
3.144386471516302e-09,6.447691462090333e-05,3.144386471516302e-09,6.447691462526966e-05,3.144386471516302e-09,6.447691463349783e-05,3.144386471516302e-09,5.884352682588511e-05,3.144386471516302e-09,0.6357702619535012
3.154494954221e-09,6.447691462318426e-05,3.154494954221e-09,6.447691462163628e-05,3.154494954221e-09,6.447691462336546e-05,3.154494954221e-09,5.884352729751699e-05,3.154494954221e-09,0.6413860856783332
3.157909275852159e-09,6.447691462517445e-05,3.157909275852159e-09,6.447691462543168e-05,3.157909275852159e-09,6.447691470468329e-05,3.157909275852159e-09,5.884352859599109e-05,3.157909275852159e-09,0.6432829310289769
3.164737919114476e-09,6.447691460549954e-05,3.164737919114476e-09,6.447691461996075e-05,3.164737919114476e-09,6.447691407038442e-05,3.164737919114476e-09,5.884351439912024e-05,3.164737919114476e-09,0.6470766217302645
3.17447679407724e-09,6.447691456975764e-05,3.17447679407724e-09,6.447691462496491e-05,3.17447679407724e-09,6.447691190094217e-05,3.17447679407724e-09,5.884341887853942e-05,3.17447679407724e-09,0.6524871078206887
3.182400452407559e-09,6.447691518247963e-05,3.182400452407559e-09,6.447691462991541e-05,3.182400452407559e-09,6.447693231426772e-05,3.182400452407559e-09,5.884391457285482e-05,3.182400452407559e-09,0.6568891402264214
3.19182053689728e-09,6.447691663611958e-05,3.19182053689728e-09,6.447691463282827e-05,3.19182053689728e-09,6.447700551352216e-05,3.19182053689728e-09,5.884701413666423e-05,3.19182053689728e-09,0.6621225204984891
3.199609078211977e-09,6.447690454254342e-05,3.199609078211977e-09,6.447691441992228e-05,3.199609078211977e-09,6.4476328178304e-05,3.199609078211977e-09,5.883098153456333e-05,3.199609078211977e-09,0.6664494878955426
3.20191204200589e-09,6.447689957312934e-05,3.20191204200589e-09,6.447691415632804e-05,3.20191204200589e-09,6.447530154054118e-05,3.20191204200589e-09,5.880870866813283e-05,3.20191204200589e-09,0.6677289122254941
3.206517969593715e-09,6.447691198744674e-05,3.206517969593715e-09,6.447691472596346e-05,3.206517969593715e-09,6.447328624066814e-05,3.206517969593715e-09,5.873372231774314e-05,3.206517969593715e-09,0.6702877608853973
3.211615544597747e-09,6.447688837458001e-05,3.211615544597747e-09,6.447691670723224e-05,3.211615544597747e-09,6.448018897094982e-05,3.211615544597747e-09,5.88046123986906e-05,3.211615544597747e-09,0.6731197469987483
3.216436797304024e-09,6.447696727703108e-05,3.216436797304024e-09,6.447691528282759e-05,3.216436797304024e-09,6.448862396802644e-05,3.216436797304024e-09,5.905611947540215e-05,3.216436797304024e-09,0.6757982207244577
3.221482468894027e-09,6.447704046931926e-05,3.221482468894027e-09,6.447690922526449e-05,3.221482468894027e-09,6.447441943762894e-05,3.221482468894027e-09,5.9001294568784e-05,3.221482468894027e-09,0.6786013716077927
3.22966162955216e-09,6.447685501150117e-05,3.22966162955216e-09,6.447691784482706e-05,3.22966162955216e-09,6.446909160256563e-05,3.22966162955216e-09,5.875238883800767e-05,3.22966162955216e-09,0.6831453497511998
3.236494661472156e-09,6.447688757558624e-05,3.236494661472156e-09,6.44769162241136e-05,3.236494661472156e-09,6.447844751437959e-05,3.236494661472156e-09,5.877279338801683e-05,3.236494661472156e-09,0.6869414785956423
3.24451353685529e-09,6.447695269055094e-05,3.24451353685529e-09,6.44769126733734e-05,3.24451353685529e-09,6.447806407165383e-05,3.24451353685529e-09,5.881760578128596e-05,3.24451353685529e-09,0.69139640936405
3.251293797254761e-09,6.44767232554327e-05,3.251293797254761e-09,6.447691442149371e-05,3.251293797254761e-09,6.447811522700783e-05,3.251293797254761e-09,5.885248811099075e-05,3.251293797254761e-09,0.6951632206970895
3.258512607393927e-09,6.447664670867081e-05,3.258512607393927e-09,6.447691357850429e-05,3.258512607393927e-09,6.447576450118016e-05,3.258512607393927e-09,5.881146560554047e-05,3.258512607393927e-09,0.6991736707744035
3.264195294761389e-09,6.447618593297439e-05,3.264195294761389e-09,6.44769132025778e-05,3.264195294761389e-09,6.447331856922428e-05,3.264195294761389e-09,5.870789464696892e-05,3.264195294761389e-09,0.7023307193118828
3.269136082184063e-09,6.446869525616635e-05,3.269136082184063e-09,6.447687316704573e-05,3.269136082184063e-09,6.447105841568044e-05,3.269136082184063e-09,5.839866897718907e-05,3.269136082184063e-09,0.7050756012133685
3.273191346086769e-09,6.443789346272834e-05,3.273191346086769e-09,6.447672980719316e-05,3.273191346086769e-09,6.447651774363297e-05,3.273191346086769e-09,5.763903088625638e-05,3.273191346086769e-09,0.7073285256037604
3.277238600898006e-09,6.44373955569527e-05,3.277238600898006e-09,6.447693982658302e-05,3.277238600898006e-09,6.448692522585381e-05,3.277238600898006e-09,5.713356425387606e-05,3.277238600898006e-09,0.7095770004988921
3.280681980188416e-09,6.470677476200419e-05,3.280681980188416e-09,6.447879746643996e-05,3.280681980188416e-09,6.449451393796954e-05,3.280681980188416e-09,6.186740102603558e-05,3.280681980188416e-09,0.7114899889935647
3.284254756774432e-09,6.569026257749892e-05,3.284254756774432e-09,6.448332406819493e-05,3.284254756774432e-09,6.449430393346676e-05,3.284254756774432e-09,8.389361742803283e-05,3.284254756774432e-09,0.7134748648746843
3.286608458609468e-09,6.618099938402963e-05,3.286608458609468e-09,6.448167327320381e-05,3.286608458609468e-09,6.449053077750328e-05,3.286608458609468e-09,0.0001030629423723885,3.286608458609468e-09,0.7147824770052601
3.289053393263543e-09,6.55565383043404e-05,3.289053393263543e-09,6.44713267327354e-05,3.289053393263543e-09,6.449097577577786e-05,3.289053393263543e-09,0.0001029246947924848,3.289053393263543e-09,0.7161407740353019
3.29133521940972e-09,6.447744258410189e-05,3.29133521940972e-09,6.446534776436123e-05,3.29133521940972e-09,6.448456667576213e-05,3.29133521940972e-09,5.126951260872335e-05,3.29133521940972e-09,0.7174084552276219
3.294455834537398e-09,6.328297923191975e-05,3.294455834537398e-09,6.446869611027608e-05,3.294455834537398e-09,6.445380677383734e-05,3.294455834537398e-09,-0.0002317826109299162,3.294455834537398e-09,0.7191421302985547
3.297672467572138e-09,5.823597515994681e-05,3.297672467572138e-09,6.448032287651919e-05,3.297672467572138e-09,6.443677028857579e-05,3.297672467572138e-09,-0.0008991393416301745,3.297672467572138e-09,0.7209291486511877
3.300364942837754e-09,4.906581324291313e-05,3.300364942837754e-09,6.449755063662056e-05,3.300364942837754e-09,6.445796401265153e-05,3.300364942837754e-09,-0.00122060510911958,3.300364942837754e-09,0.7224249682431965
3.303269784279725e-09,4.433019057546928e-05,3.303269784279725e-09,6.449170763599763e-05,3.303269784279725e-09,6.447516828915205e-05,3.303269784279725e-09,-0.001077054051052637,3.303269784279725e-09,0.7240387690442914
3.305834055345045e-09,4.93866385969641e-05,3.305834055345045e-09,6.447104033990221e-05,3.305834055345045e-09,6.447188599703248e-05,3.305834055345045e-09,-0.0007424042984794926,3.305834055345045e-09,0.7254633640805807
3.308526772399476e-09,6.441127180510295e-05,3.308526772399476e-09,6.446982019158897e-05,3.308526772399476e-09,6.447021257670643e-05,3.308526772399476e-09,-0.0003722904930122475,3.308526772399476e-09,0.7269593179997088
3.311770868674807e-09,0.0001022415163540873,3.311770868674807e-09,6.448806951992933e-05,3.311770868674807e-09,6.446752414949614e-05,3.311770868674807e-09,-0.0002579999354000653,3.311770868674807e-09,0.7287615937082258
3.314176942636649e-09,0.0001541991331433098,3.314176942636649e-09,6.450864151732044e-05,3.314176942636649e-09,6.447131779938089e-05,3.314176942636649e-09,-0.0005790830840042626,3.314176942636649e-09,0.7300983014648048
3.316752631537514e-09,0.0002751672219194711,3.316752631537514e-09,6.450778436913363e-05,3.316752631537514e-09,6.44786690829567e-05,3.316752631537514e-09,-0.00133493133421244,3.316752631537514e-09,0.7315292397430632
3.320111882540585e-09,0.0005023682553198782,3.320111882540585e-09,6.446776652319197e-05,3.320111882540585e-09,6.449387273271984e-05,3.320111882540585e-09,-0.002493246114131472,3.320111882540585e-09,0.7333954903003251
3.322829221765677e-09,-0.001172941643012992,3.322829221765677e-09,6.442805752109681e-05,3.322829221765677e-09,6.450032427379944e-05,3.322829221765677e-09,-0.003223143491113223,3.322829221765677e-09,0.7349051232031538
3.325723389119448e-09,-0.008274838777181872,3.325723389119448e-09,6.440131249154076e-05,3.325723389119448e-09,6.449752598728742e-05,3.325723389119448e-09,-0.003595818351647815,3.325723389119448e-09,0.7365129939552488
3.328649826527384e-09,-0.0138434540774793,3.328649826527384e-09,6.440378613522746e-05,3.328649826527384e-09,6.449244871156342e-05,3.328649826527384e-09,-0.003380740289946612,3.328649826527384e-09,0.7381387925152133
3.331229876648793e-09,0.004162809203139381,3.331229876648793e-09,6.443719007356512e-05,3.331229876648793e-09,6.448624632691192e-05,3.331229876648793e-09,-0.002644059111093288,3.331229876648793e-09,0.739572153693774
3.334142996064056e-09,0.07923982961584239,3.334142996064056e-09,6.447455356591455e-05,3.334142996064056e-09,6.44658838039854e-05,3.334142996064056e-09,-0.001802262901858606,3.334142996064056e-09,0.7411905533689199
3.336256178414413e-09,0.1696361636566477,3.336256178414413e-09,6.450893327243903e-05,3.336256178414413e-09,6.446535186771602e-05,3.336256178414413e-09,-0.001143051490362621,3.336256178414413e-09,0.7423645435635629
3.338749084804435e-09,0.2932616469491298,3.338749084804435e-09,6.454351616781123e-05,3.338749084804435e-09,6.447629473754921e-05,3.338749084804435e-09,-3.525044346942551e-05,3.338749084804435e-09,0.7437494915580195
3.341467764011053e-09,0.4402255874997844,3.341467764011053e-09,6.453230448497548e-05,3.341467764011053e-09,6.446888385423175e-05,3.341467764011053e-09,0.001201465291890446,3.341467764011053e-09,0.7452598688950292
3.345019998858837e-09,0.6250300529368266,3.345019998858837e-09,6.450241730177243e-05,3.345019998858837e-09,6.446362060257342e-05,3.345019998858837e-09,0.002458989894175294,3.345019998858837e-09,0.7472333326993535
3.347901048422898e-09,0.7428210419718302,3.347901048422898e-09,6.448336665163368e-05,3.347901048422898e-09,6.446429655947697e-05,3.347901048422898e-09,0.002982982217417347,3.347901048422898e-09,0.7488339157904987
3.350510529642967e-09,0.8140780740036454,3.350510529642967e-09,6.447884067711988e-05,3.350510529642967e-09,6.447025205871251e-05,3.350510529642967e-09,0.003075310432847447,3.350510529642967e-09,0.7502836275794262
3.353056544110082e-09,0.8801479688544013,3.353056544110082e-09,6.448023632621629e-05,3.353056544110082e-09,6.447796197229051e-05,3.353056544110082e-09,0.002932090861716899,3.353056544110082e-09,0.7516980800611567
3.355998455558803e-09,1.046859402658828,3.355998455558803e-09,6.448161014300569e-05,3.355998455558803e-09,6.448269511721255e-05,3.355998455558803e-09,0.002582485905621297,3.355998455558803e-09,0.753332475310446
3.358511860408254e-09,1.408011573802816,3.358511860408254e-09,6.448178293504791e-05,3.358511860408254e-09,6.448488299361334e-05,3.358511860408254e-09,0.002222025555114973,3.358511860408254e-09,0.7547288113379191
3.360531938245468e-09,1.946145214811894,3.360531938245468e-09,6.448143072780245e-05,3.360531938245468e-09,6.448512817945322e-05,3.360531938245468e-09,0.001945227885846762,3.360531938245468e-09,0.7558510768030376
3.362530000409536e-09,2.662646161632428,3.362530000409536e-09,6.447957915530872e-05,3.362530000409536e-09,6.448403495887427e-05,3.362530000409536e-09,0.001701473406012402,3.362530000409536e-09,0.756961111338631
3.363986189963894e-09,3.221290286523902,3.363986189963894e-09,6.447777315601692e-05,3.363986189963894e-09,6.448236679928163e-05,3.363986189963894e-09,0.00153828462902923,3.363986189963894e-09,0.7577701055354966
3.365596957435378e-09,3.763782826119098,3.365596957435378e-09,6.447569255047634e-05,3.365596957435378e-09,6.448064853062415e-05,3.365596957435378e-09,0.001374135115961083,3.365596957435378e-09,0.7586649763529879
