/net039 X,/net039 Y,/net010 X,/net010 Y,/net09 X,/net09 Y,/net08 X,/net08 Y,/net02 X,/net02 Y
0,0.0001140223462809741,0,0.000114022346280994,0,0.0001140223462812578,0,8.78557636526828e-05,0,0
1.5e-11,0.0001140223462809912,1.5e-11,0.0001140223462810169,1.5e-11,0.0001140223462809225,1.5e-11,8.785576365261809e-05,1.5e-11,0
4.5e-11,0.0001140223462810493,4.5e-11,0.0001140223462810717,4.5e-11,0.0001140223462809462,4.5e-11,8.785576365256095e-05,4.5e-11,0
1.05e-10,0.0001140223462795675,1.05e-10,0.0001140223462796322,1.05e-10,0.0001140223462797709,1.05e-10,8.785576365257301e-05,1.05e-10,0
2.25e-10,0.0001140223462823878,2.25e-10,0.0001140223462819446,2.25e-10,0.0001140223462790987,2.25e-10,8.785576365279618e-05,2.25e-10,0
4.65e-10,0.000114022346276315,4.65e-10,0.0001140223462831901,4.65e-10,0.0001140223462861738,4.65e-10,8.785576365251154e-05,4.65e-10,0
7.649999999999999e-10,0.0001140223462825637,7.649999999999999e-10,0.0001140223462783059,7.649999999999999e-10,0.0001140223462760403,7.649999999999999e-10,8.785576365287063e-05,7.649999999999999e-10,0
1.065e-09,0.0001140223462824198,1.065e-09,0.0001140223462865397,1.065e-09,0.0001140223462860208,1.065e-09,8.785576365248929e-05,1.065e-09,0
1.365e-09,0.0001140223462793718,1.365e-09,0.0001140223462752511,1.365e-09,0.0001140223462730982,1.365e-09,8.785576365271336e-05,1.365e-09,0
1.665e-09,0.0001140223462824289,1.665e-09,0.0001140223462867195,1.665e-09,0.0001140223462921426,1.665e-09,8.785576365249824e-05,1.665e-09,0
1.8325e-09,0.0001140223462798767,1.8325e-09,0.0001140223462717856,1.8325e-09,0.0001140223462672125,1.8325e-09,8.785576365278899e-05,1.8325e-09,0
2e-09,0.0001140223462822667,2e-09,0.0001140223462899632,2e-09,0.0001140223462915019,2e-09,8.785576365264832e-05,2e-09,0
2.120144127384571e-09,0.0001140223462809147,2.120144127384571e-09,0.0001140223462808699,2.120144127384571e-09,0.0001140223462811994,2.120144127384571e-09,8.785576365095957e-05,2.120144127384571e-09,0.06674673743587282
2.261585129605973e-09,0.000114022346282385,2.261585129605973e-09,0.0001140223462823646,2.261585129605973e-09,0.0001140223462795084,2.261585129605973e-09,8.78557636454607e-05,2.261585129605973e-09,0.1453250720033182
2.400273538304042e-09,0.0001140223462796192,2.400273538304042e-09,0.0001140223462794845,2.400273538304042e-09,0.0001140223462825299,2.400273538304042e-09,8.785576372990449e-05,2.400273538304042e-09,0.2223741879466899
2.454423508581834e-09,0.0001140223462825603,2.454423508581834e-09,0.0001140223462822297,2.454423508581834e-09,0.0001140223462791536,2.454423508581834e-09,8.785576306302644e-05,2.454423508581834e-09,0.2524575047676857
2.481498493720731e-09,0.0001140223462822528,2.481498493720731e-09,0.000114022346279972,2.481498493720731e-09,0.0001140223462880744,2.481498493720731e-09,8.785576570127099e-05,2.481498493720731e-09,0.2674991631781836
2.535648463998523e-09,0.0001140223462800391,2.535648463998523e-09,0.0001140223462820647,2.535648463998523e-09,0.0001140223462696762,2.535648463998523e-09,8.785576110753474e-05,2.535648463998523e-09,0.2975824799991794
2.558572184190823e-09,0.0001140223462816895,2.558572184190823e-09,0.0001140223462800038,2.558572184190823e-09,0.0001140223463041039,2.558572184190823e-09,8.785576578027513e-05,2.558572184190823e-09,0.3103178801060129
2.570034044286973e-09,0.0001140223462831012,2.570034044286973e-09,0.0001140223462815242,2.570034044286973e-09,0.0001140223462677468,2.570034044286973e-09,8.785576473621059e-05,2.570034044286973e-09,0.3166855801594296
2.592957764479274e-09,0.0001140223462789694,2.592957764479274e-09,0.0001140223462806017,2.592957764479274e-09,0.0001140223462780244,2.592957764479274e-09,8.785576139915204e-05,2.592957764479274e-09,0.3294209802662631
2.616028604155459e-09,0.0001140223462799546,2.616028604155459e-09,0.0001140223462787373,2.616028604155459e-09,0.0001140223462979957,2.616028604155459e-09,8.785576615237469e-05,2.616028604155459e-09,0.3422381134196991
2.639085148568747e-09,0.0001140223462844058,2.639085148568747e-09,0.0001140223462827962,2.639085148568747e-09,0.0001140223462550389,2.639085148568747e-09,8.78557614277425e-05,2.639085148568747e-09,0.3550473047604148
2.650613420775391e-09,0.0001140223462818515,2.650613420775391e-09,0.0001140223462820519,2.650613420775391e-09,0.0001140223463075361,2.650613420775391e-09,8.785576496174176e-05,2.650613420775391e-09,0.3614519004307725
2.67316603788256e-09,0.0001140223462807178,2.67316603788256e-09,0.0001140223462771766,2.67316603788256e-09,0.0001140223462600333,2.67316603788256e-09,8.785576278578465e-05,2.67316603788256e-09,0.3739811321569779
2.692461704768871e-09,0.0001140223462811769,2.692461704768871e-09,0.0001140223462809836,2.692461704768871e-09,0.0001140223462955993,2.692461704768871e-09,8.78557641268588e-05,2.692461704768871e-09,0.3847009470938169
2.717090083698949e-09,0.0001140223462806061,2.717090083698949e-09,0.0001140223462801584,2.717090083698949e-09,0.0001140223462688745,2.717090083698949e-09,8.785576340378865e-05,2.717090083698949e-09,0.3983833798327495
2.753304183251555e-09,0.0001140223462781635,2.753304183251555e-09,0.0001140223462816182,2.753304183251555e-09,0.0001140223462916497,2.753304183251555e-09,8.7855763781991e-05,2.753304183251555e-09,0.4185023240286417
2.785991582993966e-09,0.0001140223462865322,2.785991582993966e-09,0.0001140223462806348,2.785991582993966e-09,0.0001140223462721999,2.785991582993966e-09,8.785576362866718e-05,2.785991582993966e-09,0.4366619905522033
2.816153384826894e-09,0.0001140223462790065,2.816153384826894e-09,0.0001140223462809636,2.816153384826894e-09,0.0001140223462880874,2.816153384826894e-09,8.785576358842032e-05,2.816153384826894e-09,0.453418547126052
2.846407070892944e-09,0.0001140223462827854,2.846407070892944e-09,0.0001140223462805885,2.846407070892944e-09,0.0001140223462761965,2.846407070892944e-09,8.785576378274161e-05,2.846407070892944e-09,0.4702261504960801
2.86153391392597e-09,0.0001140223462826024,2.86153391392597e-09,0.0001140223462810011,2.86153391392597e-09,0.0001140223462805968,2.86153391392597e-09,8.785576343632591e-05,2.86153391392597e-09,0.4786299521810942
2.88979420104858e-09,0.0001140223462796507,2.88979420104858e-09,0.0001140223462808755,2.88979420104858e-09,0.0001140223462821,2.88979420104858e-09,8.785576389518275e-05,2.88979420104858e-09,0.4943301116936554
2.914498169435494e-09,0.0001140223462820318,2.914498169435494e-09,0.0001140223462808242,2.914498169435494e-09,0.0001140223462794441,2.914498169435494e-09,8.785576339051015e-05,2.914498169435494e-09,0.5080545385752746
2.963906106209323e-09,0.0001140223462830765,2.963906106209323e-09,0.0001140223462839626,2.963906106209323e-09,0.0001140223462828321,2.963906106209323e-09,8.785576392093757e-05,2.963906106209323e-09,0.535503392338513
3.007722909657817e-09,0.0001140223462791151,3.007722909657817e-09,0.0001140223462785358,3.007722909657817e-09,0.000114022346278815,3.007722909657817e-09,8.785576337908985e-05,3.007722909657817e-09,0.5598460609210096
3.051381916443824e-09,0.0001140223462823516,3.051381916443824e-09,0.0001140223462834698,3.051381916443824e-09,0.0001140223462834943,3.051381916443824e-09,8.785576393007307e-05,3.051381916443824e-09,0.5841010646910131
3.062130087704808e-09,0.0001140223462803414,3.062130087704808e-09,0.0001140223462820953,3.062130087704808e-09,0.0001140223462808901,3.062130087704808e-09,8.785576337314878e-05,3.062130087704808e-09,0.5900722709471153
3.083626430226776e-09,0.000114022346281782,3.083626430226776e-09,0.0001140223462797172,3.083626430226776e-09,0.0001140223462847468,3.083626430226776e-09,8.785576392596162e-05,3.083626430226776e-09,0.6020146834593199
3.091474596043956e-09,0.000114022346280907,3.091474596043956e-09,0.0001140223462817362,3.091474596043956e-09,0.0001140223462751913,3.091474596043956e-09,8.785576340209443e-05,3.091474596043956e-09,0.6063747755799755
3.107170927678316e-09,0.0001140223462815722,3.107170927678316e-09,0.0001140223462829053,3.107170927678316e-09,0.0001140223462843846,3.107170927678316e-09,8.785576388780664e-05,3.107170927678316e-09,0.6150949598212867
3.111756493950227e-09,0.0001140223462807698,3.111756493950227e-09,0.000114022346280666,3.111756493950227e-09,0.0001140223462787714,3.111756493950227e-09,8.785576342883884e-05,3.111756493950227e-09,0.6176424966390149
3.120927626494049e-09,0.0001140223462813066,3.120927626494049e-09,0.0001140223462812996,3.120927626494049e-09,0.0001140223462819275,3.120927626494049e-09,8.785576382898306e-05,3.120927626494049e-09,0.6227375702744714
3.130106404999561e-09,0.0001140223462807219,3.130106404999561e-09,0.0001140223462806839,3.130106404999561e-09,0.0001140223462867128,3.130106404999561e-09,8.785576363382451e-05,3.130106404999561e-09,0.6278368916664226
3.139257315434486e-09,0.0001140223462814746,3.139257315434486e-09,0.0001140223462809355,3.139257315434486e-09,0.0001140223462804822,3.139257315434486e-09,8.785576386637967e-05,3.139257315434486e-09,0.6329207307969368
3.149254464671973e-09,0.000114022346280496,3.149254464671973e-09,0.0001140223462833566,3.149254464671973e-09,0.000114022346279994,3.149254464671973e-09,8.785576361369656e-05,3.149254464671973e-09,0.6384747025955406
3.152724849350319e-09,0.0001140223462826613,3.152724849350319e-09,0.0001140223462814422,3.152724849350319e-09,0.000114022346358881,3.152724849350319e-09,8.785576534098073e-05,3.152724849350319e-09,0.6404026940835105
3.15966561870701e-09,0.0001140223462705493,3.15966561870701e-09,0.0001140223462811169,3.15966561870701e-09,0.0001140223459548983,3.15966561870701e-09,8.785575647498627e-05,3.15966561870701e-09,0.6442586770594499
3.169006343218058e-09,0.000114022346247884,3.169006343218058e-09,0.0001140223462803669,3.169006343218058e-09,0.0001140223445902544,3.169006343218058e-09,8.785569642007558e-05,3.169006343218058e-09,0.6494479684544768
3.178154317281779e-09,0.0001140223465014801,3.178154317281779e-09,0.0001140223462846525,3.178154317281779e-09,0.0001140223535360394,3.178154317281779e-09,8.785591795602108e-05,3.178154317281779e-09,0.6545301762676552
3.187733336514818e-09,0.000114022347711942,3.187733336514818e-09,0.0001140223462909774,3.187733336514818e-09,0.0001140224105313924,3.187733336514818e-09,8.78581898834186e-05,3.187733336514818e-09,0.6598518536193433
3.196845057676855e-09,0.0001140223411236863,3.196845057676855e-09,0.0001140223461800119,3.196845057676855e-09,0.0001140220164859815,3.196845057676855e-09,8.784814927984455e-05,3.196845057676855e-09,0.6649139209315863
3.199208412246676e-09,0.0001140223346517511,3.199208412246676e-09,0.0001140223458986031,3.199208412246676e-09,0.0001140212573234293,3.199208412246676e-09,8.783196711292062e-05,3.199208412246676e-09,0.6662268956925976
3.203935121386316e-09,0.0001140223418388152,3.203935121386316e-09,0.0001140223462438923,3.203935121386316e-09,0.0001140194450709666,3.203935121386316e-09,8.776802163170526e-05,3.203935121386316e-09,0.6688528452146202
3.209210701156711e-09,0.0001140223304351184,3.209210701156711e-09,0.0001140223477671463,3.209210701156711e-09,0.0001140238172956475,3.209210701156711e-09,8.779837234467036e-05,3.209210701156711e-09,0.6717837228648393
3.214646797498699e-09,0.0001140223833831894,3.214646797498699e-09,0.0001140223470610497,3.214646797498699e-09,0.0001140322756603333,3.214646797498699e-09,8.803380262980951e-05,3.214646797498699e-09,0.674803776388166
3.219912757284205e-09,0.000114022442813889,3.219912757284205e-09,0.000114022341909674,3.219912757284205e-09,0.0001140210702891402,3.219912757284205e-09,8.801224810474746e-05,3.219912757284205e-09,0.6777293096023361
3.228703344124975e-09,0.0001140223090245587,3.228703344124975e-09,0.0001140223488311336,3.228703344124975e-09,0.0001140149679333024,3.228703344124975e-09,8.777087614944852e-05,3.228703344124975e-09,0.6826129689583194
3.235969526116324e-09,0.0001140222930646725,3.235969526116324e-09,0.0001140223477022358,3.235969526116324e-09,0.000114023939922925,3.235969526116324e-09,8.778756856601953e-05,3.235969526116324e-09,0.6866497367312913
3.244853724020817e-09,0.0001140223313808589,3.244853724020817e-09,0.0001140223442825434,3.244853724020817e-09,0.0001140234458592957,3.244853724020817e-09,8.783232392498961e-05,3.244853724020817e-09,0.6915854022337869
3.25202390269382e-09,0.000114022154400185,3.25202390269382e-09,0.000114022346465993,3.25202390269382e-09,0.0001140233333450561,3.25202390269382e-09,8.786080120362691e-05,3.25202390269382e-09,0.6955688348299
3.259566116648987e-09,0.0001140221340320579,3.259566116648987e-09,0.000114022345612404,3.259566116648987e-09,0.0001140218076919045,3.259566116648987e-09,8.783652672727781e-05,3.259566116648987e-09,0.6997589536938817
3.265969010717254e-09,0.0001140215915745444,3.265969010717254e-09,0.0001140223444580059,3.265969010717254e-09,0.0001140198539030166,3.265969010717254e-09,8.774811413152894e-05,3.265969010717254e-09,0.7033161170651409
3.271616111684395e-09,0.0001140154625984232,3.271616111684395e-09,0.0001140223155681733,3.271616111684395e-09,0.0001140172490390542,3.271616111684395e-09,8.744809579323755e-05,3.271616111684395e-09,0.7064533953802192
3.275851262459285e-09,0.0001139957440909281,3.275851262459285e-09,0.0001140222339216409,3.275851262459285e-09,0.0001140211318736513,3.275851262459285e-09,8.687365475230589e-05,3.275851262459285e-09,0.708806256921825
3.280032295720638e-09,0.0001140029715417093,3.280032295720638e-09,0.000114022410090783,3.280032295720638e-09,0.0001140303896188683,3.280032295720638e-09,8.667136747725675e-05,3.280032295720638e-09,0.7111290531781324
3.283695063577862e-09,0.0001142659961697168,3.283695063577862e-09,0.0001140240901119477,3.283695063577862e-09,0.0001140379099348263,3.283695063577862e-09,9.182924648152138e-05,3.283695063577862e-09,0.7131639242099233
3.287326650218493e-09,0.0001150773198256838,3.287326650218493e-09,0.0001140274907335422,3.287326650218493e-09,0.0001140380747798517,3.287326650218493e-09,0.0001115628352247732,3.287326650218493e-09,0.7151814723436071
3.290922101925328e-09,0.0001153413648557745,3.290922101925328e-09,0.0001140233636684138,3.290922101925328e-09,0.000114033002246172,3.290922101925328e-09,0.0001288048012817438,3.290922101925328e-09,0.7171789455140711
3.293496962036004e-09,0.0001144205804979076,3.293496962036004e-09,0.0001140142010750019,3.293496962036004e-09,0.0001140314747861246,3.293496962036004e-09,0.0001028063600809135,3.293496962036004e-09,0.7186094233533356
3.296049521906684e-09,0.0001133911411181758,3.296049521906684e-09,0.0001140120899862207,3.296049521906684e-09,0.000114021394353668,3.296049521906684e-09,-1.476692019964674e-05,3.296049521906684e-09,0.72002751217038
3.299123024889965e-09,0.0001119522745880133,3.299123024889965e-09,0.0001140192033518049,3.299123024889965e-09,0.0001139946226977421,3.299123024889965e-09,-0.0004239831835519031,3.299123024889965e-09,0.7217350138277583
3.302709405716038e-09,0.0001044578551304641,3.302709405716038e-09,0.0001140341344736835,3.302709405716038e-09,0.0001139923879516573,3.302709405716038e-09,-0.001021914548775728,3.302709405716038e-09,0.7237274476200211
3.306304875874339e-09,9.734281579272247e-05,3.306304875874339e-09,0.000114040185907098,3.306304875874339e-09,0.0001140157289810642,3.306304875874339e-09,-0.001054076590153532,3.306304875874339e-09,0.7257249310412996
3.3091821919077e-09,0.0001001126740980861,3.3091821919077e-09,0.0001140174665690519,3.3091821919077e-09,0.0001140188633924747,3.3091821919077e-09,-0.0007492156486842759,3.3091821919077e-09,0.7273234399487223
3.311923298707652e-09,0.0001128884833875191,3.311923298707652e-09,0.0001140121140831001,3.311923298707652e-09,0.0001140166479078742,3.311923298707652e-09,-0.0003996556101567395,3.311923298707652e-09,0.7288462770598068
3.314916311296215e-09,0.0001425140320605884,3.314916311296215e-09,0.00011402267414301,3.314916311296215e-09,0.0001140166657598542,3.314916311296215e-09,-0.0001555176471994796,3.314916311296215e-09,0.7305090618312308
3.317556573101355e-09,0.0001856813691301045,3.317556573101355e-09,0.0001140436101450898,3.317556573101355e-09,0.0001140165657355221,3.317556573101355e-09,-0.0002834707187681759,3.317556573101355e-09,0.7319758739451974
3.320061567960652e-09,0.0002568571064061387,3.320061567960652e-09,0.0001140555002156821,3.320061567960652e-09,0.0001140218081473631,3.320061567960652e-09,-0.0008042626934428146,3.320061567960652e-09,0.7333675377559178
3.322993773542786e-09,0.000403592227202777,3.322993773542786e-09,0.0001140371291120755,3.322993773542786e-09,0.0001140308933940048,3.322993773542786e-09,-0.001769053959016358,3.322993773542786e-09,0.7349965408571031
3.326090338755862e-09,0.0001101635262557933,3.326090338755862e-09,0.0001139992491017309,3.326090338755862e-09,0.0001140428021326769,3.326090338755862e-09,-0.002732443744931325,3.326090338755862e-09,0.736716854864368
3.328973043192782e-09,-0.00387677578129601,3.328973043192782e-09,0.0001139663679229652,3.328973043192782e-09,0.0001140431790553353,3.328973043192782e-09,-0.003337403082370089,3.328973043192782e-09,0.7383183573293234
3.331956658753236e-09,-0.01105291388407524,3.331956658753236e-09,0.0001139512682064674,3.331956658753236e-09,0.0001140388497907021,3.331956658753236e-09,-0.003482394218004913,3.331956658753236e-09,0.7399759215295755
3.334922425639517e-09,-0.006176472783538946,3.334922425639517e-09,0.0001139666809403207,3.334922425639517e-09,0.0001140335124293811,3.334922425639517e-09,-0.002997690489193745,3.334922425639517e-09,0.7416235697997318
3.337686460015107e-09,0.03759847340554422,3.337686460015107e-09,0.0001140018733877199,3.337686460015107e-09,0.0001140218712977696,3.337686460015107e-09,-0.002173616746924971,3.337686460015107e-09,0.7431591444528375
3.340169860184718e-09,0.1199062997078682,3.340169860184718e-09,0.0001140312330868978,3.340169860184718e-09,0.0001140085979425605,3.340169860184718e-09,-0.001512681515671949,3.340169860184718e-09,0.7445388112137322
3.342381036326341e-09,0.2142495252400508,3.342381036326341e-09,0.0001140653862509353,3.342381036326341e-09,0.000114013506284319,3.342381036326341e-09,-0.0008005016475418774,3.342381036326341e-09,0.7457672424035228
3.345015619929538e-09,0.3401242795397075,3.345015619929538e-09,0.0001140850709235293,3.345015619929538e-09,0.000114021258343951,3.345015619929538e-09,0.0003336491069836067,3.345015619929538e-09,0.7472308999608547
3.347970739369427e-09,0.4905045201199447,3.347970739369427e-09,0.0001140677778679484,3.347970739369427e-09,0.0001140126096317365,3.347970739369427e-09,0.001533076578269763,3.347970739369427e-09,0.748872632983015
3.35071036663664e-09,0.6229205947801383,3.35071036663664e-09,0.000114045999714739,3.35071036663664e-09,0.000114010980200689,3.35071036663664e-09,0.002393926697547325,3.35071036663664e-09,0.7503946481314667
3.353632699856088e-09,0.7364460847922804,3.353632699856088e-09,0.0001140303231898987,3.353632699856088e-09,0.0001140117529639295,3.353632699856088e-09,0.002888357394138675,3.353632699856088e-09,0.7520181665867155
3.3562290065098e-09,0.805656297999426,3.3562290065098e-09,0.0001140249551414343,3.3562290065098e-09,0.0001140175176934631,3.3562290065098e-09,0.002994004550393232,3.3562290065098e-09,0.7534605591721112
3.358915493377753e-09,0.8693413621956373,3.358915493377753e-09,0.0001140262099005347,3.358915493377753e-09,0.0001140239735526338,3.358915493377753e-09,0.002870110919575775,3.358915493377753e-09,0.7549530518765292
3.36189634310358e-09,1.017025476413356,3.36189634310358e-09,0.0001140258025831683,3.36189634310358e-09,0.0001140281056748932,3.36189634310358e-09,0.002557423950689467,3.36189634310358e-09,0.7566090795019889
3.36456341537481e-09,1.359450104077379,3.36456341537481e-09,0.0001140262653681922,3.36456341537481e-09,0.0001140296160870132,3.36456341537481e-09,0.002204832417304315,3.36456341537481e-09,0.7580907863193388
3.366680874148244e-09,1.877681470918034,3.366680874148244e-09,0.0001140248597445624,3.366680874148244e-09,0.0001140297230681113,3.366680874148244e-09,0.001934034820463779,3.366680874148244e-09,0.7592671523045802
