/net039 X,/net039 Y,/net010 X,/net010 Y,/net09 X,/net09 Y,/net08 X,/net08 Y,/net02 X,/net02 Y
0,0.0001815069223686183,0,0.0001815069223685732,0,0.0001815069223515222,0,0.0001254218178693221,0,0
1.5e-11,0.0001815069223684806,1.5e-11,0.0001815069223685979,1.5e-11,0.0001815069223516482,1.5e-11,0.0001254218178691027,1.5e-11,0
4.5e-11,0.0001815069223684789,4.5e-11,0.0001815069223684455,4.5e-11,0.0001815069223516309,4.5e-11,0.0001254218178690304,4.5e-11,0
1.05e-10,0.0001815069223680173,1.05e-10,0.0001815069223678691,1.05e-10,0.000181506922353483,1.05e-10,0.0001254218178690342,1.05e-10,0
2.25e-10,0.0001815069223679965,2.25e-10,0.0001815069223677145,2.25e-10,0.0001815069223499873,2.25e-10,0.0001254218178692761,2.25e-10,0
4.65e-10,0.0001815069223679024,4.65e-10,0.000181506922368018,4.65e-10,0.0001815069223540595,4.65e-10,0.0001254218178686316,4.65e-10,0
7.649999999999999e-10,0.0001815069223680226,7.649999999999999e-10,0.0001815069223675376,7.649999999999999e-10,0.0001815069223498564,7.649999999999999e-10,0.0001254218178695454,7.649999999999999e-10,0
1.065e-09,0.0001815069223678105,1.065e-09,0.0001815069223682497,1.065e-09,0.000181506922353778,1.065e-09,0.0001254218178687679,1.065e-09,0
1.365e-09,0.000181506922370986,1.365e-09,0.0001815069223704848,1.365e-09,0.0001815069223467151,1.365e-09,0.0001254218178694605,1.365e-09,0
1.665e-09,0.0001815069223648214,1.665e-09,0.0001815069223653377,1.665e-09,0.000181506922353788,1.665e-09,0.0001254218178687742,1.665e-09,0
1.8325e-09,0.0001815069223709393,1.8325e-09,0.000181506922373302,1.8325e-09,0.0001815069223500446,1.8325e-09,0.0001254218178694315,1.8325e-09,0
2e-09,0.0001815069223682403,2e-09,0.0001815069223623843,2e-09,0.0001815069223537738,2e-09,0.0001254218178689722,2e-09,0
2.120144127384571e-09,0.0001815069223685579,2.120144127384571e-09,0.0001815069223685327,2.120144127384571e-09,0.0001815069223517714,2.120144127384571e-09,0.0001254218178664032,2.120144127384571e-09,0.06674673743587282
2.261585129605973e-09,0.0001815069223681207,2.261585129605973e-09,0.0001815069223711108,2.261585129605973e-09,0.0001815069223532414,2.261585129605973e-09,0.0001254218178893451,2.261585129605973e-09,0.1453250720033182
2.400273538304042e-09,0.0001815069223742371,2.400273538304042e-09,0.0001815069223677689,2.400273538304042e-09,0.0001815069223504912,2.400273538304042e-09,0.0001254218178791493,2.400273538304042e-09,0.2223741879466899
2.453665995810044e-09,0.0001815069223651162,2.453665995810044e-09,0.0001815069223679517,2.453665995810044e-09,0.0001815069223527712,2.453665995810044e-09,0.0001254218174310093,2.453665995810044e-09,0.2520366643389134
2.480362224563045e-09,0.0001815069223706596,2.480362224563045e-09,0.0001815069223677587,2.480362224563045e-09,0.0001815069223520852,2.480362224563045e-09,0.0001254218196447554,2.480362224563045e-09,0.2668679025350251
2.533754682069048e-09,0.0001815069223652882,2.533754682069048e-09,0.0001815069223679699,2.533754682069048e-09,0.0001815069223509164,2.533754682069048e-09,0.0001254218156666465,2.533754682069048e-09,0.2965303789272486
2.556116733033083e-09,0.0001815069223699332,2.556116733033083e-09,0.0001815069223707807,2.556116733033083e-09,0.0001815069223614706,2.556116733033083e-09,0.0001254218194123701,2.556116733033083e-09,0.3089537405739349
2.582918948973956e-09,0.0001815069223690406,2.582918948973956e-09,0.000181506922371118,2.582918948973956e-09,0.0001815069223410222,2.582918948973956e-09,0.0001254218179430415,2.582918948973956e-09,0.3238438605410865
2.613645314401079e-09,0.0001815069223698627,2.613645314401079e-09,0.0001815069223652206,2.613645314401079e-09,0.0001815069223549689,2.613645314401079e-09,0.0001254218164625755,2.613645314401079e-09,0.3409140635561547
2.638247845256298e-09,0.0001815069223690058,2.638247845256298e-09,0.0001815069223698466,2.638247845256298e-09,0.0001815069223607326,2.638247845256298e-09,0.000125421820264488,2.638247845256298e-09,0.3545821362534991
2.650549110683908e-09,0.0001815069223696785,2.650549110683908e-09,0.0001815069223666418,2.650549110683908e-09,0.0001815069223205864,2.650549110683908e-09,0.0001254218153226958,2.650549110683908e-09,0.3614161726021713
2.673636544101745e-09,0.0001815069223637931,2.673636544101745e-09,0.0001815069223692258,2.673636544101745e-09,0.0001815069223872764,2.673636544101745e-09,0.0001254218198956559,2.673636544101745e-09,0.3742425245009695
2.69429470521833e-09,0.000181506922371155,2.69429470521833e-09,0.0001815069223666493,2.69429470521833e-09,0.0001815069223216257,2.69429470521833e-09,0.0001254218164711474,2.69429470521833e-09,0.38571928067685
2.721243057533222e-09,0.0001815069223645195,2.721243057533222e-09,0.0001815069223714682,2.721243057533222e-09,0.0001815069223769599,2.721243057533222e-09,0.0001254218188387356,2.721243057533222e-09,0.4006905875184567
2.751160483708193e-09,0.0001815069223737734,2.751160483708193e-09,0.0001815069223643358,2.751160483708193e-09,0.000181506922335335,2.751160483708193e-09,0.0001254218172195624,2.751160483708193e-09,0.4173113798378848
2.784434996002044e-09,0.0001815069223629275,2.784434996002044e-09,0.0001815069223742109,2.784434996002044e-09,0.0001815069223664744,2.784434996002044e-09,0.0001254218182811276,2.784434996002044e-09,0.4357972200011357
2.81465463082061e-09,0.0001815069223725245,2.81465463082061e-09,0.0001815069223625125,2.81465463082061e-09,0.0001815069223425869,2.81465463082061e-09,0.0001254218176665431,2.81465463082061e-09,0.45258590601145
2.846118039506971e-09,0.0001815069223664996,2.846118039506971e-09,0.0001815069223696677,2.846118039506971e-09,0.0001815069223593111,2.846118039506971e-09,0.0001254218179128607,2.846118039506971e-09,0.4700655775038727
2.861849743850152e-09,0.0001815069223718902,2.861849743850152e-09,0.000181506922366428,2.861849743850152e-09,0.0001815069223510547,2.861849743850152e-09,0.0001254218180451902,2.861849743850152e-09,0.4788054132500841
2.890669446704737e-09,0.0001815069223697829,2.890669446704737e-09,0.0001815069223693508,2.890669446704737e-09,0.0001815069223490697,2.890669446704737e-09,0.0001254218176157997,2.890669446704737e-09,0.4948163592804095
2.91560465729181e-09,0.0001815069223666176,2.91560465729181e-09,0.0001815069223664004,2.91560465729181e-09,0.0001815069223527468,2.91560465729181e-09,0.0001254218181845796,2.91560465729181e-09,0.5086692540510056
2.965475078465956e-09,0.0001815069223720458,2.965475078465956e-09,0.0001815069223723196,2.965475078465956e-09,0.0001815069223474096,2.965475078465956e-09,0.000125421817530413,2.965475078465956e-09,0.5363750435921977
3.010833223249341e-09,0.0001815069223645052,3.010833223249341e-09,0.0001815069223639372,3.010833223249341e-09,0.0001815069223564891,3.010833223249341e-09,0.0001254218182265246,3.010833223249341e-09,0.5615740129163003
3.053891726302799e-09,0.0001815069223709579,3.053891726302799e-09,0.0001815069223715661,3.053891726302799e-09,0.0001815069223441431,3.053891726302799e-09,0.0001254218174952875,3.053891726302799e-09,0.5854954035015547
3.064612753967312e-09,0.0001815069223687053,3.064612753967312e-09,0.0001815069223630126,3.064612753967312e-09,0.0001815069223587887,3.064612753967312e-09,0.000125421818272518,3.064612753967312e-09,0.5914515299818401
3.08605480929634e-09,0.0001815069223671086,3.08605480929634e-09,0.0001815069223757169,3.08605480929634e-09,0.0001815069223416458,3.08605480929634e-09,0.0001254218174643357,3.08605480929634e-09,0.6033637829424111
3.09291548791591e-09,0.0001815069223684805,3.09291548791591e-09,0.0001815069223647006,3.09291548791591e-09,0.0001815069223592596,3.09291548791591e-09,0.0001254218182494062,3.09291548791591e-09,0.6071752710643944
3.106636845155049e-09,0.0001815069223670594,3.106636845155049e-09,0.0001815069223696112,3.106636845155049e-09,0.000181506922345746,3.106636845155049e-09,0.000125421817505674,3.106636845155049e-09,0.6147982473083609
3.120642384070834e-09,0.0001815069223660732,3.120642384070834e-09,0.0001815069223685483,3.120642384070834e-09,0.0001815069223580988,3.120642384070834e-09,0.0001254218182057756,3.120642384070834e-09,0.6225791022615742
3.124150448506004e-09,0.0001815069223694163,3.124150448506004e-09,0.0001815069223695587,3.124150448506004e-09,0.0001815069223502416,3.124150448506004e-09,0.0001254218177083705,3.124150448506004e-09,0.6245280269477801
3.131166577376345e-09,0.0001815069223665254,3.131166577376345e-09,0.0001815069223677842,3.131166577376345e-09,0.0001815069223558071,3.131166577376345e-09,0.0001254218182398951,3.131166577376345e-09,0.6284258763201919
3.140236499218398e-09,0.0001815069223688714,3.140236499218398e-09,0.0001815069223684217,3.140236499218398e-09,0.000181506922339734,3.140236499218398e-09,0.0001254218174726731,3.140236499218398e-09,0.6334647217879991
3.152665795606796e-09,0.0001815069223696388,3.152665795606796e-09,0.0001815069223675724,3.152665795606796e-09,0.0001815069223657758,3.152665795606796e-09,0.0001254218180640034,3.152665795606796e-09,0.64036988644822
3.163903834531362e-09,0.0001815069223572278,3.163903834531362e-09,0.0001815069223703997,3.163903834531362e-09,0.0001815069217416253,3.163903834531362e-09,0.0001254217931456929,3.163903834531362e-09,0.646613241406312
3.167299663858947e-09,0.0001815069222706659,3.167299663858947e-09,0.0001815069223653121,3.167299663858947e-09,0.0001815069190009866,3.167299663858947e-09,0.0001254217270884492,3.167299663858947e-09,0.6484998132549705
3.174091322514118e-09,0.0001815069226696536,3.174091322514118e-09,0.0001815069223747534,3.174091322514118e-09,0.0001815069307308921,3.174091322514118e-09,0.0001254219480876993,3.174091322514118e-09,0.6522729569522876
3.182759926924657e-09,0.0001815069230607542,3.182759926924657e-09,0.0001815069223678273,3.182759926924657e-09,0.0001815069592466262,3.182759926924657e-09,0.0001254232822738739,3.182759926924657e-09,0.6570888482914762
3.192084542198548e-09,0.0001815069207936996,3.192084542198548e-09,0.0001815069223335487,3.192084542198548e-09,0.0001815068406200349,3.192084542198548e-09,0.0001254209512255528,3.192084542198548e-09,0.6622691901103046
3.200495392750256e-09,0.000181506915464912,3.200495392750256e-09,0.0001815069222510671,3.200495392750256e-09,0.0001815057559767962,3.200495392750256e-09,0.0001253822576133508,3.200495392750256e-09,0.6669418848612532
3.208760571245744e-09,0.0001815069189821991,3.208760571245744e-09,0.0001815069228284887,3.208760571245744e-09,0.000181507079607661,3.208760571245744e-09,0.0001253737878307506,3.208760571245744e-09,0.6715336506920798
3.216633713169296e-09,0.0001815069631152437,3.216633713169296e-09,0.0001815069229888166,3.216633713169296e-09,0.0001815139574749827,3.216633713169296e-09,0.0001255882956092839,3.216633713169296e-09,0.6759076184273866
3.223388803168029e-09,0.000181506973855465,3.223388803168029e-09,0.0001815069190295461,3.223388803168029e-09,0.0001815022307719971,3.223388803168029e-09,0.0001254984636912538,3.223388803168029e-09,0.6796604462044608
3.22562733950924e-09,0.0001815069428491395,3.22562733950924e-09,0.0001815069218091886,3.22562733950924e-09,0.0001814995591979787,3.22562733950924e-09,0.0001254014130155898,3.22562733950924e-09,0.6809040775051335
3.230104412191662e-09,0.0001815068603126886,3.230104412191662e-09,0.0001815069253497789,3.230104412191662e-09,0.0001815039540558836,3.230104412191662e-09,0.0001253507238369752,3.230104412191662e-09,0.6833913401064788
3.238802488807495e-09,0.0001815068772619531,3.238802488807495e-09,0.0001815069212017068,3.238802488807495e-09,0.0001815083129851923,3.238802488807495e-09,0.0001253665613722181,3.238802488807495e-09,0.6882236048930529
3.247138561961047e-09,0.0001815068551696316,3.247138561961047e-09,0.0001815069223171036,3.247138561961047e-09,0.000181508245277628,3.247138561961047e-09,0.0001254138435256239,3.247138561961047e-09,0.6928547566450263
3.254519577716647e-09,0.0001815067971496264,3.254519577716647e-09,0.0001815069216251652,3.254519577716647e-09,0.0001815071574232477,3.254519577716647e-09,0.0001254198710434661,3.254519577716647e-09,0.6969553209536926
3.262061942160116e-09,0.0001815067418992844,3.262061942160116e-09,0.0001815069227683369,3.262061942160116e-09,0.0001815067505167179,3.262061942160116e-09,0.0001254046755042033,3.262061942160116e-09,0.7011455234222864
3.268299971818979e-09,0.0001815060409429203,3.268299971818979e-09,0.0001815069186805069,3.268299971818979e-09,0.000181504106229188,3.268299971818979e-09,0.0001253022996428483,3.268299971818979e-09,0.7046110954549885
3.273873607650999e-09,0.0001815006960064634,3.273873607650999e-09,0.0001815068968220185,3.273873607650999e-09,0.000181502910405495,3.273873607650999e-09,0.0001250283037915771,3.273873607650999e-09,0.7077075598061106
3.278148792657478e-09,0.0001814865835810576,3.278148792657478e-09,0.0001815068439628466,3.278148792657478e-09,0.0001815061128558448,3.278148792657478e-09,0.0001245600557280568,3.278148792657478e-09,0.7100826625874876
3.282387275505622e-09,0.0001815048906168032,3.282387275505622e-09,0.0001815070471957428,3.282387275505622e-09,0.0001815153801562451,3.282387275505622e-09,0.0001246951057864991,3.282387275505622e-09,0.712437375280901
3.286094926681717e-09,0.000181772090523869,3.286094926681717e-09,0.0001815086511207721,3.286094926681717e-09,0.0001815209822586952,3.286094926681717e-09,0.0001304372648916623,3.286094926681717e-09,0.714497181489843
3.289800195336879e-09,0.0001824725799238206,3.289800195336879e-09,0.0001815112131583781,3.289800195336879e-09,0.0001815208479965284,3.289800195336879e-09,0.0001492179285532052,3.289800195336879e-09,0.7165556640760441
3.293472118171957e-09,0.0001825411829288504,3.293472118171957e-09,0.0001815066440757895,3.293472118171957e-09,0.000181514603923535,3.293472118171957e-09,0.0001605027569612429,3.293472118171957e-09,0.7185956212066428
3.296118551547315e-09,0.0001816371870691736,3.296118551547315e-09,0.0001814991253995013,3.296118551547315e-09,0.0001815127397753703,3.296118551547315e-09,0.0001246089693198979,3.296118551547315e-09,0.7200658619707305
3.298711339861186e-09,0.0001807561709593932,3.298711339861186e-09,0.0001814985871192535,3.298711339861186e-09,0.0001815041735588534,3.298711339861186e-09,-3.20992546878766e-06,3.298711339861186e-09,0.721506299922881
3.301832294143861e-09,0.0001793280293274946,3.301832294143861e-09,0.0001815056979540166,3.301832294143861e-09,0.0001814816399213842,3.301832294143861e-09,-0.0004098992687484309,3.301832294143861e-09,0.7232401634132559
3.305452322150354e-09,0.0001726598926768795,3.305452322150354e-09,0.0001815187730019715,3.305452322150354e-09,0.0001814802711757295,3.305452322150354e-09,-0.0009382781395028247,3.305452322150354e-09,0.7252512900835302
3.309161537608357e-09,0.0001671329885459455,3.309161537608357e-09,0.0001815206553486597,3.309161537608357e-09,0.0001814999553407114,3.309161537608357e-09,-0.0009462105735051371,3.309161537608357e-09,0.727311965337976
3.312113489246037e-09,0.000170892020844602,3.312113489246037e-09,0.0001815000735257233,3.312113489246037e-09,0.0001815030143312607,3.312113489246037e-09,-0.000657601814032029,3.312113489246037e-09,0.7289519384700207
3.31492087990396e-09,0.000184538028761432,3.31492087990396e-09,0.000181496181632249,3.31492087990396e-09,0.0001815028594410988,3.31492087990396e-09,-0.0003264914885243512,3.31492087990396e-09,0.7305115999466444
3.317947678799981e-09,0.000214670605777021,3.317947678799981e-09,0.0001815067783148732,3.317947678799981e-09,0.00018150340852461,3.317947678799981e-09,-9.526890236329373e-05,3.317947678799981e-09,0.732193154888878
3.320699161390558e-09,0.0002560189314823687,3.320699161390558e-09,0.0001815266430216988,3.320699161390558e-09,0.0001815038025473302,3.320699161390558e-09,-0.0002189625647234243,3.320699161390558e-09,0.7337217563280874
3.323254001795398e-09,0.000318488056874454,3.323254001795398e-09,0.0001815368688555509,3.323254001795398e-09,0.0001815081738536095,3.323254001795398e-09,-0.000728296044595501,3.323254001795398e-09,0.7351411121085543
3.326211338471774e-09,0.0004262815702494861,3.326211338471774e-09,0.0001815201004773113,3.326211338471774e-09,0.0001815162195522249,3.326211338471774e-09,-0.001666865454918389,3.326211338471774e-09,0.7367840769287632
3.329428475218743e-09,-1.623076804990734e-05,3.329428475218743e-09,0.000181484872594315,3.329428475218743e-09,0.0001815266287157668,3.329428475218743e-09,-0.002639417749231399,3.329428475218743e-09,0.7385713751215239
3.332364314646392e-09,-0.003908884948527048,3.332364314646392e-09,0.0001814554632948794,3.332364314646392e-09,0.0001815262942174626,3.332364314646392e-09,-0.00323457496328048,3.332364314646392e-09,0.7402023970257731
3.335419042642628e-09,-0.01024995210643209,3.335419042642628e-09,0.0001814421744451586,3.335419042642628e-09,0.000181521258087652,3.335419042642628e-09,-0.003376403060684136,3.335419042642628e-09,0.7418994681347931
3.338486214527844e-09,-0.00228462122843436,3.338486214527844e-09,0.0001814579564411421,3.338486214527844e-09,0.0001815156134651916,3.338486214527844e-09,-0.002883097263187983,3.338486214527844e-09,0.7436034525154687
3.341321306398183e-09,0.04479068255066517,3.341321306398183e-09,0.0001814916686019118,3.341321306398183e-09,0.0001815045285043364,3.341321306398183e-09,-0.00205560194919698,3.341321306398183e-09,0.7451785035545461
3.3438789067506e-09,0.1286473858412016,3.3438789067506e-09,0.000181519378886298,3.3438789067506e-09,0.0001814922206274525,3.3438789067506e-09,-0.001405802992609668,3.3438789067506e-09,0.7465993926392223
3.346141138684352e-09,0.2212849594603605,3.346141138684352e-09,0.0001815505525794819,3.346141138684352e-09,0.0001814978401650625,3.346141138684352e-09,-0.000718091009210045,3.346141138684352e-09,0.7478561881579734
3.348810160361876e-09,0.3430661076776502,3.348810160361876e-09,0.0001815675346516131,3.348810160361876e-09,0.0001815057222406591,3.348810160361876e-09,0.0003754371944373975,3.348810160361876e-09,0.7493389779788201
3.351870170791803e-09,0.4919327857682319,3.351870170791803e-09,0.0001815494428191629,3.351870170791803e-09,0.000181497802690084,3.351870170791803e-09,0.001555988296434562,3.351870170791803e-09,0.7510389837732241
3.354693523329508e-09,0.6227141596208104,3.354693523329508e-09,0.0001815287047062525,3.354693523329508e-09,0.00018149675712401,3.354693523329508e-09,0.002392661417638384,3.354693523329508e-09,0.7526075129608377
3.357672927849972e-09,0.7338041301459177,3.357672927849972e-09,0.0001815141202506416,3.357672927849972e-09,0.0001814981614172137,3.357672927849972e-09,0.002860933000397755,3.357672927849972e-09,0.7542627376944291
3.360332741587943e-09,0.8023476203713478,3.360332741587943e-09,0.0001815094092597706,3.360332741587943e-09,0.000181503839677146,3.360332741587943e-09,0.002957005684123922,3.360332741587943e-09,0.7557404119933018
3.363068010840504e-09,0.8656080233269702,3.363068010840504e-09,0.0001815101786954781,3.363068010840504e-09,0.0001815096842104433,3.363068010840504e-09,0.002831351275840424,3.363068010840504e-09,0.757260006022502
3.366125171754245e-09,1.015290944222862,3.366125171754245e-09,0.0001815094673705508,3.366125171754245e-09,0.0001815130558500337,3.366125171754245e-09,0.002523783148104622,3.366125171754245e-09,0.7589584287523582
3.368844608833286e-09,1.36036227335558,3.368844608833286e-09,0.0001815093710742034,3.368844608833286e-09,0.0001815140320610493,3.368844608833286e-09,0.002180363808984999,3.368844608833286e-09,0.7604692271296035
3.371007266105648e-09,1.880435304590794,3.371007266105648e-09,0.0001815078911844441,3.371007266105648e-09,0.0001815137400352107,3.371007266105648e-09,0.001917182478646377,3.371007266105648e-09,0.7616707033920265
3.373126069398511e-09,2.580932920080554,3.373126069398511e-09,0.0001815067440753365,3.373126069398511e-09,0.0001815125266298414,3.373126069398511e-09,0.001682493674731407,3.373126069398511e-09,0.7628478163325059
3.374595701378059e-09,3.111331663378638,3.374595701378059e-09,0.0001815047261405695,3.374595701378059e-09,0.0001815110021153074,3.374595701378059e-09,0.001535037491323457,3.374595701378059e-09,0.7636642785433659
