/net039 X,/net039 Y,/net010 X,/net010 Y,/net09 X,/net09 Y,/net08 X,/net08 Y,/net02 X,/net02 Y
0,0.0002899952869145903,0,0.0002899952869143717,0,0.0002899952866020145,0,0.0001827204682183335,0,0
1.5e-11,0.000289995286914762,1.5e-11,0.000289995286914316,1.5e-11,0.0002899952866021171,1.5e-11,0.000182720468217478,1.5e-11,0
4.5e-11,0.0002899952869146452,4.5e-11,0.0002899952869143612,4.5e-11,0.0002899952866020754,4.5e-11,0.0001827204682182656,4.5e-11,0
1.05e-10,0.0002899952869118224,1.05e-10,0.0002899952869141212,1.05e-10,0.0002899952866027168,1.05e-10,0.0001827204682181226,1.05e-10,0
2.25e-10,0.0002899952869178394,2.25e-10,0.0002899952869175435,2.25e-10,0.0002899952866019985,2.25e-10,0.0001827204682176332,2.25e-10,0
4.65e-10,0.0002899952869152215,4.65e-10,0.0002899952869143071,4.65e-10,0.0002899952865993045,4.65e-10,0.000182720468218942,4.65e-10,0
7.649999999999999e-10,0.0002899952869145467,7.649999999999999e-10,0.0002899952869140687,7.649999999999999e-10,0.0002899952866056464,7.649999999999999e-10,0.0001827204682176094,7.649999999999999e-10,0
1.065e-09,0.0002899952869151947,1.065e-09,0.0002899952869144361,1.065e-09,0.0002899952865959676,1.065e-09,0.0001827204682189718,1.065e-09,0
1.365e-09,0.0002899952869145925,1.365e-09,0.0002899952869139949,1.365e-09,0.0002899952866087956,1.365e-09,0.0001827204682176596,1.365e-09,0
1.665e-09,0.0002899952869152043,1.665e-09,0.0002899952869147438,1.665e-09,0.0002899952865959049,1.665e-09,0.0001827204682189002,1.665e-09,0
1.8325e-09,0.0002899952869179038,1.8325e-09,0.0002899952869135518,1.8325e-09,0.0002899952866085735,1.8325e-09,0.0001827204682177332,1.8325e-09,0
2e-09,0.0002899952869121146,2e-09,0.0002899952869181555,2e-09,0.0002899952865959878,2e-09,0.0001827204682182719,2e-09,0
2.120144127384571e-09,0.0002899952869146793,2.120144127384571e-09,0.000289995286914352,2.120144127384571e-09,0.0002899952866020625,2.120144127384571e-09,0.0001827204682195561,2.120144127384571e-09,0.06674673743587282
2.261585129605973e-09,0.0002899952869148828,2.261585129605973e-09,0.000289995286914252,2.261585129605973e-09,0.0002899952866021708,2.261585129605973e-09,0.0001827204682701845,2.261585129605973e-09,0.1453250720033182
2.400273538304042e-09,0.0002899952869151505,2.400273538304042e-09,0.0002899952869144045,2.400273538304042e-09,0.0002899952866025185,2.400273538304042e-09,0.0001827204681334332,2.400273538304042e-09,0.2223741879466899
2.453121882991232e-09,0.0002899952869114505,2.453121882991232e-09,0.0002899952869141735,2.453121882991232e-09,0.0002899952866022393,2.453121882991232e-09,0.0001827204680300197,2.453121882991232e-09,0.2517343794395734
2.479546055334827e-09,0.0002899952869145757,2.479546055334827e-09,0.0002899952869114219,2.479546055334827e-09,0.0002899952866038911,2.479546055334827e-09,0.0001827204695427259,2.479546055334827e-09,0.2664144751860152
2.532394400022018e-09,0.0002899952869152711,2.532394400022018e-09,0.0002899952869169068,2.532394400022018e-09,0.0002899952865978499,2.532394400022018e-09,0.0001827204665390679,2.532394400022018e-09,0.2957746666788987
2.552069930340749e-09,0.0002899952869145738,2.552069930340749e-09,0.000289995286912127,2.552069930340749e-09,0.0002899952866111777,2.552069930340749e-09,0.0001827204688449784,2.552069930340749e-09,0.3067055168559714
2.59142099097821e-09,0.000289995286915195,2.59142099097821e-09,0.000289995286916266,2.59142099097821e-09,0.0002899952865963083,2.59142099097821e-09,0.0001827204688155013,2.59142099097821e-09,0.3285672172101166
2.619454996019932e-09,0.0002899952869145677,2.619454996019932e-09,0.000289995286912644,2.619454996019932e-09,0.0002899952865994193,2.619454996019932e-09,0.0001827204661286104,2.619454996019932e-09,0.344141664455518
2.650533128582053e-09,0.000289995286915099,2.650533128582053e-09,0.0002899952869156502,2.650533128582053e-09,0.0002899952866155406,2.650533128582053e-09,0.0001827204710974061,2.650533128582053e-09,0.3614072936566959
2.673628674783674e-09,0.0002899952869147613,2.673628674783674e-09,0.0002899952869130262,2.673628674783674e-09,0.0002899952865775526,2.673628674783674e-09,0.0001827204650909042,2.673628674783674e-09,0.3742381526575969
2.696758169419564e-09,0.0002899952869152885,2.696758169419564e-09,0.0002899952869154109,2.696758169419564e-09,0.0002899952866336335,2.696758169419564e-09,0.0001827204709748601,2.696758169419564e-09,0.387087871899758
2.722303735199676e-09,0.0002899952869145452,2.722303735199676e-09,0.0002899952869131161,2.722303735199676e-09,0.0002899952865722525,2.722303735199676e-09,0.0001827204660304145,2.722303735199676e-09,0.4012798528887087
2.752859245786858e-09,0.0002899952869125118,2.752859245786858e-09,0.0002899952869153739,2.752859245786858e-09,0.0002899952866261241,2.752859245786858e-09,0.000182720469896389,2.752859245786858e-09,0.4182551365482542
2.786216118660815e-09,0.0002899952869201148,2.786216118660815e-09,0.0002899952869131822,2.786216118660815e-09,0.0002899952865795868,2.786216118660815e-09,0.0001827204669725133,2.786216118660815e-09,0.4367867325893415
2.817380313165456e-09,0.000289995286910563,2.817380313165456e-09,0.0002899952869150526,2.817380313165456e-09,0.0002899952866197298,2.817380313165456e-09,0.0001827204690552662,2.817380313165456e-09,0.4541001739808091
2.849565394636116e-09,0.0002899952869158289,2.849565394636116e-09,0.0002899952869134858,2.849565394636116e-09,0.0002899952865874363,2.849565394636116e-09,0.000182720467711461,2.849565394636116e-09,0.4719807747978421
2.865657935371446e-09,0.0002899952869142324,2.865657935371446e-09,0.0002899952869176013,2.865657935371446e-09,0.0002899952866116905,2.865657935371446e-09,0.0001827204682320494,2.865657935371446e-09,0.4809210752063586
2.89408564064939e-09,0.000289995286918577,2.89408564064939e-09,0.0002899952869114283,2.89408564064939e-09,0.0002899952865955988,2.89408564064939e-09,0.0001827204683924642,2.89408564064939e-09,0.4967142448052166
2.919930230475487e-09,0.0002899952869091888,2.919930230475487e-09,0.0002899952869168981,2.919930230475487e-09,0.0002899952866065647,2.919930230475487e-09,0.0001827204678912388,2.919930230475487e-09,0.5110723502641593
2.97161941012768e-09,0.0002899952869202391,2.97161941012768e-09,0.0002899952869145462,2.97161941012768e-09,0.0002899952865991481,2.97161941012768e-09,0.0001827204686014079,2.97161941012768e-09,0.5397885611820447
3.016213617663458e-09,0.0002899952869068635,3.016213617663458e-09,0.0002899952869169558,3.016213617663458e-09,0.0002899952866038591,3.016213617663458e-09,0.0001827204677790632,3.016213617663458e-09,0.5645631209241432
3.058431284075132e-09,0.0002899952869192263,3.058431284075132e-09,0.0002899952869116607,3.058431284075132e-09,0.0002899952866019104,3.058431284075132e-09,0.000182720468701569,3.058431284075132e-09,0.5880173800417401
3.069395409256909e-09,0.0002899952869124862,3.069395409256909e-09,0.0002899952869155608,3.069395409256909e-09,0.000289995286599098,3.069395409256909e-09,0.0001827204676376778,3.069395409256909e-09,0.5941085606982828
3.074877471847798e-09,0.000289995286914268,3.074877471847798e-09,0.0002899952869133007,3.074877471847798e-09,0.0002899952866089571,3.074877471847798e-09,0.0001827204687956485,3.074877471847798e-09,0.5971541510265541
3.085841597029574e-09,0.0002899952869172882,3.085841597029574e-09,0.0002899952869153816,3.085841597029574e-09,0.0002899952865948452,3.085841597029574e-09,0.0001827204676780316,3.085841597029574e-09,0.6032453316830969
3.091072045059137e-09,0.0002899952869122088,3.091072045059137e-09,0.0002899952869136215,3.091072045059137e-09,0.0002899952866097258,3.091072045059137e-09,0.0001827204686722253,3.091072045059137e-09,0.6061511361439651
3.101532941118263e-09,0.0002899952869146104,3.101532941118263e-09,0.0002899952869150411,3.101532941118263e-09,0.0002899952865986838,3.101532941118263e-09,0.000182720467804693,3.101532941118263e-09,0.6119627450657016
3.113215581017264e-09,0.0002899952869150258,3.113215581017264e-09,0.0002899952869135554,3.113215581017264e-09,0.0002899952866075313,3.113215581017264e-09,0.0001827204685954515,3.113215581017264e-09,0.6184531005651465
3.117343511998643e-09,0.0002899952869144916,3.117343511998643e-09,0.0002899952869144297,3.117343511998643e-09,0.0002899952865999344,3.117343511998643e-09,0.0001827204680133571,3.117343511998643e-09,0.6207463955548018
3.125599373961403e-09,0.0002899952869153201,3.125599373961403e-09,0.0002899952869159013,3.125599373961403e-09,0.0002899952866060661,3.125599373961403e-09,0.0001827204684959066,3.125599373961403e-09,0.6253329855341125
3.135976356117626e-09,0.0002899952869143511,3.135976356117626e-09,0.0002899952869134431,3.135976356117626e-09,0.0002899952865924979,3.135976356117626e-09,0.0001827204678329536,3.135976356117626e-09,0.6310979756209032
3.151469234574106e-09,0.0002899952869155822,3.151469234574106e-09,0.000289995286914785,3.151469234574106e-09,0.0002899952866082561,3.151469234574106e-09,0.0001827204680931434,3.151469234574106e-09,0.6397051303189476
3.163932769622551e-09,0.0002899952869062596,3.163932769622551e-09,0.0002899952869134316,3.163932769622551e-09,0.0002899952861094091,3.163932769622551e-09,0.0001827204434962138,3.163932769622551e-09,0.6466293164569729
3.167876524819157e-09,0.0002899952869387943,3.167876524819157e-09,0.0002899952869154284,3.167876524819157e-09,0.0002899952869459013,3.167876524819157e-09,0.0001827204507536513,3.167876524819157e-09,0.6488202915661981
3.175764035212367e-09,0.0002899952872405942,3.175764035212367e-09,0.0002899952869176062,3.175764035212367e-09,0.0002899953011345903,3.175764035212367e-09,0.0001827209505782886,3.175764035212367e-09,0.6532022417846484
3.186013195472276e-09,0.0002899952869181361,3.186013195472276e-09,0.0002899952869053133,3.186013195472276e-09,0.0002899952965541017,3.186013195472276e-09,0.0001827216981769504,3.186013195472276e-09,0.6588962197068202
3.19448108928219e-09,0.0002899952830700339,3.19448108928219e-09,0.0002899952868489662,3.19448108928219e-09,0.0002899948832898808,3.19448108928219e-09,0.0001827076270330203,3.19448108928219e-09,0.6636006051567722
3.197355734738509e-09,0.0002899952826609625,3.197355734738509e-09,0.000289995286740475,3.197355734738509e-09,0.0002899942184353745,3.197355734738509e-09,0.0001826881986831307,3.197355734738509e-09,0.6651976304102828
3.203105025651147e-09,0.0002899952868814197,3.203105025651147e-09,0.0002899952872576473,3.203105025651147e-09,0.000289994283967009,3.203105025651147e-09,0.0001826538837143994,3.203105025651147e-09,0.6683916809173039
3.210432536421686e-09,0.0002899952902140907,3.210432536421686e-09,0.0002899952875570243,3.210432536421686e-09,0.0002899999279617001,3.210432536421686e-09,0.0001827848393172622,3.210432536421686e-09,0.6724625202342699
3.216246758883819e-09,0.0002899953373311512,3.216246758883819e-09,0.0002899952854487116,3.216246758883819e-09,0.0002899979988644364,3.216246758883819e-09,0.0001828789368620536,3.216246758883819e-09,0.6756926438243441
3.223194207889335e-09,0.0002899952972038798,3.223194207889335e-09,0.0002899952861644668,3.223194207889335e-09,0.0002899888263725692,3.223194207889335e-09,0.0001827162212009342,3.223194207889335e-09,0.6795523377162973
3.231729346678226e-09,0.0002899952098545998,3.231729346678226e-09,0.0002899952893405594,3.231729346678226e-09,0.0002899947004401381,3.231729346678226e-09,0.0001826376105196801,3.231729346678226e-09,0.6842940814879032
3.241081593314342e-09,0.0002899952701093834,3.241081593314342e-09,0.0002899952852803994,3.241081593314342e-09,0.0002899973117456241,3.241081593314342e-09,0.0001826948088625053,3.241081593314342e-09,0.6894897740635235
3.24989972589007e-09,0.000289995222804172,3.24989972589007e-09,0.0002899952869270843,3.24989972589007e-09,0.0002899956016949485,3.24989972589007e-09,0.0001827128415772458,3.24989972589007e-09,0.6943887366055946
3.257481820130183e-09,0.0002899952274512221,3.257481820130183e-09,0.0002899952871561092,3.257481820130183e-09,0.0002899957752464351,3.257481820130183e-09,0.0001827260332601316,3.257481820130183e-09,0.698601011183435
3.265166628479641e-09,0.0002899951323418854,3.265166628479641e-09,0.0002899952862881544,3.265166628479641e-09,0.0002899944323815229,3.265166628479641e-09,0.0001826902958299787,3.265166628479641e-09,0.7028703491553558
3.271336797591599e-09,0.000289994237395767,3.271336797591599e-09,0.000289995283133491,3.271336797591599e-09,0.0002899928197587326,3.271336797591599e-09,0.0001825835716411356,3.271336797591599e-09,0.7062982208842217
3.276601903901379e-09,0.000289989117846972,3.276601903901379e-09,0.0002899952615584058,3.276601903901379e-09,0.0002899918196500806,3.276601903901379e-09,0.0001823096591835396,3.276601903901379e-09,0.7092232799452107
3.280958179600096e-09,0.0002899804951797142,3.280958179600096e-09,0.0002899952429143224,3.280958179600096e-09,0.000289996781580945,3.280958179600096e-09,0.0001819675603861229,3.280958179600096e-09,0.7116434331111645
3.285298767018039e-09,0.0002900290400431461,3.285298767018039e-09,0.0002899955803916912,3.285298767018039e-09,0.0002900045669774569,3.285298767018039e-09,0.0001829312313348371,3.285298767018039e-09,0.7140548705655773
3.288971464667018e-09,0.0002903456234914353,3.288971464667018e-09,0.000289997303219016,3.288971464667018e-09,0.0002900084910580442,3.288971464667018e-09,0.0001907208083145952,3.288971464667018e-09,0.7160952581483435
3.292789943692124e-09,0.000290910329916564,3.292789943692124e-09,0.0002899984863662599,3.292789943692124e-09,0.0002900058927964065,3.292789943692124e-09,0.0002091382275495696,3.292789943692124e-09,0.7182166353845135
3.295303851233278e-09,0.0002907953802795101,3.295303851233278e-09,0.0002899943912827462,3.295303851233278e-09,0.0002900002717804683,3.295303851233278e-09,0.0002144103318580127,3.295303851233278e-09,0.7196132506851546
3.297948962772621e-09,0.0002900156854285456,3.297948962772621e-09,0.0002899887207577981,3.297948962772621e-09,0.0002899980987053594,3.297948962772621e-09,0.0001827449523306913,3.297948962772621e-09,0.7210827570959003
3.300385164883389e-09,0.0002893376071021134,3.300385164883389e-09,0.0002899885168520789,3.300385164883389e-09,0.0002899943853040558,3.300385164883389e-09,8.572643092696726e-05,3.300385164883389e-09,0.7224362027129939
3.303709289083591e-09,0.0002883235370929753,3.303709289083591e-09,0.0002899946220116928,3.303709289083591e-09,0.0002899752516617512,3.303709289083591e-09,-0.0002546727137508427,3.303709289083591e-09,0.7242829383797728
3.307262371203229e-09,0.0002835446730756535,3.307262371203229e-09,0.0002900038994155149,3.307262371203229e-09,0.0002899685991859653,3.307262371203229e-09,-0.0007632458201536287,3.307262371203229e-09,0.7262568728906827
3.310285948101963e-09,0.0002787894221700214,3.310285948101963e-09,0.0002900091239228151,3.310285948101963e-09,0.000289983323331766,3.310285948101963e-09,-0.0008806714311113664,3.310285948101963e-09,0.7279366378344242
3.313444302274995e-09,0.0002796700339200544,3.313444302274995e-09,0.0002899931107020142,3.313444302274995e-09,0.000289991206404151,3.313444302274995e-09,-0.0006858780917231105,3.313444302274995e-09,0.7296912790416639
3.316228759286465e-09,0.0002885825790067683,3.316228759286465e-09,0.0002899844773299259,3.316228759286465e-09,0.0002899923446532356,3.316228759286465e-09,-0.0003945962020425291,3.316228759286465e-09,0.7312381996035918
3.31913786618617e-09,0.0003091472015248871,3.31913786618617e-09,0.0002899884744810722,3.31913786618617e-09,0.0002899944220340646,3.31913786618617e-09,-0.0001009526906382567,3.31913786618617e-09,0.7328543701034277
3.322643827769447e-09,0.0003496689135188956,3.322643827769447e-09,0.0002900072204909716,3.322643827769447e-09,0.0002899944158299957,3.322643827769447e-09,-7.128514016579164e-05,3.322643827769447e-09,0.7348021265385817
3.325299897590765e-09,0.0003955099159598824,3.325299897590765e-09,0.0002900204335506824,3.325299897590765e-09,0.0002899975592821088,3.325299897590765e-09,-0.0004450222118562206,3.325299897590765e-09,0.7362777208837583
3.328103311907363e-09,0.0004639833751120897,3.328103311907363e-09,0.0002900138797728846,3.328103311907363e-09,0.0002900028511778499,3.328103311907363e-09,-0.001223315962935582,3.328103311907363e-09,0.7378351732818684
3.331783834830146e-09,0.0001843921434454692,3.331783834830146e-09,0.000289980505967299,3.331783834830146e-09,0.0002900128272697906,3.331783834830146e-09,-0.00234604351290253,3.331783834830146e-09,0.73987990823897
3.334704273627614e-09,-0.002555541310650259,3.334704273627614e-09,0.0002899527731087155,3.334704273627614e-09,0.0002900140221541536,3.334704273627614e-09,-0.002997157054367999,3.334704273627614e-09,0.7415023742375634
3.337845166590823e-09,-0.008328937016917103,3.337845166590823e-09,0.0002899381398579668,3.337845166590823e-09,0.0002900084533559029,3.337845166590823e-09,-0.003259587807649989,3.337845166590823e-09,0.7432473147726796
3.340989773196882e-09,-0.00392202793679053,3.340989773196882e-09,0.0002899478800535529,3.340989773196882e-09,0.0002900022169413192,3.340989773196882e-09,-0.002918032765920698,3.340989773196882e-09,0.7449943184427124
3.34383869784595e-09,0.03368742658351903,3.34383869784595e-09,0.0002899802693943607,3.34383869784595e-09,0.0002899947750804188,3.34383869784595e-09,-0.002113777974053922,3.34383869784595e-09,0.7465770543588611
3.346749272290958e-09,0.1182674603010998,3.346749272290958e-09,0.0002900075865852374,3.346749272290958e-09,0.0002899799241912543,3.346749272290958e-09,-0.001380303521005677,3.346749272290958e-09,0.7481940401616435
3.349038297117235e-09,0.2060930796504896,3.349038297117235e-09,0.0002900348040557473,3.349038297117235e-09,0.0002899834777870856,3.349038297117235e-09,-0.0007761287656074324,3.349038297117235e-09,0.7494657206206859
3.351761144178331e-09,0.3230980560776074,3.351761144178331e-09,0.0002900551218823408,3.351761144178331e-09,0.0002899943794920112,3.351761144178331e-09,0.0002615821039673185,3.351761144178331e-09,0.7509784134324058
3.3547255853218e-09,0.4610045380629465,3.3547255853218e-09,0.0002900392958078259,3.3547255853218e-09,0.0002899879537550357,3.3547255853218e-09,0.001388678444295024,3.3547255853218e-09,0.7526253251787777
3.358912308602867e-09,0.6458431456511579,3.358912308602867e-09,0.0002900110311814753,3.358912308602867e-09,0.0002899864478095566,3.358912308602867e-09,0.002547699549665385,3.358912308602867e-09,0.7549512825571484
3.361944785215638e-09,0.7482880161146233,3.361944785215638e-09,0.0002899990049400055,3.361944785215638e-09,0.000289989352433184,3.361944785215638e-09,0.00291482237410088,3.361944785215638e-09,0.7566359917864655
3.364768048508839e-09,0.8133451842288398,3.364768048508839e-09,0.0002899961439233622,3.364768048508839e-09,0.0002899953661320172,3.364768048508839e-09,0.002936702327428185,3.364768048508839e-09,0.7582044713937992
3.367514992468961e-09,0.8847593161408862,3.367514992468961e-09,0.0002899971221729813,3.367514992468961e-09,0.0002900003034777893,3.367514992468961e-09,0.002762114791208262,3.367514992468961e-09,0.7597305513716448
3.371011526674464e-09,1.123408851787,3.371011526674464e-09,0.0002899958691126713,3.371011526674464e-09,0.0002900022664328053,3.371011526674464e-09,0.002382506667645997,3.371011526674464e-09,0.7616730703747022
3.373550643532987e-09,1.543637970880495,3.373550643532987e-09,0.0002899953767765149,3.373550643532987e-09,0.0002900022168562149,3.373550643532987e-09,0.002069445323276763,3.373550643532987e-09,0.7630836908516596
3.375719601552182e-09,2.145693819373549,3.375719601552182e-09,0.0002899935557778266,3.375719601552182e-09,0.0002900011228339534,3.375719601552182e-09,0.001823242334094131,3.375719601552182e-09,0.7642886675289897
3.378053899768332e-09,2.946205735583699,3.378053899768332e-09,0.0002899919643830692,3.378053899768332e-09,0.0002899992064450127,3.378053899768332e-09,0.001587071104317149,3.378053899768332e-09,0.7655854998712954
3.380085871583807e-09,3.615763342463783,3.380085871583807e-09,0.0002899896287324061,3.380085871583807e-09,0.0002899971253310716,3.380085871583807e-09,0.001403304467435461,3.380085871583807e-09,0.7667143731021147
