/net010 X,/net010 Y,/net09 X,/net09 Y,/net08 X,/net08 Y,/net02 X,/net02 Y,/net039 X,/net039 Y
0,6.7956437659787e-05,0,6.795643765946082e-05,0,6.094256728574143e-05,0,0,0,6.795643765971143e-05
1.5e-11,6.795643765980481e-05,1.5e-11,6.795643765973378e-05,1.5e-11,6.094256728566349e-05,1.5e-11,0,1.5e-11,6.795643765975753e-05
4.5e-11,6.795643765970172e-05,4.5e-11,6.795643765948866e-05,4.5e-11,6.094256728540255e-05,4.5e-11,0,4.5e-11,6.795643765967822e-05
1.05e-10,6.795643765704262e-05,1.05e-10,6.79564376571971e-05,1.05e-10,6.094256728590266e-05,1.05e-10,0,1.05e-10,6.795643765698529e-05
2.25e-10,6.795643765935362e-05,2.25e-10,6.795643766565022e-05,2.25e-10,6.094256728536184e-05,2.25e-10,0,2.25e-10,6.79564376624744e-05
4.65e-10,6.795643766317077e-05,4.65e-10,6.795643765404562e-05,4.65e-10,6.094256728584943e-05,4.65e-10,0,4.65e-10,6.795643766025055e-05
7.649999999999999e-10,6.795643765319055e-05,7.649999999999999e-10,6.795643766211045e-05,7.649999999999999e-10,6.094256728555979e-05,7.649999999999999e-10,0,7.649999999999999e-10,6.795643765933824e-05
1.065e-09,6.79564376664974e-05,1.065e-09,6.795643765447074e-05,1.065e-09,6.09425672856081e-05,1.065e-09,0,1.065e-09,6.795643765998614e-05
1.365e-09,6.795643765305483e-05,1.365e-09,6.795643766821731e-05,1.365e-09,6.094256728547874e-05,1.365e-09,0,1.365e-09,6.795643766266755e-05
1.665e-09,6.795643766670573e-05,1.665e-09,6.795643765182834e-05,1.665e-09,6.094256728550445e-05,1.665e-09,0,1.665e-09,6.79564376571139e-05
1.8325e-09,6.795643765298304e-05,1.8325e-09,6.795643766777517e-05,1.8325e-09,6.09425672852965e-05,1.8325e-09,0,1.8325e-09,6.79564376626814e-05
2e-09,6.795643766640968e-05,2e-09,6.795643765535171e-05,2e-09,6.094256728602095e-05,2e-09,0,2e-09,6.795643765695356e-05
2.120144127384571e-09,6.795643765986188e-05,2.120144127384571e-09,6.795643765961233e-05,2.120144127384571e-09,6.094256728652174e-05,2.120144127384571e-09,0.06674673743587282,2.120144127384571e-09,6.795643765981128e-05
2.261585129605973e-09,6.795643765982858e-05,2.261585129605973e-09,6.795643765971404e-05,2.261585129605973e-09,6.094256725780026e-05,2.261585129605973e-09,0.1453250720033182,2.261585129605973e-09,6.795643765964137e-05
2.400273538304042e-09,6.795643765946853e-05,2.400273538304042e-09,6.795643766002363e-05,2.400273538304042e-09,6.09425674066976e-05,2.400273538304042e-09,0.2223741879466899,2.400273538304042e-09,6.795643765989728e-05
2.45569380373439e-09,6.795643766006623e-05,2.45569380373439e-09,6.795643765908249e-05,2.45569380373439e-09,6.094256662112965e-05,2.45569380373439e-09,0.2531632242968831,2.45569380373439e-09,6.795643765984012e-05
2.483403936449563e-09,6.795643765957133e-05,2.483403936449563e-09,6.795643766688116e-05,2.483403936449563e-09,6.094256946753581e-05,2.483403936449563e-09,0.2685577424719797,2.483403936449563e-09,6.795643765980878e-05
2.538824201879911e-09,6.795643765999055e-05,2.538824201879911e-09,6.795643764504147e-05,2.538824201879911e-09,6.094256452936429e-05,2.538824201879911e-09,0.2993467788221726,2.538824201879911e-09,6.795643766268232e-05
2.561274479319918e-09,6.795643765992113e-05,2.561274479319918e-09,6.795643768564476e-05,2.561274479319918e-09,6.094256988973925e-05,2.561274479319918e-09,0.3118191551777322,2.561274479319918e-09,6.795643765762699e-05
2.572499618039922e-09,6.795643765962317e-05,2.572499618039922e-09,6.795643763975549e-05,2.572499618039922e-09,6.09425678048099e-05,2.572499618039922e-09,0.3180553433555121,2.572499618039922e-09,6.795643766098114e-05
2.594949895479929e-09,6.79564376571385e-05,2.594949895479929e-09,6.795643766340099e-05,2.594949895479929e-09,6.094256542054729e-05,2.594949895479929e-09,0.3305277197110719,2.594949895479929e-09,6.795643765828345e-05
2.620191837978951e-09,6.795643766206674e-05,2.620191837978951e-09,6.795643767318292e-05,2.620191837978951e-09,6.094256956707752e-05,2.620191837978951e-09,0.3445510210994174,2.620191837978951e-09,6.795643766106589e-05
2.64115221096306e-09,6.795643765802068e-05,2.64115221096306e-09,6.795643763794152e-05,2.64115221096306e-09,6.094256511108938e-05,2.64115221096306e-09,0.3561956727572554,2.64115221096306e-09,6.795643765864843e-05
2.661831460741951e-09,6.795643766104697e-05,2.661831460741951e-09,6.795643768537912e-05,2.661831460741951e-09,6.094256905294595e-05,2.661831460741951e-09,0.3676841448566393,2.661831460741951e-09,6.795643766077783e-05
2.683150840004469e-09,6.795643765875934e-05,2.683150840004469e-09,6.795643763183549e-05,2.683150840004469e-09,6.094256596402121e-05,2.683150840004469e-09,0.379528244446927,2.683150840004469e-09,6.795643766179363e-05
2.702706616568057e-09,6.795643766064672e-05,2.702706616568057e-09,6.79564376823087e-05,2.702706616568057e-09,6.094256817826033e-05,2.702706616568057e-09,0.3903925647600318,2.702706616568057e-09,6.795643765844538e-05
2.725850249364584e-09,6.795643765601966e-05,2.725850249364584e-09,6.795643763988376e-05,2.725850249364584e-09,6.094256668636087e-05,2.725850249364584e-09,0.4032501385358797,2.725850249364584e-09,6.795643766066509e-05
2.754017301164061e-09,6.79564376632252e-05,2.754017301164061e-09,6.795643767447298e-05,2.754017301164061e-09,6.094256769372517e-05,2.754017301164061e-09,0.4188985006467003,2.754017301164061e-09,6.795643765623981e-05
2.784554590447874e-09,6.79564376567604e-05,2.784554590447874e-09,6.795643764946694e-05,2.784554590447874e-09,6.094256701880789e-05,2.784554590447874e-09,0.4358636613599299,2.784554590447874e-09,6.795643766579297e-05
2.813120231787426e-09,6.795643766219382e-05,2.813120231787426e-09,6.795643766866617e-05,2.813120231787426e-09,6.094256743303863e-05,2.813120231787426e-09,0.4517334621041255,2.813120231787426e-09,6.795643765468711e-05
2.842920733337434e-09,6.795643765740886e-05,2.842920733337434e-09,6.795643765522328e-05,2.842920733337434e-09,6.094256722672095e-05,2.842920733337434e-09,0.4682892962985741,2.842920733337434e-09,6.795643766432591e-05
2.867243662813164e-09,6.795643766191063e-05,2.867243662813164e-09,6.795643766337857e-05,2.867243662813164e-09,6.094256726317339e-05,2.867243662813164e-09,0.481802034896202,2.867243662813164e-09,6.795643765872766e-05
2.895154013063988e-09,6.79564376577648e-05,2.895154013063988e-09,6.795643766004007e-05,2.895154013063988e-09,6.094256735929948e-05,2.895154013063988e-09,0.4973077850355487,2.895154013063988e-09,6.795643765819171e-05
2.921094972943635e-09,6.795643766166999e-05,2.921094972943635e-09,6.79564376593759e-05,2.921094972943635e-09,6.094256717170398e-05,2.921094972943635e-09,0.5117194294131305,2.921094972943635e-09,6.795643766127359e-05
2.97297689270293e-09,6.795643766099869e-05,2.97297689270293e-09,6.795643766056802e-05,2.97297689270293e-09,6.094256741467085e-05,2.97297689270293e-09,0.5405427181682944,2.97297689270293e-09,6.795643765557699e-05
3.015534443809141e-09,6.795643765875627e-05,3.015534443809141e-09,6.795643765596468e-05,3.015534443809141e-09,6.094256714086115e-05,3.015534443809141e-09,0.5641858021161893,3.015534443809141e-09,6.79564376633397e-05
3.058952952513335e-09,6.795643765781046e-05,3.058952952513335e-09,6.795643766411685e-05,3.058952952513335e-09,6.094256744280914e-05,3.058952952513335e-09,0.5883071958407416,3.058952952513335e-09,6.795643765953186e-05
3.070072085180787e-09,6.795643766094419e-05,3.070072085180787e-09,6.795643765599762e-05,3.070072085180787e-09,6.094256710096557e-05,3.070072085180787e-09,0.5944844917671041,3.070072085180787e-09,6.795643766005116e-05
3.092310350515692e-09,6.795643765844594e-05,3.092310350515692e-09,6.795643766105189e-05,3.092310350515692e-09,6.094256747432721e-05,3.092310350515692e-09,0.6068390836198289,3.092310350515692e-09,6.795643765958353e-05
3.099638279908456e-09,6.795643765793529e-05,3.099638279908456e-09,6.795643765827664e-05,3.099638279908456e-09,6.094256710265103e-05,3.099638279908456e-09,0.6109101555046974,3.099638279908456e-09,6.795643765987991e-05
3.114294138693983e-09,6.795643766111233e-05,3.114294138693983e-09,6.795643766197983e-05,3.114294138693983e-09,6.094256745805824e-05,3.114294138693983e-09,0.6190522992744349,3.114294138693983e-09,6.795643765974385e-05
3.118522099332287e-09,6.795643765917882e-05,3.118522099332287e-09,6.795643765743641e-05,3.118522099332287e-09,6.094256711920128e-05,3.118522099332287e-09,0.6214011662957148,3.118522099332287e-09,6.795643765960192e-05
3.126978020608895e-09,6.795643766040981e-05,3.126978020608895e-09,6.795643766162779e-05,3.126978020608895e-09,6.09425674068612e-05,3.126978020608895e-09,0.6260989003382749,3.126978020608895e-09,6.795643765943907e-05
3.135236705323209e-09,6.795643765952536e-05,3.135236705323209e-09,6.795643766104053e-05,3.135236705323209e-09,6.094256721664602e-05,3.135236705323209e-09,0.6306870585128936,3.135236705323209e-09,6.79564376620327e-05
3.14315341313281e-09,6.795643765790815e-05,3.14315341313281e-09,6.795643767044014e-05,3.14315341313281e-09,6.094256771147337e-05,3.14315341313281e-09,0.6350852295182274,3.14315341313281e-09,6.795643765879496e-05
3.15207437516433e-09,6.795643765915566e-05,3.15207437516433e-09,6.795643765819091e-05,3.15207437516433e-09,6.094256749564514e-05,3.15207437516433e-09,0.640041319535739,3.15207437516433e-09,6.795643765839245e-05
3.155201714466554e-09,6.79564376609349e-05,3.155201714466554e-09,6.795643776957538e-05,3.155201714466554e-09,6.094256967676336e-05,3.155201714466554e-09,0.6417787302591964,3.155201714466554e-09,6.795643766364354e-05
3.161456393071e-09,6.795643765858779e-05,3.161456393071e-09,6.795643742520195e-05,3.161456393071e-09,6.094256392323067e-05,3.161456393071e-09,0.6452535517061113,3.161456393071e-09,6.795643765085711e-05
3.169463697506469e-09,6.79564376593232e-05,3.169463697506469e-09,6.795643563899639e-05,3.169463697506469e-09,6.09425034964187e-05,3.169463697506469e-09,0.6497020541702604,3.169463697506469e-09,6.795643760847341e-05
3.17807235801387e-09,6.795643766162978e-05,3.17807235801387e-09,6.795643882857386e-05,3.17807235801387e-09,6.094252391323794e-05,3.17807235801387e-09,0.6544846433410386,3.17807235801387e-09,6.795643774155341e-05
3.186324396058196e-09,6.795643767457522e-05,3.186324396058196e-09,6.795649500365375e-05,3.186324396058196e-09,6.094423575866426e-05,3.186324396058196e-09,0.6590691089212199,3.186324396058196e-09,6.795643914823496e-05
3.197057002089333e-09,6.795643761269831e-05,3.197057002089333e-09,6.795637098285067e-05,3.197057002089333e-09,6.094264792318707e-05,3.197057002089333e-09,0.6650316678274074,3.197057002089333e-09,6.795643613484208e-05
3.204665144066971e-09,6.79564372960236e-05,3.204665144066971e-09,6.795415030572484e-05,3.204665144066971e-09,6.087882362406004e-05,3.204665144066971e-09,0.6692584133705392,3.204665144066971e-09,6.795642159743976e-05
3.212316912074484e-09,6.795643875053066e-05,3.212316912074484e-09,6.795719253399095e-05,3.212316912074484e-09,6.088552729309653e-05,3.212316912074484e-09,0.6735093955969357,3.212316912074484e-09,6.795642601951433e-05
3.219485183788099e-09,6.79564386722085e-05,3.219485183788099e-09,6.796728590329244e-05,3.219485183788099e-09,6.11788479982741e-05,3.219485183788099e-09,0.677491768771166,3.219485183788099e-09,6.795651815824991e-05
3.225448888811139e-09,6.795643161509096e-05,3.225448888811139e-09,6.794889528624822e-05,3.225448888811139e-09,6.10202419513114e-05,3.225448888811139e-09,0.6808049382284107,3.225448888811139e-09,6.795650941955756e-05
3.233703832508657e-09,6.795644318431753e-05,3.233703832508657e-09,6.795095206893963e-05,3.233703832508657e-09,6.080298593919606e-05,3.233703832508657e-09,0.6853910180603652,3.233703832508657e-09,6.795637232297892e-05
3.24167730259183e-09,6.795643711391452e-05,3.24167730259183e-09,6.796105495921317e-05,3.24167730259183e-09,6.09157714702294e-05,3.24167730259183e-09,0.6898207236621278,3.24167730259183e-09,6.795643745800314e-05
3.248881058874892e-09,6.795643486080122e-05,3.248881058874892e-09,6.795648276879326e-05,3.248881058874892e-09,6.093018437430767e-05,3.248881058874892e-09,0.6938228104860512,3.248881058874892e-09,6.795637022141037e-05
3.256097748151593e-09,6.795643859246211e-05,3.256097748151593e-09,6.795717243052186e-05,3.256097748151593e-09,6.094758362986914e-05,3.256097748151593e-09,0.6978320823064408,3.256097748151593e-09,6.795615837571307e-05
3.262547578904451e-09,6.795643567705112e-05,3.262547578904451e-09,6.795309041286999e-05,3.262547578904451e-09,6.084330503263296e-05,3.262547578904451e-09,0.7014153216135839,3.262547578904451e-09,6.79560121287283e-05
3.268229635752768e-09,6.795641806978757e-05,3.268229635752768e-09,6.795147379089745e-05,3.268229635752768e-09,6.06137369343272e-05,3.268229635752768e-09,0.7045720198626489,3.268229635752768e-09,6.795176583929629e-05
3.272394947513548e-09,6.795629120198222e-05,3.272394947513548e-09,6.795293218890597e-05,3.272394947513548e-09,5.996903476878071e-05,3.272394947513548e-09,0.7068860819519711,3.272394947513548e-09,6.792741008183043e-05
3.276425302255881e-09,6.795634177432709e-05,3.276425302255881e-09,6.796425277850973e-05,3.276425302255881e-09,5.923924131103588e-05,3.276425302255881e-09,0.7091251679199339,3.276425302255881e-09,6.79087485236446e-05
3.280090143104008e-09,6.795752732316376e-05,3.280090143104008e-09,6.797244884639856e-05,3.280090143104008e-09,6.181599137121657e-05,3.280090143104008e-09,0.7111611906133376,3.280090143104008e-09,6.806781315457689e-05
3.283575470898218e-09,6.796188294813599e-05,3.283575470898218e-09,6.797531735588411e-05,3.283575470898218e-09,7.887676348240506e-05,3.283575470898218e-09,0.7130974838323435,3.283575470898218e-09,6.888014185841999e-05
3.286969175569616e-09,6.796109440405258e-05,3.286969175569616e-09,6.797026793207033e-05,3.286969175569616e-09,0.0001044671998174558,3.286969175569616e-09,0.7149828753164531,3.286969175569616e-09,6.962039840662571e-05
3.289566236211039e-09,6.795074969961212e-05,3.289566236211039e-09,6.796994772939161e-05,3.289566236211039e-09,0.0001021983077895933,3.289566236211039e-09,0.7164256867839104,3.289566236211039e-09,6.899290630413193e-05
3.291979755308721e-09,6.794438703119138e-05,3.291979755308721e-09,6.796063602542985e-05,3.291979755308721e-09,3.27118518129982e-05,3.291979755308721e-09,0.717766530727067,3.291979755308721e-09,6.779760951139372e-05
3.294896881255282e-09,6.794819747688725e-05,3.294896881255282e-09,6.793166101358867e-05,3.294896881255282e-09,-0.0002635596409436726,3.294896881255282e-09,0.7193871562529345,3.294896881255282e-09,6.663229282213332e-05
3.298197334427919e-09,6.796173268653274e-05,3.298197334427919e-09,6.791651846503915e-05,3.298197334427919e-09,-0.0009385520993487759,3.298197334427919e-09,0.7212207413488437,3.298197334427919e-09,6.100853420893715e-05
3.302169223581881e-09,6.797830728658877e-05,3.302169223581881e-09,6.79468317790265e-05,3.302169223581881e-09,-0.001207752499713929,3.302169223581881e-09,0.7234273464343784,3.302169223581881e-09,4.97992899733349e-05
3.304962688319876e-09,6.796211984838715e-05,3.304962688319876e-09,6.795594961935983e-05,3.304962688319876e-09,-0.0009151220938023304,3.304962688319876e-09,0.7249792712888199,3.304962688319876e-09,4.928151671671919e-05
3.307666110379761e-09,6.794717537062536e-05,3.307666110379761e-09,6.795040986013158e-05,3.307666110379761e-09,-0.000533972222861928,3.307666110379761e-09,0.7264811724332008,3.307666110379761e-09,5.964295381114905e-05
3.310466935145759e-09,6.795514573762628e-05,3.310466935145759e-09,6.794890747155766e-05,3.310466935145759e-09,-0.0002451481451113002,3.310466935145759e-09,0.7280371861920885,3.310466935145759e-09,8.27413021694701e-05
3.313075621241262e-09,6.797569126343802e-05,3.313075621241262e-09,6.794817060788088e-05,3.313075621241262e-09,-0.0003158582448770142,3.313075621241262e-09,0.7294864562451453,3.313075621241262e-09,0.0001225319440548672
3.315488554653481e-09,6.799180622147533e-05,3.315488554653481e-09,6.795367501127907e-05,3.315488554653481e-09,-0.0007882464933796186,3.315488554653481e-09,0.7308269748074893,3.315488554653481e-09,0.0001896966304124516
3.318235206546592e-09,6.797693369460255e-05,3.318235206546592e-09,6.796298510245172e-05,3.318235206546592e-09,-0.001704598574077142,3.318235206546592e-09,0.7323528925258842,3.318235206546592e-09,0.0003533990851885753
3.321381091392677e-09,6.793468162870277e-05,3.321381091392677e-09,6.7977240893034e-05,3.321381091392677e-09,-0.002743857189716935,3.321381091392677e-09,0.7341006063292652,3.321381091392677e-09,0.0004062618605954995
3.324145303709286e-09,6.789808091037644e-05,3.324145303709286e-09,6.79793259960514e-05,3.324145303709286e-09,-0.003385744475033226,3.324145303709286e-09,0.7356362798384921,3.324145303709286e-09,-0.002795617735058891
3.327048671629461e-09,6.787857300572231e-05,3.327048671629461e-09,6.797553683316244e-05,3.327048671629461e-09,-0.003595154059452932,3.327048671629461e-09,0.737249262016367,3.327048671629461e-09,-0.0107303538174104
3.329986749002499e-09,6.789235592142103e-05,3.329986749002499e-09,6.797012458486287e-05,3.329986749002499e-09,-0.003168604617543619,3.329986749002499e-09,0.7388815272236107,3.329986749002499e-09,-0.01154597554306345
3.332613088222438e-09,6.792870661424252e-05,3.332613088222438e-09,6.795961182577848e-05,3.332613088222438e-09,-0.002361688327378792,3.332613088222438e-09,0.7403406045680212,3.332613088222438e-09,0.0212255586252095
3.335099739206015e-09,6.796132760754131e-05,3.335099739206015e-09,6.794348657512088e-05,3.335099739206015e-09,-0.001661228917879331,3.335099739206015e-09,0.7417220773366748,3.335099739206015e-09,0.09846404052446331
3.337226261441503e-09,6.799700176104849e-05,3.337226261441503e-09,6.794681905116312e-05,3.337226261441503e-09,-0.0009534624646272942,3.337226261441503e-09,0.7429034785786129,3.337226261441503e-09,0.1921446162995755
3.339777266879105e-09,6.802352389225654e-05,3.339777266879105e-09,6.795590631738098e-05,3.339777266879105e-09,0.0002095333830059121,3.339777266879105e-09,0.7443207038217251,3.339777266879105e-09,0.3204035080930417
3.342584467905817e-09,6.800650093340122e-05,3.342584467905817e-09,6.794651676475783e-05,3.342584467905817e-09,0.001442578606006641,3.342584467905817e-09,0.745880259947676,3.342584467905817e-09,0.4721266913608176
3.345277717403604e-09,6.798335732953262e-05,3.345277717403604e-09,6.79436128658843e-05,3.345277717403604e-09,0.002379744763659271,3.345277717403604e-09,0.747376509668669,3.345277717403604e-09,0.6114460732985765
3.348142814103406e-09,6.796453057447539e-05,3.348142814103406e-09,6.794361835177146e-05,3.348142814103406e-09,0.002932743585988209,3.348142814103406e-09,0.7489682300574476,3.348142814103406e-09,0.7317244680260678
3.350663741379653e-09,6.795897138383254e-05,3.350663741379653e-09,6.794924472123265e-05,3.350663741379653e-09,0.003061628910251136,3.350663741379653e-09,0.7503687452109181,3.350663741379653e-09,0.8041834381810088
3.353265385799256e-09,6.796003205033878e-05,3.353265385799256e-09,6.795676907337885e-05,3.353265385799256e-09,0.002947007970779993,3.353265385799256e-09,0.751814103221809,3.353265385799256e-09,0.8681084402443995
3.356105814267803e-09,6.796085083750559e-05,3.356105814267803e-09,6.796164252194404e-05,3.356105814267803e-09,0.002635822340032497,3.356105814267803e-09,0.7533921190376682,3.356105814267803e-09,1.005447902418654
3.358737778860486e-09,6.796133177797873e-05,3.358737778860486e-09,6.796407726740096e-05,3.358737778860486e-09,0.002266564965247507,3.358737778860486e-09,0.7548543215891589,3.358737778860486e-09,1.335142668303873
3.360808048652934e-09,6.79606924987156e-05,3.360808048652934e-09,6.796444599066252e-05,3.360808048652934e-09,0.001982561557140896,3.360808048652934e-09,0.7560044714738523,3.360808048652934e-09,1.841854630960271
3.362779102706542e-09,6.795944993128462e-05,3.362779102706542e-09,6.79637601781112e-05,3.362779102706542e-09,0.001739299872158465,3.362779102706542e-09,0.7570995015036344,3.362779102706542e-09,2.522796423690444
3.364022670890104e-09,6.7957709734107e-05,3.364022670890104e-09,6.796230893731235e-05,3.364022670890104e-09,0.001598141578930136,3.364022670890104e-09,0.7577903727167244,3.364022670890104e-09,3.001041585432526
