/net039 X,/net039 Y,/net010 X,/net010 Y,/net09 X,/net09 Y,/net08 X,/net08 Y,/net02 X,/net02 Y
0,6.795643765976598e-05,0,6.795643765971753e-05,0,6.795643765949342e-05,0,6.094256728561198e-05,0,0
1.5e-11,6.795643765981224e-05,1.5e-11,6.795643765978432e-05,1.5e-11,6.795643765979156e-05,1.5e-11,6.094256728553047e-05,1.5e-11,0
4.5e-11,6.795643765973298e-05,4.5e-11,6.795643765972291e-05,4.5e-11,6.795643765955431e-05,4.5e-11,6.094256728590313e-05,4.5e-11,0
1.05e-10,6.795643765704168e-05,1.05e-10,6.795643765708493e-05,1.05e-10,6.795643766017364e-05,1.05e-10,6.09425672857565e-05,1.05e-10,0
2.25e-10,6.795643766249268e-05,2.25e-10,6.795643766251369e-05,2.25e-10,6.795643765960301e-05,2.25e-10,6.09425672856544e-05,2.25e-10,0
4.65e-10,6.795643765702406e-05,4.65e-10,6.795643766034434e-05,4.65e-10,6.795643766027616e-05,4.65e-10,6.094256728559134e-05,4.65e-10,0
7.649999999999999e-10,6.795643765947505e-05,7.649999999999999e-10,6.795643765624443e-05,7.649999999999999e-10,6.795643765934805e-05,7.649999999999999e-10,6.094256728561196e-05,7.649999999999999e-10,0
1.065e-09,6.795643766004366e-05,1.065e-09,6.795643766332875e-05,1.065e-09,6.795643765703436e-05,1.065e-09,6.094256728556204e-05,1.065e-09,0
1.365e-09,6.795643765940222e-05,1.365e-09,6.795643765642561e-05,1.365e-09,6.79564376595547e-05,1.365e-09,6.094256728557852e-05,1.365e-09,0
1.665e-09,6.795643766013247e-05,1.665e-09,6.79564376628829e-05,1.665e-09,6.795643766017452e-05,1.665e-09,6.094256728545167e-05,1.665e-09,0
1.8325e-09,6.795643765931153e-05,1.8325e-09,6.79564376568642e-05,1.8325e-09,6.795643765962192e-05,1.8325e-09,6.094256728531573e-05,1.8325e-09,0
2e-09,6.795643766029303e-05,2e-09,6.79564376595038e-05,2e-09,6.795643766030433e-05,2e-09,6.094256728565604e-05,2e-09,0
2.120144127384571e-09,6.795643765969138e-05,2.120144127384571e-09,6.795643765974555e-05,2.120144127384571e-09,6.795643765986195e-05,2.120144127384571e-09,6.094256728650656e-05,2.120144127384571e-09,0.06674673743587282
2.261585129605973e-09,6.795643765963603e-05,2.261585129605973e-09,6.795643765663925e-05,2.261585129605973e-09,6.795643765944014e-05,2.261585129605973e-09,6.094256725766569e-05,2.261585129605973e-09,0.1453250720033182
2.400273538304042e-09,6.795643765978088e-05,2.400273538304042e-09,6.795643766324566e-05,2.400273538304042e-09,6.795643766007508e-05,2.400273538304042e-09,6.094256740722097e-05,2.400273538304042e-09,0.2223741879466899
2.455693803734392e-09,6.795643766269496e-05,2.455693803734392e-09,6.795643765644811e-05,2.455693803734392e-09,6.795643765899044e-05,2.455693803734392e-09,6.094256662102953e-05,2.455693803734392e-09,0.2531632242968843
2.483403936449567e-09,6.795643765758996e-05,2.483403936449567e-09,6.795643766242325e-05,2.483403936449567e-09,6.795643766995872e-05,2.483403936449567e-09,6.094256946752709e-05,2.483403936449567e-09,0.2685577424719815
2.538824201879917e-09,6.79564376620958e-05,2.538824201879917e-09,6.79564376544736e-05,2.538824201879917e-09,6.795643764190642e-05,2.538824201879917e-09,6.094256452930976e-05,2.538824201879917e-09,0.2993467788221759
2.561274479319923e-09,6.795643765805869e-05,2.561274479319923e-09,6.795643766682474e-05,2.561274479319923e-09,6.795643769102336e-05,2.561274479319923e-09,6.094256988965937e-05,2.561274479319923e-09,0.3118191551777352
2.572499618039927e-09,6.795643766108889e-05,2.572499618039927e-09,6.795643765279642e-05,2.572499618039927e-09,6.795643763655107e-05,2.572499618039927e-09,6.094256780449026e-05,2.572499618039927e-09,0.3180553433555148
2.594949895479934e-09,6.795643765857564e-05,2.594949895479934e-09,6.795643766662572e-05,2.594949895479934e-09,6.795643766697654e-05,2.594949895479934e-09,6.094256542072079e-05,2.594949895479934e-09,0.3305277197110741
2.620191837978937e-09,6.795643766101135e-05,2.620191837978937e-09,6.79564376565097e-05,2.620191837978937e-09,6.795643766736365e-05,2.620191837978937e-09,6.094256956686667e-05,2.620191837978937e-09,0.3445510210994094
2.641152210963045e-09,6.795643765863662e-05,2.641152210963045e-09,6.795643766287741e-05,2.641152210963045e-09,6.795643764256499e-05,2.641152210963045e-09,6.094256511159372e-05,2.641152210963045e-09,0.3561956727572471
2.661831460741938e-09,6.79564376580101e-05,2.661831460741938e-09,6.795643765974532e-05,2.661831460741938e-09,6.795643768112195e-05,2.661831460741938e-09,6.094256905278192e-05,2.661831460741938e-09,0.3676841448566321
2.683150840004458e-09,6.795643766116394e-05,2.683150840004458e-09,6.795643765987415e-05,2.683150840004458e-09,6.795643764076024e-05,2.683150840004458e-09,6.094256596398691e-05,2.683150840004458e-09,0.3795282444469212
2.702706616568053e-09,6.79564376586927e-05,2.702706616568053e-09,6.795643765961813e-05,2.702706616568053e-09,6.795643767700976e-05,2.702706616568053e-09,6.09425681782969e-05,2.702706616568053e-09,0.3903925647600293
2.725850249364559e-09,6.795643766067532e-05,2.725850249364559e-09,6.795643765717951e-05,2.725850249364559e-09,6.795643764745511e-05,2.725850249364559e-09,6.094256668643742e-05,2.725850249364559e-09,0.4032501385358659
2.754017301164059e-09,6.795643765917002e-05,2.754017301164059e-09,6.795643766466178e-05,2.754017301164059e-09,6.795643767379187e-05,2.754017301164059e-09,6.094256769318775e-05,2.754017301164059e-09,0.4188985006466991
2.784554590447878e-09,6.795643766022659e-05,2.784554590447878e-09,6.795643765560623e-05,2.784554590447878e-09,6.795643764820987e-05,2.784554590447878e-09,6.094256701927204e-05,2.784554590447878e-09,0.4358636613599324
2.813120231787435e-09,6.795643765958286e-05,2.813120231787435e-09,6.795643766327507e-05,2.813120231787435e-09,6.795643766636831e-05,2.813120231787435e-09,6.094256743290646e-05,2.813120231787435e-09,0.4517334621041305
2.842920733337441e-09,6.795643765996674e-05,2.842920733337441e-09,6.795643765396881e-05,2.842920733337441e-09,6.795643765745132e-05,2.842920733337441e-09,6.094256722654345e-05,2.842920733337441e-09,0.4682892962985783
2.867243662813169e-09,6.795643765954662e-05,2.867243662813169e-09,6.795643766479072e-05,2.867243662813169e-09,6.79564376609516e-05,2.867243662813169e-09,6.094256726303587e-05,2.867243662813169e-09,0.4818020348962051
2.895154013063977e-09,6.7956437659963e-05,2.895154013063977e-09,6.795643765550338e-05,2.895154013063977e-09,6.795643765977716e-05,2.895154013063977e-09,6.094256736001222e-05,2.895154013063977e-09,0.4973077850355428
2.921094972943634e-09,6.79564376598328e-05,2.921094972943634e-09,6.795643766351377e-05,2.921094972943634e-09,6.795643765613162e-05,2.921094972943634e-09,6.094256717084282e-05,2.921094972943634e-09,0.5117194294131299
2.972976892702947e-09,6.79564376601153e-05,2.972976892702947e-09,6.795643765612374e-05,2.972976892702947e-09,6.795643766074652e-05,2.972976892702947e-09,6.094256741515231e-05,2.972976892702947e-09,0.5405427181683038
3.015534443809219e-09,6.795643765660524e-05,3.015534443809219e-09,6.795643765977444e-05,3.015534443809219e-09,6.795643765853962e-05,3.015534443809219e-09,6.094256714023218e-05,3.015534443809219e-09,0.5641858021162325
3.058952952513389e-09,6.795643766283296e-05,3.058952952513389e-09,6.795643765689512e-05,3.058952952513389e-09,6.795643765825259e-05,3.058952952513389e-09,6.094256744337765e-05,3.058952952513389e-09,0.5883071958407715
3.070072085180842e-09,6.795643765809363e-05,3.070072085180842e-09,6.795643766152864e-05,3.070072085180842e-09,6.795643766207966e-05,3.070072085180842e-09,6.094256710037423e-05,3.070072085180842e-09,0.5944844917671344
3.092310350515748e-09,6.795643766143179e-05,3.092310350515748e-09,6.795643765543147e-05,3.092310350515748e-09,6.795643765885187e-05,3.092310350515748e-09,6.09425674746638e-05,3.092310350515748e-09,0.6068390836198601
3.0996382799085e-09,6.795643765899636e-05,3.0996382799085e-09,6.795643766194898e-05,3.0996382799085e-09,6.795643765904629e-05,3.0996382799085e-09,6.094256710286692e-05,3.0996382799085e-09,0.6109101555047221
3.114294138694003e-09,6.795643766049313e-05,3.114294138694003e-09,6.795643766000704e-05,3.114294138694003e-09,6.795643766066551e-05,3.114294138694003e-09,6.09425674581957e-05,3.114294138694003e-09,0.6190522992744462
3.118522099332306e-09,6.795643765987321e-05,3.118522099332306e-09,6.79564376596775e-05,3.118522099332306e-09,6.795643765589716e-05,3.118522099332306e-09,6.09425671233483e-05,3.118522099332306e-09,0.6214011662957257
3.126978020608913e-09,6.795643766034777e-05,3.126978020608913e-09,6.795643765711728e-05,3.126978020608913e-09,6.795643766096571e-05,3.126978020608913e-09,6.09425674048276e-05,3.126978020608913e-09,0.6260989003382847
3.13523670532323e-09,6.795643765978687e-05,3.13523670532323e-09,6.795643765938651e-05,3.13523670532323e-09,6.795643766047226e-05,3.13523670532323e-09,6.094256720053067e-05,3.13523670532323e-09,0.6306870585129053
3.143153413132835e-09,6.795643766257115e-05,3.143153413132835e-09,6.795643765930279e-05,3.143153413132835e-09,6.795643767017802e-05,3.143153413132835e-09,6.094256774412258e-05,3.143153413132835e-09,0.6350852295182419
3.152074375164334e-09,6.795643765771488e-05,3.152074375164334e-09,6.79564376605571e-05,3.152074375164334e-09,6.795643765262192e-05,3.152074375164334e-09,6.09425674865716e-05,3.152074375164334e-09,0.6400413195357411
3.155201714466566e-09,6.795643766384684e-05,3.155201714466566e-09,6.795643766085055e-05,3.155201714466566e-09,6.795643776607268e-05,3.155201714466566e-09,6.094256961989331e-05,3.155201714466566e-09,0.6417787302592035
3.161456393071031e-09,6.795643765033162e-05,3.161456393071031e-09,6.795643765934243e-05,3.161456393071031e-09,6.795643742566437e-05,3.161456393071031e-09,6.094256395119925e-05,3.161456393071031e-09,0.6452535517061286
3.169463697506514e-09,6.79564376115192e-05,3.169463697506514e-09,6.795643765885623e-05,3.169463697506514e-09,6.795643564324806e-05,3.169463697506514e-09,6.094250354651909e-05,3.169463697506514e-09,0.6497020541702855
3.178072358013896e-09,6.795643773913654e-05,3.178072358013896e-09,6.795643766014119e-05,3.178072358013896e-09,6.795643882500555e-05,3.178072358013896e-09,6.094252385900598e-05,3.178072358013896e-09,0.6544846433410535
3.186324396058096e-09,6.795643914754004e-05,3.186324396058096e-09,6.795643767470035e-05,3.186324396058096e-09,6.795649496092299e-05,3.186324396058096e-09,6.094423442379102e-05,3.186324396058096e-09,0.6590691089211647
3.197057002089234e-09,6.795643613741814e-05,3.197057002089234e-09,6.795643761512014e-05,3.197057002089234e-09,6.795637108174384e-05,3.197057002089234e-09,6.094264949170528e-05,3.197057002089234e-09,0.6650316678273525
3.204665144053005e-09,6.795642159421269e-05,3.204665144053005e-09,6.795643729499593e-05,3.204665144053005e-09,6.795415166993919e-05,3.204665144053005e-09,6.087886344166495e-05,3.204665144053005e-09,0.6692584133627806
3.212316912164048e-09,6.795642602091075e-05,3.212316912164048e-09,6.795643874891052e-05,3.212316912164048e-09,6.795719017658826e-05,3.212316912164048e-09,6.088551015053997e-05,3.212316912164048e-09,0.6735093956466931
3.219485183930471e-09,6.795651815531291e-05,3.219485183930471e-09,6.795643867461575e-05,3.219485183930471e-09,6.796728057444136e-05,3.219485183930471e-09,6.117867818766475e-05,3.219485183930471e-09,0.6774917688502617
3.225448889258232e-09,6.79565094229385e-05,3.225448889258232e-09,6.795643161677852e-05,3.225448889258232e-09,6.794890809592648e-05,3.225448889258232e-09,6.102036949999527e-05,3.225448889258232e-09,0.6808049384767958
3.233703841765113e-09,6.795637231277635e-05,3.233703841765113e-09,6.795644317211185e-05,3.233703841765113e-09,6.795094680393346e-05,3.233703841765113e-09,6.080305065778375e-05,3.233703841765113e-09,0.6853910232028404
3.241677208398726e-09,6.795643746599665e-05,3.241677208398726e-09,6.795643713596883e-05,3.241677208398726e-09,6.796105237422156e-05,3.241677208398726e-09,6.091571814796942e-05,3.241677208398726e-09,0.6898206713326255
3.248880969571555e-09,6.795637021976681e-05,3.248880969571555e-09,6.795643484304712e-05,3.248880969571555e-09,6.795648458330889e-05,3.248880969571555e-09,6.093018315290536e-05,3.248880969571555e-09,0.6938227608730863
3.256097643064766e-09,6.795615837555036e-05,3.256097643064766e-09,6.795643859745959e-05,3.256097643064766e-09,6.79571715012689e-05,3.256097643064766e-09,6.09475546364659e-05,3.256097643064766e-09,0.69783202392487
3.262547491180572e-09,6.795601214114879e-05,3.262547491180572e-09,6.795643567828785e-05,3.262547491180572e-09,6.795309428221392e-05,3.262547491180572e-09,6.084338533841866e-05,3.262547491180572e-09,0.7014152728780954
3.268229538727762e-09,6.795176606614064e-05,3.268229538727762e-09,6.795641806582916e-05,3.268229538727762e-09,6.79514731276193e-05,3.268229538727762e-09,6.061380004345267e-05,3.268229538727762e-09,0.7045719659598676
3.272394855388886e-09,6.792741087706043e-05,3.272394855388886e-09,6.795629121504166e-05,3.272394855388886e-09,6.795293320233511e-05,3.272394855388886e-09,5.996914141995467e-05,3.272394855388886e-09,0.7068860307716036
3.276425195931828e-09,6.790874784774663e-05,3.276425195931828e-09,6.79563417539137e-05,3.276425195931828e-09,6.796424175050675e-05,3.276425195931828e-09,5.923911461418759e-05,3.276425195931828e-09,0.7091251088510154
3.280090055601598e-09,6.806780243005315e-05,3.280090055601598e-09,6.795752726532111e-05,3.280090055601598e-09,6.797244102194376e-05,3.280090055601598e-09,6.181554336409825e-05,3.280090055601598e-09,0.7111611420008878
3.283575375734537e-09,6.888011156816263e-05,3.283575375734537e-09,6.796188283281913e-05,3.283575375734537e-09,6.797531359877616e-05,3.283575375734537e-09,7.887576094068773e-05,3.283575375734537e-09,0.7130974309636313
3.286969070595834e-09,6.962039774621052e-05,3.286969070595834e-09,6.796109464045725e-05,3.286969070595834e-09,6.797027155628827e-05,3.286969070595834e-09,0.0001044664448497157,3.286969070595834e-09,0.7149828169976855
3.289566158339511e-09,6.89929426307354e-05,3.289566158339511e-09,6.795075001535852e-05,3.289566158339511e-09,6.796994687537575e-05,3.289566158339511e-09,0.0001021988938999431,3.289566158339511e-09,0.7164256435219504
3.291979668843603e-09,6.779764836500956e-05,3.291979668843603e-09,6.794438711265987e-05,3.291979668843603e-09,6.796064450056927e-05,3.291979668843603e-09,3.271641409970715e-05,3.291979668843603e-09,0.7177664826908906
3.294896783108907e-09,6.663234629313568e-05,3.294896783108907e-09,6.794819719886501e-05,3.294896783108907e-09,6.793169169668811e-05,3.294896783108907e-09,-0.0002635426342904548,3.294896783108907e-09,0.7193871017271707
3.298197220824329e-09,6.100888034595029e-05,3.298197220824329e-09,6.796173203446573e-05,3.298197220824329e-09,6.791653064481253e-05,3.298197220824329e-09,-0.0009385306163694434,3.298197220824329e-09,0.7212206782357385
3.30216921602904e-09,4.979935966770297e-05,3.30216921602904e-09,6.797830712575601e-05,3.30216921602904e-09,6.794682419961081e-05,3.30216921602904e-09,-0.001207755179069099,3.30216921602904e-09,0.7234273422383555
3.304962685381825e-09,4.928145216473943e-05,3.304962685381825e-09,6.796212038399441e-05,3.304962685381825e-09,6.795594133421806e-05,3.304962685381825e-09,-0.0009151247884480994,3.304962685381825e-09,0.7249792696565693
3.307666118213035e-09,5.964293677289876e-05,3.307666118213035e-09,6.794717539320921e-05,3.307666118213035e-09,6.795040216275878e-05,3.307666118213035e-09,-0.0005339726485236629,3.307666118213035e-09,0.7264811767850196
3.310466934161758e-09,8.274121263350225e-05,3.310466934161758e-09,6.795514570128717e-05,3.310466934161758e-09,6.794890103424927e-05,3.310466934161758e-09,-0.0002451493041055907,3.310466934161758e-09,0.7280371856454213
3.313075623941012e-09,0.0001225319354494318,3.313075623941012e-09,6.797569119212442e-05,3.313075623941012e-09,6.794816310069146e-05,3.313075623941012e-09,-0.000315858748129543,3.313075623941012e-09,0.7294864577450064
3.315488556723233e-09,0.0001896966216201679,3.315488556723233e-09,6.799180611959734e-05,3.315488556723233e-09,6.795366782795084e-05,3.315488556723233e-09,-0.0007882471549260631,3.315488556723233e-09,0.7308269759573517
3.318235211544501e-09,0.0003533994032506474,3.318235211544501e-09,6.79769336405474e-05,3.318235211544501e-09,6.796298087500753e-05,3.318235211544501e-09,-0.001704599942455008,3.318235211544501e-09,0.7323528953025005
3.321381097717182e-09,0.0004062605997620307,3.321381097717182e-09,6.793468152519213e-05,3.321381097717182e-09,6.797724072243321e-05,3.321381097717182e-09,-0.002743858663201539,3.321381097717182e-09,0.7341006098428788
3.324145309779052e-09,-0.002795628144438918,3.324145309779052e-09,6.789808090127055e-05,3.324145309779052e-09,6.797932753656117e-05,3.324145309779052e-09,-0.003385745124832535,3.324145309779052e-09,0.7356362832105843
3.327048678435229e-09,-0.0107303691214541,3.327048678435229e-09,6.78785729738647e-05,3.327048678435229e-09,6.797553896205839e-05,3.327048678435229e-09,-0.00359515387332678,3.327048678435229e-09,0.7372492657973494
3.32998675419723e-09,-0.01154595838473732,3.32998675419723e-09,6.789235602468908e-05,3.32998675419723e-09,6.797012664623328e-05,3.32998675419723e-09,-0.003168603331750528,3.32998675419723e-09,0.7388815301095721
3.332613094007931e-09,0.02122566187665363,3.332613094007931e-09,6.792870664501434e-05,3.332613094007931e-09,6.795961378357753e-05,3.332613094007931e-09,-0.002361686905503536,3.332613094007931e-09,0.740340607782184
3.33509974286067e-09,0.09846414737813011,3.33509974286067e-09,6.796132769479489e-05,3.33509974286067e-09,6.794348829881609e-05,3.33509974286067e-09,-0.001661228065145126,3.33509974286067e-09,0.7417220793670388
3.337226265263834e-09,0.1921447481866234,3.337226265263834e-09,6.799700177702492e-05,3.337226265263834e-09,6.794682043771274e-05,3.337226265263834e-09,-0.0009534612844994428,3.337226265263834e-09,0.7429034807021299
3.339777270803591e-09,0.3204036604659736,3.339777270803591e-09,6.802352392676651e-05,3.339777270803591e-09,6.795590744634269e-05,3.339777270803591e-09,0.0002095348266438586,3.339777270803591e-09,0.7443207060019951
3.342584472549925e-09,0.4721268859508514,3.342584472549925e-09,6.800650086785614e-05,3.342584472549925e-09,6.794651751694545e-05,3.342584472549925e-09,0.001442580068603327,3.342584472549925e-09,0.7458802625277359
3.34527771893323e-09,0.6114460998073354,3.34527771893323e-09,6.798335735435572e-05,3.34527771893323e-09,6.794361344637198e-05,3.34527771893323e-09,0.002379744982438931,3.34527771893323e-09,0.7473765105184611
3.34814281511208e-09,0.7317244659482131,3.34814281511208e-09,6.796453054358936e-05,3.34814281511208e-09,6.794361858409193e-05,3.34814281511208e-09,0.002932743549474408,3.34814281511208e-09,0.7489682306178224
3.350663742082655e-09,0.8041834303509958,3.350663742082655e-09,6.795897141222073e-05,3.350663742082655e-09,6.79492449007595e-05,3.350663742082655e-09,0.003061628940990377,3.350663742082655e-09,0.7503687456014749
3.353265386644641e-09,0.8681084348525738,3.353265386644641e-09,6.796003202348986e-05,3.353265386644641e-09,6.795676905159108e-05,3.353265386644641e-09,0.002947007943122564,3.353265386644641e-09,0.7518141036914672
3.356105815104049e-09,1.00544788840666,3.356105815104049e-09,6.796085086337102e-05,3.356105815104049e-09,6.796164252258373e-05,3.356105815104049e-09,0.002635822396575499,3.356105815104049e-09,0.7533921195022492
3.358737779679041e-09,1.335142630319022,3.358737779679041e-09,6.796133175514348e-05,3.358737779679041e-09,6.796407715047133e-05,3.358737779679041e-09,0.002266564962577678,3.358737779679041e-09,0.7548543220439117
3.360808049533458e-09,1.84185458746998,3.360808049533458e-09,6.796069251710508e-05,3.360808049533458e-09,6.796444591977933e-05,3.360808049533458e-09,0.001982561610380366,3.360808049533458e-09,0.756004471963032
3.362779103551103e-09,2.522796357411985,3.362779103551103e-09,6.795944991239382e-05,3.362779103551103e-09,6.796376004799419e-05,3.362779103551103e-09,0.001739299867717982,3.362779103551103e-09,0.7570995019728352
3.364022671791239e-09,3.001041539617166,3.364022671791239e-09,6.795770974537181e-05,3.364022671791239e-09,6.796230884040699e-05,3.364022671791239e-09,0.001598141624799401,3.364022671791239e-09,0.7577903732173551
