/net039 X,/net039 Y,/net010 X,/net010 Y,/net09 X,/net09 Y,/net08 X,/net08 Y,/net02 X,/net02 Y
0,6.795643765973995e-05,0,6.795643765974498e-05,0,6.795643765977771e-05,0,6.094256728544367e-05,0,0
1.5e-11,6.795643765978603e-05,1.5e-11,6.795643765978729e-05,1.5e-11,6.795643765984998e-05,1.5e-11,6.094256728570739e-05,1.5e-11,0
4.5e-11,6.795643765969844e-05,4.5e-11,6.795643765969817e-05,4.5e-11,6.795643765986672e-05,4.5e-11,6.094256728572242e-05,4.5e-11,0
1.05e-10,6.795643765991436e-05,1.05e-10,6.795643765703917e-05,1.05e-10,6.795643765966499e-05,1.05e-10,6.094256728577435e-05,1.05e-10,0
2.25e-10,6.795643766271587e-05,2.25e-10,6.795643765911061e-05,2.25e-10,6.795643765983535e-05,2.25e-10,6.094256728542252e-05,2.25e-10,0
4.65e-10,6.795643765702951e-05,4.65e-10,6.795643766353254e-05,4.65e-10,6.795643765990174e-05,4.65e-10,6.094256728568608e-05,4.65e-10,0
7.649999999999999e-10,6.795643766269155e-05,7.649999999999999e-10,6.795643765608184e-05,7.649999999999999e-10,6.795643765987985e-05,7.649999999999999e-10,6.094256728541958e-05,7.649999999999999e-10,0
1.065e-09,6.795643765709628e-05,1.065e-09,6.795643766056821e-05,1.065e-09,6.795643765966002e-05,1.065e-09,6.094256728556308e-05,1.065e-09,0
1.365e-09,6.795643766275053e-05,1.365e-09,6.795643765890406e-05,1.365e-09,6.795643766014423e-05,1.365e-09,6.094256728554859e-05,1.365e-09,0
1.665e-09,6.795643765667406e-05,1.665e-09,6.795643766075327e-05,1.665e-09,6.795643765945686e-05,1.665e-09,6.094256728553234e-05,1.665e-09,0
1.8325e-09,6.79564376596809e-05,1.8325e-09,6.795643765868906e-05,1.8325e-09,6.795643766034144e-05,1.8325e-09,6.094256728545606e-05,1.8325e-09,0
2e-09,6.795643766000124e-05,2e-09,6.795643766087552e-05,2e-09,6.795643765961376e-05,2e-09,6.094256728550128e-05,2e-09,0
2.120144127384571e-09,6.795643765968644e-05,2.120144127384571e-09,6.79564376597113e-05,2.120144127384571e-09,6.795643765971058e-05,2.120144127384571e-09,6.094256728640058e-05,2.120144127384571e-09,0.06674673743587282
2.261585129605973e-09,6.79564376567305e-05,2.261585129605973e-09,6.795643765981511e-05,2.261585129605973e-09,6.795643765668311e-05,2.261585129605973e-09,6.09425672576549e-05,2.261585129605973e-09,0.1453250720033182
2.400273538304042e-09,6.79564376627731e-05,2.400273538304042e-09,6.795643766251853e-05,2.400273538304042e-09,6.795643766317133e-05,2.400273538304042e-09,6.094256740710866e-05,2.400273538304042e-09,0.2223741879466899
2.455693803734389e-09,6.795643765701306e-05,2.455693803734389e-09,6.795643765739298e-05,2.455693803734389e-09,6.795643765624162e-05,2.455693803734389e-09,6.094256662105076e-05,2.455693803734389e-09,0.2531632242968827
2.483403936449563e-09,6.79564376591876e-05,2.483403936449563e-09,6.795643766188653e-05,2.483403936449563e-09,6.795643766896946e-05,2.483403936449563e-09,6.094256946740762e-05,2.483403936449563e-09,0.2685577424719792
2.53882420187991e-09,6.795643766319695e-05,2.53882420187991e-09,6.795643766076635e-05,2.53882420187991e-09,6.795643764873592e-05,2.53882420187991e-09,6.094256452939373e-05,2.53882420187991e-09,0.2993467788221722
2.561274479319915e-09,6.795643765711531e-05,2.561274479319915e-09,6.795643766197201e-05,2.561274479319915e-09,6.795643768027314e-05,2.561274479319915e-09,6.094256988936223e-05,2.561274479319915e-09,0.3118191551777303
2.572499618039917e-09,6.795643766158064e-05,2.572499618039917e-09,6.795643765860112e-05,2.572499618039917e-09,6.795643764384714e-05,2.572499618039917e-09,6.094256780395289e-05,2.572499618039917e-09,0.3180553433555093
2.594949895479921e-09,6.795643766086286e-05,2.594949895479921e-09,6.795643766125064e-05,2.594949895479921e-09,6.795643766231155e-05,2.594949895479921e-09,6.09425654213232e-05,2.594949895479921e-09,0.3305277197110673
2.62019183797893e-09,6.795643765885859e-05,2.62019183797893e-09,6.795643765847771e-05,2.62019183797893e-09,6.795643766892759e-05,2.62019183797893e-09,6.094256956692975e-05,2.62019183797893e-09,0.3445510210994054
2.641152210963038e-09,6.79564376578345e-05,2.641152210963038e-09,6.795643766060883e-05,2.641152210963038e-09,6.795643763818421e-05,2.641152210963038e-09,6.094256511103896e-05,2.641152210963038e-09,0.3561956727572434
2.661831460741945e-09,6.795643765866288e-05,2.661831460741945e-09,6.795643765926819e-05,2.661831460741945e-09,6.795643768497222e-05,2.661831460741945e-09,6.094256905421839e-05,2.661831460741945e-09,0.3676841448566363
2.683150840004472e-09,6.795643766039612e-05,2.683150840004472e-09,6.795643766028811e-05,2.683150840004472e-09,6.795643763498503e-05,2.683150840004472e-09,6.09425659626549e-05,2.683150840004472e-09,0.3795282444469291
2.702706616568061e-09,6.795643765935388e-05,2.702706616568061e-09,6.795643765911619e-05,2.702706616568061e-09,6.795643767969225e-05,2.702706616568061e-09,6.094256817923406e-05,2.702706616568061e-09,0.3903925647600341
2.725850249364576e-09,6.795643766020735e-05,2.725850249364576e-09,6.795643766061693e-05,2.725850249364576e-09,6.795643764519828e-05,2.725850249364576e-09,6.094256668486799e-05,2.725850249364576e-09,0.4032501385358753
2.754017301164087e-09,6.79564376594853e-05,2.754017301164087e-09,6.795643765922989e-05,2.754017301164087e-09,6.795643767006685e-05,2.754017301164087e-09,6.094256769415533e-05,2.754017301164087e-09,0.4188985006467152
2.784554590447929e-09,6.795643766004449e-05,2.784554590447929e-09,6.795643766010743e-05,2.784554590447929e-09,6.795643765097468e-05,2.784554590447929e-09,6.094256701826918e-05,2.784554590447929e-09,0.4358636613599605
2.813120231787473e-09,6.795643765953413e-05,2.813120231787473e-09,6.795643765967487e-05,2.813120231787473e-09,6.795643766720349e-05,2.813120231787473e-09,6.094256743347622e-05,2.813120231787473e-09,0.4517334621041515
2.842920733337487e-09,6.795643765691875e-05,2.842920733337487e-09,6.795643766000824e-05,2.842920733337487e-09,6.795643765427347e-05,2.842920733337487e-09,6.094256722643652e-05,2.842920733337487e-09,0.4682892962986036
2.867243662813174e-09,6.795643766209837e-05,2.867243662813174e-09,6.795643766244451e-05,2.867243662813174e-09,6.795643766417042e-05,2.867243662813174e-09,6.094256726288236e-05,2.867243662813174e-09,0.4818020348962076
2.895154013063981e-09,6.795643765774025e-05,2.895154013063981e-09,6.795643765760109e-05,2.895154013063981e-09,6.795643765631952e-05,2.895154013063981e-09,6.094256735966024e-05,2.895154013063981e-09,0.4973077850355447
2.921094972943629e-09,6.795643766165704e-05,2.921094972943629e-09,6.795643766166812e-05,2.921094972943629e-09,6.795643766222699e-05,2.921094972943629e-09,6.094256717123993e-05,2.921094972943629e-09,0.5117194294131273
2.972976892702927e-09,6.795643765807087e-05,2.972976892702927e-09,6.795643765771126e-05,2.972976892702927e-09,6.795643765774635e-05,2.972976892702927e-09,6.094256741518674e-05,2.972976892702927e-09,0.5405427181682925
3.015534443809199e-09,6.795643766158869e-05,3.015534443809199e-09,6.795643766162638e-05,3.015534443809199e-09,6.795643766159629e-05,3.015534443809199e-09,6.094256714086029e-05,3.015534443809199e-09,0.5641858021162215
3.058952952513343e-09,6.795643766100401e-05,3.058952952513343e-09,6.795643765819358e-05,3.058952952513343e-09,6.795643765857442e-05,3.058952952513343e-09,6.094256744274222e-05,3.058952952513343e-09,0.5883071958407463
3.070072085180808e-09,6.795643765926228e-05,3.070072085180808e-09,6.795643766079133e-05,3.070072085180808e-09,6.795643765979382e-05,3.070072085180808e-09,6.094256710089412e-05,3.070072085180808e-09,0.5944844917671158
3.092310350515739e-09,6.795643766034642e-05,3.092310350515739e-09,6.795643766158208e-05,3.092310350515739e-09,6.795643766011289e-05,3.092310350515739e-09,6.094256747394959e-05,3.092310350515739e-09,0.6068390836198547
3.099638279908494e-09,6.795643765940993e-05,3.099638279908494e-09,6.795643766133056e-05,3.099638279908494e-09,6.795643765885891e-05,3.099638279908494e-09,6.094256710391819e-05,3.099638279908494e-09,0.6109101555047188
3.114294138694005e-09,6.795643765743143e-05,3.114294138694005e-09,6.795643765899743e-05,3.114294138694005e-09,6.795643766110638e-05,3.114294138694005e-09,6.094256745634243e-05,3.114294138694005e-09,0.6190522992744472
3.118522099332309e-09,6.79564376602521e-05,3.118522099332309e-09,6.795643766034202e-05,3.118522099332309e-09,6.795643765685597e-05,3.118522099332309e-09,6.094256709768569e-05,3.118522099332309e-09,0.6214011662957271
3.126978020608917e-09,6.795643765898425e-05,3.126978020608917e-09,6.795643765942512e-05,3.126978020608917e-09,6.795643766023478e-05,3.126978020608917e-09,6.094256740301518e-05,3.126978020608917e-09,0.6260989003382871
3.135236705323223e-09,6.795643766050087e-05,3.135236705323223e-09,6.795643765817581e-05,3.135236705323223e-09,6.795643766768566e-05,3.135236705323223e-09,6.09425673855378e-05,3.135236705323223e-09,0.6306870585129019
3.143153413132659e-09,6.795643765953586e-05,3.143153413132659e-09,6.795643766226712e-05,3.143153413132659e-09,6.795643765691825e-05,3.143153413132659e-09,6.094256753901776e-05,3.143153413132659e-09,0.6350852295181442
3.152074375164465e-09,6.795643765789023e-05,3.152074375164465e-09,6.795643765812827e-05,3.152074375164465e-09,6.795643765620325e-05,3.152074375164465e-09,6.094256728376248e-05,3.152074375164465e-09,0.6400413195358137
3.155201714466562e-09,6.795643766189736e-05,3.155201714466562e-09,6.795643766140284e-05,3.155201714466562e-09,6.795643779496537e-05,3.155201714466562e-09,6.0942569924916e-05,3.155201714466562e-09,0.641778730259201
3.161456393070756e-09,6.795643765201384e-05,3.161456393070756e-09,6.795643766014915e-05,3.161456393070756e-09,6.795643742231369e-05,3.161456393070756e-09,6.094256417590237e-05,3.161456393070756e-09,0.6452535517059758
3.169463697506147e-09,6.795643760979418e-05,3.169463697506147e-09,6.795643765835054e-05,3.169463697506147e-09,6.79564356234422e-05,3.169463697506147e-09,6.094250319862129e-05,3.169463697506147e-09,0.6497020541700818
3.178072358013627e-09,6.795643774046803e-05,3.178072358013627e-09,6.79564376627312e-05,3.178072358013627e-09,6.795643885254737e-05,3.178072358013627e-09,6.094252417129354e-05,3.178072358013627e-09,0.6544846433409039
3.186324396059577e-09,6.795643914667027e-05,3.186324396059577e-09,6.795643767576378e-05,3.186324396059577e-09,6.795649507664012e-05,3.186324396059577e-09,6.094423836949294e-05,3.186324396059577e-09,0.6590691089219872
3.197057002091448e-09,6.79564361385256e-05,3.197057002091448e-09,6.795643760996923e-05,3.197057002091448e-09,6.795637079707398e-05,3.197057002091448e-09,6.094264504409136e-05,3.197057002091448e-09,0.6650316678285821
3.204665144156899e-09,6.795642159534819e-05,3.204665144156899e-09,6.795643728126499e-05,3.204665144156899e-09,6.795415205242734e-05,3.204665144156899e-09,6.087886747025264e-05,3.204665144156899e-09,0.6692584134204992
3.212316912633274e-09,6.795642602122388e-05,3.212316912633274e-09,6.795643877636194e-05,3.212316912633274e-09,6.795719423494756e-05,3.212316912633274e-09,6.088562965009131e-05,3.212316912633274e-09,0.6735093959073747
3.219485185343435e-09,6.795651815704102e-05,3.219485185343435e-09,6.795643869904072e-05,3.219485185343435e-09,6.79672730628262e-05,3.219485185343435e-09,6.117861862511213e-05,3.219485185343435e-09,0.6774917696352415
3.225448891545867e-09,6.79565094228125e-05,3.225448891545867e-09,6.795643158810215e-05,3.225448891545867e-09,6.794889589700728e-05,3.225448891545867e-09,6.102000075068955e-05,3.225448891545867e-09,0.6808049397477038
3.233703821719716e-09,6.79563723208269e-05,3.233703821719716e-09,6.795644313851872e-05,3.233703821719716e-09,6.795096431542299e-05,3.233703821719716e-09,6.080310890552537e-05,3.233703821719716e-09,0.6853910120665089
3.241677126370591e-09,6.795643745542201e-05,3.241677126370591e-09,6.795643708951572e-05,3.241677126370591e-09,6.796105972570544e-05,3.241677126370591e-09,6.091608778599157e-05,3.241677126370591e-09,0.6898206257614392
3.248880889791218e-09,6.795637022522667e-05,3.248880889791218e-09,6.795643498727321e-05,3.248880889791218e-09,6.795646772978165e-05,3.248880889791218e-09,6.0930125892988e-05,3.248880889791218e-09,0.6938227165506768
3.256097555086694e-09,6.795615838580584e-05,3.256097555086694e-09,6.795643862099094e-05,3.256097555086694e-09,6.795717738045502e-05,3.256097555086694e-09,6.094758354932028e-05,3.256097555086694e-09,0.6978319750481635
3.262547424272353e-09,6.795601213823214e-05,3.262547424272353e-09,6.795643553706296e-05,3.262547424272353e-09,6.795308916792928e-05,3.262547424272353e-09,6.084331303740796e-05,3.262547424272353e-09,0.7014152357068629
3.268229464279986e-09,6.79517662430245e-05,3.268229464279986e-09,6.79564180770325e-05,3.268229464279986e-09,6.795148444425554e-05,3.268229464279986e-09,6.061398805119414e-05,3.268229464279986e-09,0.7045719245999922
3.272394785733982e-09,6.79274114599607e-05,3.272394785733982e-09,6.795629119257253e-05,3.272394785733982e-09,6.795293475904335e-05,3.272394785733982e-09,5.996937193538345e-05,3.272394785733982e-09,0.7068859920744341
3.276425115439503e-09,6.790874736120745e-05,3.276425115439503e-09,6.7956341742996e-05,3.276425115439503e-09,6.796424310670228e-05,3.276425115439503e-09,5.923933275991911e-05,3.276425115439503e-09,0.7091250641330571
3.280089989806999e-09,6.806779446285185e-05,3.280089989806999e-09,6.795752730113806e-05,3.280089989806999e-09,6.797243400512372e-05,3.280089989806999e-09,6.181550837172295e-05,3.280089989806999e-09,0.711161105448333
3.28357530485474e-09,6.888008915236868e-05,3.28357530485474e-09,6.796188285873014e-05,3.28357530485474e-09,6.797528356817634e-05,3.28357530485474e-09,7.887478549977454e-05,3.28357530485474e-09,0.7130973915859666
3.286968992566164e-09,6.962039716749548e-05,3.286968992566164e-09,6.796109482244092e-05,3.286968992566164e-09,6.797023395132878e-05,3.286968992566164e-09,0.0001044650306937541,3.286968992566164e-09,0.714982773647869
3.289566100542753e-09,6.89929692892191e-05,3.289566100542753e-09,6.795075021239679e-05,3.289566100542753e-09,6.796991759574556e-05,3.289566100542753e-09,0.0001021981943885247,3.289566100542753e-09,0.7164256114126404
3.291979604626373e-09,6.779767694719202e-05,3.291979604626373e-09,6.794438708045256e-05,3.291979604626373e-09,6.79606340774773e-05,3.291979604626373e-09,3.271855510093997e-05,3.291979604626373e-09,0.7177664470146516
3.294896710044388e-09,6.66323858348172e-05,3.294896710044388e-09,6.79481968385998e-05,3.294896710044388e-09,6.793168652768908e-05,3.294896710044388e-09,-0.0002635317413078956,3.294896710044388e-09,0.7193870611357709
3.298197136254715e-09,6.10091365285543e-05,3.298197136254715e-09,6.796173158953591e-05,3.298197136254715e-09,6.791657714708389e-05,3.298197136254715e-09,-0.0009385155837145387,3.298197136254715e-09,0.7212206312526196
3.302169209121939e-09,4.979941236527734e-05,3.302169209121939e-09,6.797830712501324e-05,3.302169209121939e-09,6.794692136987477e-05,3.302169209121939e-09,-0.001207756002905905,3.302169209121939e-09,0.7234273384010774
3.304962681597977e-09,4.928140284329263e-05,3.304962681597977e-09,6.79621208066218e-05,3.304962681597977e-09,6.795601139623755e-05,3.304962681597977e-09,-0.0009151250023568496,3.304962681597977e-09,0.7249792675544315
3.307666122180328e-09,5.96429173054519e-05,3.307666122180328e-09,6.794717536305293e-05,3.307666122180328e-09,6.795041918591966e-05,3.307666122180328e-09,-0.0005339712805613111,3.307666122180328e-09,0.7264811789890709
3.310466931483004e-09,8.274113073621016e-05,3.310466931483004e-09,6.795514561513895e-05,3.310466931483004e-09,6.794888255794219e-05,3.310466931483004e-09,-0.0002451488021957055,3.310466931483004e-09,0.7280371841572242
3.313075624153256e-09,0.0001225319047897926,3.313075624153256e-09,6.797569111298857e-05,3.313075624153256e-09,6.794812906621172e-05,3.313075624153256e-09,-0.0003158579975760633,3.313075624153256e-09,0.72948645786292
3.31548855640823e-09,0.0001896965633946116,3.31548855640823e-09,6.799180605502182e-05,3.31548855640823e-09,6.795363114273831e-05,3.31548855640823e-09,-0.0007882466874330699,3.31548855640823e-09,0.7308269757823499
3.318235212826976e-09,0.0003533994918968634,3.318235212826976e-09,6.797693363464885e-05,3.318235212826976e-09,6.796293982786328e-05,3.318235212826976e-09,-0.001704600174828095,3.318235212826976e-09,0.7323528960149867
3.321381100727213e-09,0.0004062598972119639,3.321381100727213e-09,6.793468148158594e-05,3.321381100727213e-09,6.79772025775985e-05,3.321381100727213e-09,-0.002743859812223413,3.321381100727213e-09,0.7341006115151182
3.324145312382555e-09,-0.002795633065869377,3.324145312382555e-09,6.789808092898875e-05,3.324145312382555e-09,6.797929901326739e-05,3.324145312382555e-09,-0.003385746021498404,3.324145312382555e-09,0.7356362846569751
3.327048681545593e-09,-0.01073037688425547,3.327048681545593e-09,6.787857297315852e-05,3.327048681545593e-09,6.797552609761453e-05,3.327048681545593e-09,-0.003595154462871263,3.327048681545593e-09,0.7372492675253292
3.329986756468175e-09,-0.0115459498293103,3.329986756468175e-09,6.789235610008737e-05,3.329986756468175e-09,6.797012551211585e-05,3.329986756468175e-09,-0.003168603267750723,3.329986756468175e-09,0.7388815313712083
3.332613096510144e-09,0.0212257122314476,3.332613096510144e-09,6.792870664950168e-05,3.332613096510144e-09,6.795961971268726e-05,3.332613096510144e-09,-0.002361686704381223,3.332613096510144e-09,0.7403406091723024
3.335099744159037e-09,0.09846419339414815,3.335099744159037e-09,6.796132773653989e-05,3.335099744159037e-09,6.794349681227536e-05,3.335099744159037e-09,-0.001661228053309784,3.335099744159037e-09,0.7417220800883537
3.337226266570394e-09,0.1921448015421592,3.337226266570394e-09,6.799700175912994e-05,3.337226266570394e-09,6.794683052429038e-05,3.337226266570394e-09,-0.0009534610796980023,3.337226266570394e-09,0.7429034814279967
3.339777272065968e-09,0.3204037177651481,3.339777272065968e-09,6.80235239364555e-05,3.339777272065968e-09,6.795591716701221e-05,3.339777272065968e-09,0.0002095352331603033,3.339777272065968e-09,0.7443207067033154
3.342584474037525e-09,0.4721269568394008,3.342584474037525e-09,6.800650081624882e-05,3.342584474037525e-09,6.79465264688154e-05,3.342584474037525e-09,0.001442580514288972,3.342584474037525e-09,0.7458802633541805
3.345277719116199e-09,0.6114461016547433,3.345277719116199e-09,6.798335736646264e-05,3.345277719116199e-09,6.794362085622641e-05,3.345277719116199e-09,0.002379745014072653,3.345277719116199e-09,0.7473765106201107
3.348142814993648e-09,0.7317244555750998,3.348142814993648e-09,6.79645305182473e-05,3.348142814993648e-09,6.79436246297251e-05,3.348142814993648e-09,0.002932743517871164,3.348142814993648e-09,0.7489682305520269
3.350663741763528e-09,0.804183418856911,3.350663741763528e-09,6.795897143472265e-05,3.350663741763528e-09,6.794924952650049e-05,3.350663741763528e-09,0.003061629017167968,3.350663741763528e-09,0.7503687454241823
3.353265386274474e-09,0.868108418501103,3.353265386274474e-09,6.796003200671155e-05,3.353265386274474e-09,6.795677230809887e-05,3.353265386274474e-09,0.00294700802211897,3.353265386274474e-09,0.751814103485819
3.356105814534284e-09,1.005447832360983,3.356105814534284e-09,6.796085088484313e-05,3.356105814534284e-09,6.796164458382834e-05,3.356105814534284e-09,0.00263582258597892,3.356105814534284e-09,0.7533921191857134
3.358737779120608e-09,1.335142497467285,3.358737779120608e-09,6.796133174098019e-05,3.358737779120608e-09,6.796407815707204e-05,3.358737779120608e-09,0.002266565108329787,3.358737779120608e-09,0.7548543217336712
3.360808049003216e-09,1.841854377984698,3.360808049003216e-09,6.796069253546527e-05,3.360808049003216e-09,6.796444656707255e-05,3.360808049003216e-09,0.001982561788849922,3.360808049003216e-09,0.7560044716684535
3.362779102870252e-09,2.52279604384209,3.362779102870252e-09,6.795944990225748e-05,3.362779102870252e-09,6.796376006765812e-05,3.362779102870252e-09,0.001739300004016255,3.362779102870252e-09,0.7570995015945845
3.364022671131171e-09,3.001041229840243,3.364022671131171e-09,6.795770975977614e-05,3.364022671131171e-09,6.796230895492414e-05,3.364022671131171e-09,0.001598141792555959,3.364022671131171e-09,0.7577903728506503
