/out0 X,/out0 Y,/out1 X,/out1 Y,/out2 X,/out2 Y
0,0.07739942374639532,0,0.1825785708495128,0,0.07503504171565308
2e-05,0.07739955519779337,2e-05,0.18257857085094,2e-05,0.07503504171565281
4e-05,0.07739955521912457,4e-05,0.1825785708509419,4e-05,0.07503504171565281
6.000000000000001e-05,0.07739955521929508,6.000000000000001e-05,0.1825785708512235,6.000000000000001e-05,0.07503504171557641
8.000000000000001e-05,0.07739955521914225,8.000000000000001e-05,0.1825785708507641,8.000000000000001e-05,0.07503504171575293
0.0001,0.07739955521928001,0.0001,0.1825785708498266,0.0001,0.07503504171557115
0.00012,0.07739955521913526,0.00012,0.1825785708504744,0.00012,0.07503504171575799
0.00014,0.07739955521940675,0.00014,0.1825785708523052,0.00014,0.07503504171563857
0.00016,0.07739955521927155,0.00016,0.1825785708493827,0.00016,0.07503504171573319
0.00018,0.07739955521936932,0.00018,0.1825785708523521,0.00018,0.07503504171559079
0.0002,0.07739955521921586,0.0002,0.1825785708488066,0.0002,0.07503504171576376
0.00022,0.07739955521932074,0.00022,0.1825785708520966,0.00022,0.07503504171555156
0.00024,0.07739955521924947,0.00024,0.1825785708497087,0.00024,0.07503504171575864
0.00026,0.07739955521925219,0.00026,0.1825785708509988,0.00026,0.07503504171557671
0.00028,0.07739955521927314,0.00028,0.1825785708513802,0.00028,0.07503504171562818
0.0003,0.07739955521921965,0.0003,0.1825785708498799,0.0003,0.07503504171568408
0.00032,0.07739955521949307,0.00032,0.1825785708509509,0.00032,0.07503504171555965
0.00034,0.07739955521902486,0.00034,0.1825785708513309,0.00034,0.07503504171576697
0.00036,0.07739955521953305,0.00036,0.1825785708500145,0.00036,0.07503504171556025
0.00038,0.07739955521887576,0.00038,0.1825785708516114,0.00038,0.07503504171577499
0.0004,0.07739955521958153,0.0004,0.182578570850703,0.0004,0.07503504171556762
0.00042,0.07739955521890564,0.00042,0.1825785708519622,0.00042,0.0750350417157884
0.00044,0.07739955521961918,0.00044,0.1825785708506533,0.00044,0.07503504171560316
0.00046,0.07739955521893914,0.00046,0.1825785708515758,0.00046,0.07503504171570254
0.00048,0.07739955521948161,0.00048,0.1825785708514021,0.00048,0.07503504171550758
0.0005,0.0773995552190591,0.0005,0.1825785708491739,0.0005,0.07503504171583823
0.0005200000000000001,0.07739955521949846,0.0005200000000000001,0.1825785708528209,0.0005200000000000001,0.07503504171535352
0.0005400000000000001,0.07739955521906221,0.0005400000000000001,0.1825785708493332,0.0005400000000000001,0.07503504171604213
0.0005600000000000002,0.07739955521957179,0.0005600000000000002,0.1825785708526493,0.0005600000000000002,0.07503504171529835
0.0005800000000000002,0.07739955521885859,0.0005800000000000002,0.1825785708475539,0.0005800000000000002,0.07503504171591437
0.0006000000000000003,0.07739955521970439,0.0006000000000000003,0.1825785708539427,0.0006000000000000003,0.07503504171535272
0.0006200000000000003,0.07739955521876749,0.0006200000000000003,0.182578570847461,0.0006200000000000003,0.07503504171584291
0.0006400000000000004,0.07739955521987421,0.0006400000000000004,0.1825785708547501,0.0006400000000000004,0.07503504171557007
0.0006600000000000004,0.07739955521865743,0.0006600000000000004,0.1825785708448993,0.0006600000000000004,0.07503504171577108
0.0006800000000000005,0.07739955521992647,0.0006800000000000005,0.1825785708575345,0.0006800000000000005,0.0750350417155424
0.0007000000000000005,0.07739955521857633,0.0007000000000000005,0.1825785708453513,0.0007000000000000005,0.07503504171570716
0.0007200000000000006,0.0773995552200008,0.0007200000000000006,0.1825785708553618,0.0007200000000000006,0.07503504171562343
0.0007400000000000006,0.07739955521864259,0.0007400000000000006,0.1825785708463426,0.0007400000000000006,0.07503504171571444
0.0007600000000000007,0.07739955521989857,0.0007600000000000007,0.1825785708554223,0.0007600000000000007,0.07503504171559902
0.0007800000000000007,0.07739955521874869,0.0007800000000000007,0.182578570845605,0.0007800000000000007,0.07503504171574275
0.0008000000000000008,0.07739955521984779,0.0008000000000000008,0.1825785708560243,0.0008000000000000008,0.07503504171560367
0.0008200000000000008,0.07739955521859411,0.0008200000000000008,0.1825785708475039,0.0008200000000000008,0.07503504171571218
0.0008400000000000009,0.07739955521992666,0.0008400000000000009,0.18257857085425,0.0008400000000000009,0.07503504171559029
0.000860000000000001,0.0773995552184937,0.000860000000000001,0.1825785708470444,0.000860000000000001,0.07503504171574149
0.000880000000000001,0.07739955522017446,0.000880000000000001,0.182578570854787,0.000880000000000001,0.07503504171561712
0.0009000000000000011,0.07739955521845791,0.0009000000000000011,0.1825785708472306,0.0009000000000000011,0.07503504171559874
0.0009200000000000011,0.07739955522013113,0.0009200000000000011,0.1825785708565968,0.0009200000000000011,0.07503504171558312
0.0009400000000000012,0.07739955521845357,0.0009400000000000012,0.1825785708450943,0.0009400000000000012,0.07503504171566139
0.0009600000000000012,0.07739955521999203,0.0009600000000000012,0.1825785708576987,0.0009600000000000012,0.07503504171574107
0.0009800000000000013,0.07739955521863001,0.0009800000000000013,0.1825785708452682,0.0009800000000000013,0.07503504171560742
0.001000000000000001,0.07739955521998597,0.001000000000000001,0.1825785708563296,0.001000000000000001,0.07503504171559303
0.001020000000000001,0.0773995552186553,0.001020000000000001,0.1825785708451698,0.001020000000000001,0.07503504171574429
0.001040000000000001,0.07739955521976678,0.001040000000000001,0.1825785708566177,0.001040000000000001,0.07503504171555449
0.001060000000000001,0.07739955521867704,0.001060000000000001,0.1825785708441595,0.001060000000000001,0.07503504171577932
0.001080000000000002,0.07739955521997227,0.001080000000000002,0.1825785708554223,0.001080000000000002,0.07503504171556152
0.001100000000000002,0.07739955521860238,0.001100000000000002,0.1825785708462487,0.001100000000000002,0.07503504171562969
0.001120000000000002,0.07739955521993622,0.001120000000000002,0.1825785708557008,0.001120000000000002,0.07503504171571329
0.001140000000000002,0.07739955521847175,0.001140000000000002,0.1825785708457917,0.001140000000000002,0.07503504171566826
0.001160000000000002,0.0773995552199379,0.001160000000000002,0.1825785708552587,0.001160000000000002,0.07503504171564976
0.001180000000000002,0.07739955521873258,0.001180000000000002,0.1825785708471571,0.001180000000000002,0.07503504171555139
0.001200000000000002,0.07739955521983659,0.001200000000000002,0.1825785708562259,0.001200000000000002,0.07503504171580339
0.001220000000000002,0.07739955521864868,0.001220000000000002,0.1825785708462264,0.001220000000000002,0.07503504171554279
0.001240000000000002,0.07739955521988105,0.001240000000000002,0.1825785708561407,0.001240000000000002,0.07503504171567063
0.001260000000000002,0.07739955521865816,0.001260000000000002,0.1825785708464884,0.001260000000000002,0.07503504171571754
0.001280000000000002,0.07739955522001214,0.001280000000000002,0.1825785708551378,0.001280000000000002,0.07503504171567141
0.001300000000000002,0.07739955521855416,0.001300000000000002,0.1825785708468044,0.001300000000000002,0.07503504171561307
0.001320000000000002,0.07739955522007652,0.001320000000000002,0.1825785708570636,0.001320000000000002,0.07503504171560418
0.001340000000000002,0.07739955521837215,0.001340000000000002,0.1825785708450747,0.001340000000000002,0.0750350417157124
0.001360000000000002,0.07739955522017189,0.001360000000000002,0.1825785708565648,0.001360000000000002,0.07503504171552224
0.001380000000000002,0.07739955521830237,0.001380000000000002,0.182578570845584,0.001380000000000002,0.07503504171588922
0.001400000000000002,0.07739955522021091,0.001400000000000002,0.1825785708560756,0.001400000000000002,0.07503504171552075
0.001420000000000002,0.07739955521834424,0.001420000000000002,0.1825785708454719,0.001420000000000002,0.07503504171580924
0.001440000000000002,0.07739955522018978,0.001440000000000002,0.1825785708565988,0.001440000000000002,0.07503504171560892
0.001460000000000003,0.07739955521829417,0.001460000000000003,0.1825785708451408,0.001460000000000003,0.07503504171564579
0.001480000000000003,0.07739955522019963,0.001480000000000003,0.1825785708587459,0.001480000000000003,0.07503504171560578
0.001500000000000003,0.07739955521828275,0.001500000000000003,0.1825785708442136,0.001500000000000003,0.07503504171571773
0.001520000000000003,0.07739955522033658,0.001520000000000003,0.1825785708586458,0.001520000000000003,0.07503504171563274
0.001540000000000003,0.0773995552181141,0.001540000000000003,0.1825785708429816,0.001540000000000003,0.07503504171563741
0.001560000000000003,0.07739955522050511,0.001560000000000003,0.1825785708597068,0.001560000000000003,0.07503504171555546
0.001580000000000003,0.07739955521796467,0.001580000000000003,0.1825785708429534,0.001580000000000003,0.07503504171583912
0.001600000000000003,0.07739955522062045,0.001600000000000003,0.1825785708574541,0.001600000000000003,0.07503504171546337
0.001620000000000003,0.07739955521795711,0.001620000000000003,0.1825785708429731,0.001620000000000003,0.07503504171587522
0.001640000000000003,0.0773995552205947,0.001640000000000003,0.1825785708597159,0.001640000000000003,0.07503504171535794
0.001660000000000003,0.07739955521803835,0.001660000000000003,0.1825785708428881,0.001660000000000003,0.07503504171600052
0.001680000000000003,0.07739955522059495,0.001680000000000003,0.1825785708592459,0.001680000000000003,0.07503504171533111
0.001700000000000003,0.0773995552179792,0.001700000000000003,0.1825785708427705,0.001700000000000003,0.07503504171601148
0.001720000000000003,0.07739955522065986,0.001720000000000003,0.18257857085826,0.001720000000000003,0.07503504171518478
0.001740000000000003,0.0773995552178843,0.001740000000000003,0.1825785708448339,0.001740000000000003,0.07503504171613853
0.001760000000000003,0.07739955522071428,0.001760000000000003,0.1825785708563308,0.001760000000000003,0.07503504171506017
0.001780000000000003,0.07739955521775503,0.001780000000000003,0.1825785708464721,0.001780000000000003,0.0750350417161658
0.001800000000000003,0.07739955522083153,0.001800000000000003,0.1825785708558706,0.001800000000000003,0.07503504171516392
0.001820000000000003,0.07739955521774636,0.001820000000000003,0.1825785708467763,0.001820000000000003,0.07503504171604888
0.001840000000000004,0.07739955522076565,0.001840000000000004,0.18257857085525,0.001840000000000004,0.07503504171534769
0.001860000000000004,0.07739955521778161,0.001860000000000004,0.1825785708459387,0.001860000000000004,0.07503504171598285
0.001880000000000004,0.07739955522078085,0.001880000000000004,0.1825785708566027,0.001880000000000004,0.07503504171541779
0.001900000000000004,0.07739955521775609,0.001900000000000004,0.1825785708454632,0.001900000000000004,0.07503504171578641
0.001920000000000004,0.07739955522082052,0.001920000000000004,0.1825785708568053,0.001920000000000004,0.07503504171553289
0.001940000000000004,0.07739955521783212,0.001940000000000004,0.1825785708467354,0.001940000000000004,0.07503504171583272
0.001960000000000004,0.07739955522064113,0.001960000000000004,0.1825785708563804,0.001960000000000004,0.07503504171548268
0.001980000000000004,0.07739955521795253,0.001980000000000004,0.1825785708454692,0.001980000000000004,0.07503504171590655
0.002000000000000004,0.07739955522077542,0.002000000000000004,0.182578570856103,0.002000000000000004,0.07503504171538294
0.002020000000000004,0.07739955521771059,0.002020000000000004,0.1825785708461111,0.002020000000000004,0.07503504171584641
0.002040000000000004,0.0773995552208117,0.002040000000000004,0.1825785708571421,0.002040000000000004,0.07503504171537903
0.002060000000000004,0.07739955521776856,0.002060000000000004,0.1825785708452557,0.002060000000000004,0.07503504171587318
0.002080000000000004,0.07739955522080356,0.002080000000000004,0.1825785708559443,0.002080000000000004,0.07503504171542183
0.002100000000000004,0.0773995552177702,0.002100000000000004,0.1825785708457853,0.002100000000000004,0.07503504171594694
0.002120000000000004,0.0773995552208508,0.002120000000000004,0.1825785708569582,0.002120000000000004,0.07503504171541499
0.002140000000000004,0.07739955521763529,0.002140000000000004,0.182578570845582,0.002140000000000004,0.07503504171594155
0.002160000000000004,0.07739955522085502,0.002160000000000004,0.1825785708550325,0.002160000000000004,0.07503504171530667
0.002180000000000004,0.07739955521771077,0.002180000000000004,0.1825785708458122,0.002180000000000004,0.07503504171606329
0.002200000000000004,0.07739955522090568,0.002200000000000004,0.1825785708562455,0.002200000000000004,0.07503504171521588
0.002220000000000005,0.07739955521761703,0.002220000000000005,0.1825785708460098,0.002220000000000005,0.07503504171602431
0.002240000000000005,0.07739955522095147,0.002240000000000005,0.182578570854998,0.002240000000000005,0.0750350417153124
0.002260000000000005,0.07739955521771899,0.002260000000000005,0.1825785708462645,0.002260000000000005,0.07503504171601925
0.002280000000000005,0.07739955522090969,0.002280000000000005,0.1825785708559508,0.002280000000000005,0.07503504171529815
0.002300000000000005,0.07739955521763829,0.002300000000000005,0.1825785708467078,0.002300000000000005,0.07503504171604722
0.002320000000000005,0.07739955522090039,0.002320000000000005,0.1825785708556617,0.002320000000000005,0.0750350417153586
0.002340000000000005,0.07739955521768778,0.002340000000000005,0.1825785708465933,0.002340000000000005,0.07503504171588214
0.002360000000000005,0.07739955522085683,0.002360000000000005,0.182578570853737,0.002360000000000005,0.07503504171551252
0.002380000000000005,0.07739955521764656,0.002380000000000005,0.1825785708473076,0.002380000000000005,0.07503504171572921
0.002400000000000005,0.07739955522094596,0.002400000000000005,0.1825785708551129,0.002400000000000005,0.0750350417156247
0.002420000000000005,0.07739955521759344,0.002420000000000005,0.1825785708472684,0.002420000000000005,0.07503504171560102
0.002440000000000005,0.07739955522091121,0.002440000000000005,0.1825785708553364,0.002440000000000005,0.07503504171564736
0.002460000000000005,0.07739955521771331,0.002460000000000005,0.1825785708463274,0.002460000000000005,0.07503504171556542
0.002480000000000005,0.07739955522084563,0.002480000000000005,0.1825785708540268,0.002480000000000005,0.07503504171580617
0.002500000000000005,0.07739955521769031,0.002500000000000005,0.1825785708480523,0.002500000000000005,0.07503504171555514
0.002520000000000005,0.07739955522083919,0.002520000000000005,0.1825785708541669,0.002520000000000005,0.07503504171588697
0.002540000000000005,0.0773995552177993,0.002540000000000005,0.1825785708471607,0.002540000000000005,0.07503504171542905
0.002560000000000005,0.07739955522070928,0.002560000000000005,0.1825785708549002,0.002560000000000005,0.07503504171589326
0.002580000000000005,0.07739955521780972,0.002580000000000005,0.1825785708464135,0.002580000000000005,0.07503504171544981
0.002600000000000006,0.07739955522071082,0.002600000000000006,0.1825785708539108,0.002600000000000006,0.07503504171572949
0.002620000000000006,0.07739955521798765,0.002620000000000006,0.1825785708473259,0.002620000000000006,0.07503504171561337
0.002640000000000006,0.07739955522055302,0.002640000000000006,0.1825785708555529,0.002640000000000006,0.07503504171574261
0.002660000000000006,0.07739955521794473,0.002660000000000006,0.1825785708473488,0.002660000000000006,0.07503504171548597
0.002680000000000006,0.07739955522062474,0.002680000000000006,0.1825785708553667,0.002680000000000006,0.07503504171580257
0.002700000000000006,0.0773995552178543,0.002700000000000006,0.1825785708466671,0.002700000000000006,0.07503504171554821
0.002720000000000006,0.07739955522065491,0.002720000000000006,0.1825785708560643,0.002720000000000006,0.07503504171568899
0.002740000000000006,0.07739955521788795,0.002740000000000006,0.1825785708471884,0.002740000000000006,0.0750350417156114
0.002760000000000006,0.07739955522071244,0.002760000000000006,0.1825785708532776,0.002760000000000006,0.07503504171561357
0.002780000000000006,0.07739955521781053,0.002780000000000006,0.1825785708491701,0.002780000000000006,0.07503504171575937
0.002800000000000006,0.07739955522081007,0.002800000000000006,0.1825785708529427,0.002800000000000006,0.07503504171548911
0.002820000000000006,0.07739955521764259,0.002820000000000006,0.1825785708491849,0.002820000000000006,0.07503504171589154
0.002840000000000006,0.07739955522087996,0.002840000000000006,0.1825785708522415,0.002840000000000006,0.07503504171554681
0.002860000000000006,0.07739955521766932,0.002860000000000006,0.1825785708481803,0.002860000000000006,0.07503504171588332
0.002880000000000006,0.07739955522080466,0.002880000000000006,0.1825785708530669,0.002880000000000006,0.07503504171535405
0.002900000000000006,0.07739955521765113,0.002900000000000006,0.1825785708494547,0.002900000000000006,0.07503504171598102
0.002920000000000006,0.07739955522086858,0.002920000000000006,0.1825785708531886,0.002920000000000006,0.07503504171539327
0.002940000000000006,0.0773995552175995,0.002940000000000006,0.1825785708480869,0.002940000000000006,0.07503504171593521
0.002960000000000006,0.07739955522092731,0.002960000000000006,0.1825785708542758,0.002960000000000006,0.07503504171544416
0.002980000000000007,0.07739955521767332,0.002980000000000007,0.182578570847897,0.002980000000000007,0.07503504171589942
0.003000000000000007,0.07739955522083992,0.003000000000000007,0.1825785708546076,0.003000000000000007,0.07503504171555099
