/net039 X,/net039 Y,/net010 X,/net010 Y,/net09 X,/net09 Y,/net08 X,/net08 Y,/net02 X,/net02 Y
0,3.299543402147349e-05,0,3.29954340214799e-05,0,3.299543402148748e-05,0,3.865586119036395e-05,0,0
1.5e-11,3.299543402139102e-05,1.5e-11,3.299543402142553e-05,1.5e-11,3.299543402150745e-05,1.5e-11,3.865586157148478e-05,1.5e-11,0
4.5e-11,3.2995434021384e-05,4.5e-11,3.299543402144548e-05,4.5e-11,3.299543402131395e-05,4.5e-11,3.865586105755737e-05,4.5e-11,0
1.05e-10,3.299543402232932e-05,1.05e-10,3.299543401955696e-05,1.05e-10,3.299543402249381e-05,1.05e-10,3.865586118396232e-05,1.05e-10,0
2.25e-10,3.299543401920818e-05,2.25e-10,3.299543402194153e-05,2.25e-10,3.299543402178373e-05,2.25e-10,3.865586124962179e-05,2.25e-10,0
4.65e-10,3.299543402517701e-05,4.65e-10,3.299543402277989e-05,4.65e-10,3.299543401988093e-05,4.65e-10,3.865586111839767e-05,4.65e-10,0
7.649999999999999e-10,3.299543401636291e-05,7.649999999999999e-10,3.299543401908509e-05,7.649999999999999e-10,3.299543402178301e-05,7.649999999999999e-10,3.865586127128832e-05,7.649999999999999e-10,0
1.065e-09,3.299543402764246e-05,1.065e-09,3.299543402246714e-05,1.065e-09,3.299543401689245e-05,1.065e-09,3.865586110212544e-05,1.065e-09,0
1.365e-09,3.299543401402959e-05,1.365e-09,3.299543401913565e-05,1.365e-09,3.299543402456192e-05,1.365e-09,3.865586128390338e-05,1.365e-09,0
1.665e-09,3.299543403019519e-05,1.665e-09,3.299543402240239e-05,1.665e-09,3.299543401710273e-05,1.665e-09,3.865586109290204e-05,1.665e-09,0
1.8325e-09,3.29954340145785e-05,1.8325e-09,3.299543402176836e-05,1.8325e-09,3.29954340242892e-05,1.8325e-09,3.865586129123724e-05,1.8325e-09,0
2e-09,3.299543402697174e-05,2e-09,3.299543402268843e-05,2e-09,3.299543401748157e-05,2e-09,3.865586108935348e-05,2e-09,0
2.120144127384799e-09,3.2995434021528e-05,2.120144127384799e-09,3.299543402138589e-05,2.120144127384799e-09,3.299543402142793e-05,2.120144127384799e-09,3.865586119227426e-05,2.120144127384799e-09,0.06674673743599943
2.261585129606441e-09,3.299543402197695e-05,2.261585129606441e-09,3.299543402241034e-05,2.261585129606441e-09,3.299543402227026e-05,2.261585129606441e-09,3.865586115564677e-05,2.261585129606441e-09,0.145325072003578
2.400273538304772e-09,3.299543401975727e-05,2.400273538304772e-09,3.299543402213644e-05,2.400273538304772e-09,3.299543401960947e-05,2.400273538304772e-09,3.865586131657437e-05,2.400273538304772e-09,0.2223741879470957
2.460065972442982e-09,3.299543402180035e-05,2.460065972442982e-09,3.299543402215504e-05,2.460065972442982e-09,3.299543402395883e-05,2.460065972442982e-09,3.865586061268478e-05,2.460065972442982e-09,0.2555922069127676
2.489962189512087e-09,3.299543402305601e-05,2.489962189512087e-09,3.299543402244578e-05,2.489962189512087e-09,3.299543402653425e-05,2.489962189512087e-09,3.865586313036972e-05,2.489962189512087e-09,0.2722012163956036
2.549754623650296e-09,3.299543402164374e-05,2.549754623650296e-09,3.299543401921609e-05,2.549754623650296e-09,3.29954340108092e-05,2.549754623650296e-09,3.865585860395425e-05,2.549754623650296e-09,0.3054192353612757
2.571628819861247e-09,3.299543402041229e-05,2.571628819861247e-09,3.299543401956002e-05,2.571628819861247e-09,3.299543404481683e-05,2.571628819861247e-09,3.865586424910616e-05,2.571628819861247e-09,0.3175715665895814
2.582565917966722e-09,3.299543402372563e-05,2.582565917966722e-09,3.299543402190423e-05,2.582565917966722e-09,3.299543399104472e-05,2.582565917966722e-09,3.865586065179583e-05,2.582565917966722e-09,0.3236477322037341
2.604440114177672e-09,3.299543402059469e-05,2.604440114177672e-09,3.299543402267424e-05,2.604440114177672e-09,3.299543404114434e-05,2.604440114177672e-09,3.865586012430267e-05,2.604440114177672e-09,0.3358000634320397
2.623385016957438e-09,3.299543402375123e-05,2.623385016957438e-09,3.299543401939283e-05,2.623385016957438e-09,3.299543402189848e-05,2.623385016957438e-09,3.865586316443307e-05,2.623385016957438e-09,0.3463250094207988
2.644610819869532e-09,3.299543401832867e-05,2.644610819869532e-09,3.299543402479916e-05,2.644610819869532e-09,3.299543400439113e-05,2.644610819869532e-09,3.865585909966672e-05,2.644610819869532e-09,0.35811712214974
2.663678775316251e-09,3.299543402306137e-05,2.663678775316251e-09,3.29954340174843e-05,2.663678775316251e-09,3.29954340456506e-05,2.663678775316251e-09,3.865586302846436e-05,2.663678775316251e-09,0.3687104307312505
2.678901932705329e-09,3.299543402148847e-05,2.678901932705329e-09,3.299543402612512e-05,2.678901932705329e-09,3.299543399737832e-05,2.678901932705329e-09,3.865585983809141e-05,2.678901932705329e-09,0.3771677403918494
2.696885440853979e-09,3.299543402046663e-05,2.696885440853979e-09,3.29954340164393e-05,2.696885440853979e-09,3.299543404292333e-05,2.696885440853979e-09,3.865586214420004e-05,2.696885440853979e-09,0.3871585782522105
2.714782003235917e-09,3.299543402348702e-05,2.714782003235917e-09,3.29954340274523e-05,2.714782003235917e-09,3.299543400427434e-05,2.714782003235917e-09,3.865586056012315e-05,2.714782003235917e-09,0.3971011129088428
2.737384805445783e-09,3.299543401854825e-05,2.737384805445783e-09,3.299543402010416e-05,2.737384805445783e-09,3.299543403542794e-05,2.737384805445783e-09,3.865586162496432e-05,2.737384805445783e-09,0.4096582252476574
2.762852928110054e-09,3.299543402584884e-05,2.762852928110054e-09,3.299543401886333e-05,2.762852928110054e-09,3.299543401093353e-05,2.762852928110054e-09,3.865586089018081e-05,2.762852928110054e-09,0.4238071822833634
2.791141084308251e-09,3.299543401636007e-05,2.791141084308251e-09,3.299543402477894e-05,2.791141084308251e-09,3.299543403239465e-05,2.791141084308251e-09,3.865586139416769e-05,2.791141084308251e-09,0.4395228246156949
2.817932043592193e-09,3.299543402736521e-05,2.817932043592193e-09,3.299543401744349e-05,2.817932043592193e-09,3.299543401088178e-05,2.817932043592193e-09,3.865586106623957e-05,2.817932043592193e-09,0.4544066908845517
2.846351611995097e-09,3.299543401765732e-05,2.846351611995097e-09,3.299543402386937e-05,2.846351611995097e-09,3.299543402911676e-05,2.846351611995097e-09,3.865586125515341e-05,2.846351611995097e-09,0.4701953399972763
2.872032181625732e-09,3.299543402394998e-05,2.872032181625732e-09,3.299543402105743e-05,2.872032181625732e-09,3.299543401658278e-05,2.872032181625732e-09,3.865586117692395e-05,2.872032181625732e-09,0.4844623231254066
2.899562028907224e-09,3.299543401819261e-05,2.899562028907224e-09,3.299543402337959e-05,2.899562028907224e-09,3.299543402685666e-05,2.899562028907224e-09,3.865586116612217e-05,2.899562028907224e-09,0.4997566827262354
2.925093019469994e-09,3.299543402312068e-05,2.925093019469994e-09,3.299543401889825e-05,2.925093019469994e-09,3.299543401857239e-05,2.925093019469994e-09,3.865586124559441e-05,2.925093019469994e-09,0.5139405663722186
2.976155000595533e-09,3.2995434021165e-05,2.976155000595533e-09,3.299543402508343e-05,2.976155000595533e-09,3.299543402606688e-05,2.976155000595533e-09,3.86558611222299e-05,2.976155000595533e-09,0.5423083336641852
3.015764352377128e-09,3.299543402056384e-05,3.015764352377128e-09,3.299543401984456e-05,3.015764352377128e-09,3.299543401886624e-05,3.015764352377128e-09,3.865586127139983e-05,3.015764352377128e-09,0.5643135290984045
3.060641128615119e-09,3.29954340213915e-05,3.060641128615119e-09,3.299543402478852e-05,3.060641128615119e-09,3.299543402540197e-05,3.060641128615119e-09,3.865586109960723e-05,3.060641128615119e-09,0.5892450714528439
3.071961305575794e-09,3.29954340206239e-05,3.071961305575794e-09,3.299543402074106e-05,3.071961305575794e-09,3.299543401812771e-05,3.071961305575794e-09,3.865586130729993e-05,3.071961305575794e-09,0.5955340586532187
3.094601659497144e-09,3.299543402146022e-05,3.094601659497144e-09,3.299543402111366e-05,3.094601659497144e-09,3.299543402050684e-05,3.094601659497144e-09,3.865586106632042e-05,3.094601659497144e-09,0.6081120330539687
3.103597652193023e-09,3.299543402252346e-05,3.103597652193023e-09,3.299543402087176e-05,3.103597652193023e-09,3.29954340214376e-05,3.103597652193023e-09,3.865586132464465e-05,3.103597652193023e-09,0.6131098067739015
3.108095648540962e-09,3.29954340219367e-05,3.108095648540962e-09,3.299543402230172e-05,3.108095648540962e-09,3.299543402003593e-05,3.108095648540962e-09,3.865586105738997e-05,3.108095648540962e-09,0.6156086936338681
3.117091641236842e-09,3.299543402258515e-05,3.117091641236842e-09,3.299543402191399e-05,3.117091641236842e-09,3.2995434022026e-05,3.117091641236842e-09,3.865586130791453e-05,3.117091641236842e-09,0.6206064673538009
3.130919944051726e-09,3.299543402202679e-05,3.130919944051726e-09,3.299543402495966e-05,3.130919944051726e-09,3.299543402219842e-05,3.130919944051726e-09,3.865586107403874e-05,3.130919944051726e-09,0.6282888578065143
3.140814291951617e-09,3.299543401995367e-05,3.140814291951617e-09,3.299543402047597e-05,3.140814291951617e-09,3.299543401951257e-05,3.140814291951617e-09,3.865586118926739e-05,3.140814291951617e-09,0.6337857177508982
3.151855398934201e-09,3.299543402210136e-05,3.151855398934201e-09,3.299543402168105e-05,3.151855398934201e-09,3.299543404273159e-05,3.151855398934201e-09,3.86558616855636e-05,3.151855398934201e-09,0.6399196660745561
3.162183885902155e-09,3.29954340205776e-05,3.162183885902155e-09,3.299543402154131e-05,3.162183885902155e-09,3.299543402267187e-05,3.162183885902155e-09,3.86558621411154e-05,3.162183885902155e-09,0.6456577143900862
3.164907309555653e-09,3.299543402668153e-05,3.164907309555653e-09,3.299543402214107e-05,3.164907309555653e-09,3.299543418229825e-05,3.164907309555653e-09,3.865586472837236e-05,3.164907309555653e-09,0.6471707275309184
3.170354156862649e-09,3.299543399368213e-05,3.170354156862649e-09,3.299543402229481e-05,3.170354156862649e-09,3.299543327200835e-05,3.170354156862649e-09,3.865584782266222e-05,3.170354156862649e-09,0.6501967538125829
3.179272575338567e-09,3.299543391287256e-05,3.179272575338567e-09,3.29954340178042e-05,3.179272575338567e-09,3.299542917292255e-05,3.179272575338567e-09,3.865569170652743e-05,3.179272575338567e-09,0.6551514307436481
3.185690460883272e-09,3.299543475903233e-05,3.185690460883272e-09,3.299543403722664e-05,3.185690460883272e-09,3.299545378625114e-05,3.185690460883272e-09,3.865617695503867e-05,3.185690460883272e-09,0.6587169227129289
3.187847277005619e-09,3.299543633067028e-05,3.187847277005619e-09,3.299543406855464e-05,3.187847277005619e-09,3.299549802328309e-05,3.187847277005619e-09,3.865706043774403e-05,3.187847277005619e-09,0.6599151538920107
3.192160909250313e-09,3.299543966053845e-05,3.192160909250313e-09,3.299543407314784e-05,3.192160909250313e-09,3.299562703196528e-05,3.192160909250313e-09,3.866096845216841e-05,3.192160909250313e-09,0.662311616250174
3.197281532102225e-09,3.299542729752007e-05,3.197281532102225e-09,3.299543376927359e-05,3.197281532102225e-09,3.29953621503018e-05,3.197281532102225e-09,3.865940679267261e-05,3.197281532102225e-09,0.6651564067234585
3.199106371071661e-09,3.299541529529585e-05,3.199106371071661e-09,3.299543358400282e-05,3.199106371071661e-09,3.299502597255658e-05,3.199106371071661e-09,3.865371428288512e-05,3.199106371071661e-09,0.6661702061509229
3.202756049010533e-09,3.299541489897822e-05,3.202756049010533e-09,3.299543397592024e-05,3.202756049010533e-09,3.299432033494731e-05,3.202756049010533e-09,3.863369359160444e-05,3.202756049010533e-09,0.6681978050058517
3.207413941845152e-09,3.29954495634265e-05,3.207413941845152e-09,3.299543432705061e-05,3.207413941845152e-09,3.299271448538991e-05,3.207413941845152e-09,3.857833646360746e-05,3.207413941845152e-09,0.6707855232473069
3.2119541375215e-09,3.299540907843386e-05,3.2119541375215e-09,3.299543404152669e-05,3.2119541375215e-09,3.299251406932421e-05,3.2119541375215e-09,3.851969656507601e-05,3.2119541375215e-09,0.6733078541786109
3.216010327804333e-09,3.299540867559299e-05,3.216010327804333e-09,3.299543845366858e-05,3.216010327804333e-09,3.300754821274632e-05,3.216010327804333e-09,3.875812700124701e-05,3.216010327804333e-09,0.6755612932246294
3.220422037363138e-09,3.299555767180474e-05,3.220422037363138e-09,3.299542963492068e-05,3.220422037363138e-09,3.300376964827044e-05,3.220422037363138e-09,3.892560553953134e-05,3.220422037363138e-09,0.6780122429795208
3.225897551944431e-09,3.29955272346315e-05,3.225897551944431e-09,3.299543062100801e-05,3.225897551944431e-09,3.298501382782248e-05,3.225897551944431e-09,3.869148611899679e-05,3.225897551944431e-09,0.681054195524684
3.2326230518669e-09,3.299529506975484e-05,3.2326230518669e-09,3.299543962578884e-05,3.2326230518669e-09,3.299193025172561e-05,3.2326230518669e-09,3.855651396889953e-05,3.2326230518669e-09,0.6847905843705002
3.23911195674624e-09,3.299550920079238e-05,3.23911195674624e-09,3.29954324787413e-05,3.23911195674624e-09,3.299709287724189e-05,3.23911195674624e-09,3.859142126767962e-05,3.23911195674624e-09,0.6883955315256889
3.245368180332875e-09,3.299560565664975e-05,3.245368180332875e-09,3.299543469251946e-05,3.245368180332875e-09,3.299726013109805e-05,3.245368180332875e-09,3.865471567968708e-05,3.245368180332875e-09,0.6918712112960418
3.25193856767695e-09,3.29952867277803e-05,3.25193856767695e-09,3.299543114217437e-05,3.25193856767695e-09,3.299484365841192e-05,3.25193856767695e-09,3.864422875689998e-05,3.25193856767695e-09,0.6955214264871942
3.257248744623349e-09,3.299528427629225e-05,3.257248744623349e-09,3.299543458317626e-05,3.257248744623349e-09,3.299210023337479e-05,3.257248744623349e-09,3.856112746570596e-05,3.257248744623349e-09,0.6984715247907496
3.262282416455744e-09,3.299452373329154e-05,3.262282416455744e-09,3.29954300126635e-05,3.262282416455744e-09,3.298892527011692e-05,3.262282416455744e-09,3.839922808296842e-05,3.262282416455744e-09,0.7012680091420798
3.26601302477105e-09,3.296890669912412e-05,3.26601302477105e-09,3.299526761589431e-05,3.26601302477105e-09,3.299246847767126e-05,3.26601302477105e-09,3.785764362432257e-05,3.26601302477105e-09,0.7033405693172499
3.269710640029052e-09,3.290587085433388e-05,3.269710640029052e-09,3.299503205809084e-05,3.269710640029052e-09,3.300301924975189e-05,3.269710640029052e-09,3.638601970363559e-05,3.269710640029052e-09,0.7053948000161403
3.273006418686184e-09,3.297015648091194e-05,3.273006418686184e-09,3.299593202393412e-05,3.273006418686184e-09,3.301378668629853e-05,3.273006418686184e-09,3.653760706052132e-05,3.273006418686184e-09,0.707225788158991
3.276250007380143e-09,3.360301668212557e-05,3.276250007380143e-09,3.30000454435959e-05,3.276250007380143e-09,3.301672946359887e-05,3.276250007380143e-09,4.780867393185649e-05,3.276250007380143e-09,0.7090277818778571
3.27930218267831e-09,3.48242159356106e-05,3.27930218267831e-09,3.300418340034169e-05,3.27930218267831e-09,3.301300762879801e-05,3.27930218267831e-09,7.66144847670106e-05,3.27930218267831e-09,0.7107234348212834
3.281663063365559e-09,3.505885610044636e-05,3.281663063365559e-09,3.299742185649286e-05,3.281663063365559e-09,3.301420913040233e-05,3.281663063365559e-09,9.76334755609597e-05,3.281663063365559e-09,0.7120350352030882
3.283870099891685e-09,3.397848923474774e-05,3.283870099891685e-09,3.298492158029602e-05,3.283870099891685e-09,3.300579671583985e-05,3.283870099891685e-09,8.788588713868737e-05,3.283870099891685e-09,0.713261166606492
3.286573402883323e-09,3.235615055105863e-05,3.286573402883323e-09,3.29791920916405e-05,3.286573402883323e-09,3.297092344910052e-05,3.286573402883323e-09,-7.556842800882306e-05,3.286573402883323e-09,0.7147630016018462
3.289559611911435e-09,2.896579795699339e-05,3.289559611911435e-09,3.298747600398213e-05,3.289559611911435e-09,3.294731145750271e-05,3.289559611911435e-09,-0.0007123332891764044,3.289559611911435e-09,0.7164220066174636
3.293016041775024e-09,1.503385261600809e-05,3.293016041775024e-09,3.301496760019182e-05,3.293016041775024e-09,3.2974020065312e-05,3.293016041775024e-09,-0.001379619174994107,3.293016041775024e-09,0.7183422454305687
3.295541610749263e-09,8.358438479358786e-06,3.295541610749263e-09,3.302484405669304e-05,3.295541610749263e-09,3.299979573310418e-05,3.295541610749263e-09,-0.001235971855886804,3.295541610749263e-09,0.7197453393051463
3.297990823243073e-09,1.414275245910895e-05,3.297990823243073e-09,3.299903581454884e-05,3.297990823243073e-09,3.29924738925376e-05,3.297990823243073e-09,-0.0008377732211172271,3.297990823243073e-09,0.7211060129128185
3.300545788751373e-09,2.787321807632645e-05,3.300545788751373e-09,3.299831538520101e-05,3.300545788751373e-09,3.298410970604124e-05,3.300545788751373e-09,-0.0004763067245025405,3.300545788751373e-09,0.7225254381952073
3.302975834309655e-09,4.870352261219983e-05,3.302975834309655e-09,3.301190145151271e-05,3.302975834309655e-09,3.29838811004211e-05,3.302975834309655e-09,-0.0004310122986072282,3.302975834309655e-09,0.7238754635053639
3.305203222567787e-09,9.06067635532054e-05,3.305203222567787e-09,3.303030657911337e-05,3.305203222567787e-09,3.298775532203328e-05,3.305203222567787e-09,-0.0008136992100177764,3.305203222567787e-09,0.7251129014265481
3.307593564642933e-09,0.0002197431570844117,3.307593564642933e-09,3.302126989110544e-05,3.307593564642933e-09,3.299900108538312e-05,3.307593564642933e-09,-0.001619076176781862,3.307593564642933e-09,0.726440869246074
3.310874422002281e-09,0.0006580250339232947,3.310874422002281e-09,3.296694213610682e-05,3.310874422002281e-09,3.301636140094317e-05,3.310874422002281e-09,-0.002809181070326479,3.310874422002281e-09,0.7282635677790449
3.313349292100072e-09,-0.0006983499652665254,3.313349292100072e-09,3.292682521097827e-05,3.313349292100072e-09,3.302211658921124e-05,3.313349292100072e-09,-0.003467486723511445,3.313349292100072e-09,0.7296384956111511
3.316069343289074e-09,-0.008676230639397939,3.316069343289074e-09,3.290399186902761e-05,3.316069343289074e-09,3.301765572644311e-05,3.316069343289074e-09,-0.003757258380707355,3.316069343289074e-09,0.7311496351605965
3.318775215930718e-09,-0.01628462624737611,3.318775215930718e-09,3.292162956154623e-05,3.318775215930718e-09,3.301336219424246e-05,3.318775215930718e-09,-0.00341546343812896,3.318775215930718e-09,0.7326528977392877
3.321133515288737e-09,-0.005391209503894557,3.321133515288737e-09,3.29615061350276e-05,3.321133515288737e-09,3.300375894023169e-05,3.321133515288737e-09,-0.002637481375144812,3.321133515288737e-09,0.7339630640492982
3.32354304018648e-09,0.05065114476111707,3.32354304018648e-09,3.300008682466322e-05,3.32354304018648e-09,3.298313563570249e-05,3.32354304018648e-09,-0.001887579080969272,3.32354304018648e-09,0.7353016889924889
3.325469279112062e-09,0.1354625065910164,3.325469279112062e-09,3.303713456880911e-05,3.325469279112062e-09,3.298431068990037e-05,3.325469279112062e-09,-0.001198885020600652,3.325469279112062e-09,0.736371821728923
3.327772858379096e-09,0.2645327978719877,3.327772858379096e-09,3.307506295627759e-05,3.327772858379096e-09,3.299735969734787e-05,3.327772858379096e-09,4.566872539869095e-06,3.327772858379096e-09,0.7376515879883869
3.330312129346764e-09,0.422688460663501,3.330312129346764e-09,3.305458990678582e-05,3.330312129346764e-09,3.298560303728202e-05,3.330312129346764e-09,0.001337232264468048,3.330312129346764e-09,0.7390622940815358
3.333704143054104e-09,0.6238935329880169,3.333704143054104e-09,3.301830582283432e-05,3.333704143054104e-09,3.297891612141228e-05,3.333704143054104e-09,0.002697229149648753,3.333704143054104e-09,0.7409467461411691
3.336267146933945e-09,0.741270012415247,3.336267146933945e-09,3.299719319927065e-05,3.336267146933945e-09,3.297882691244835e-05,3.336267146933945e-09,0.003182501736909372,3.336267146933945e-09,0.7423706371855251
3.33866179730466e-09,0.8151716097869814,3.33866179730466e-09,3.299555198178959e-05,3.33866179730466e-09,3.298681634936249e-05,3.33866179730466e-09,0.003248497129815056,3.33866179730466e-09,0.7437009985025888
3.341026825566182e-09,0.8910344777299622,3.341026825566182e-09,3.299814239521901e-05,3.341026825566182e-09,3.299635075376481e-05,3.341026825566182e-09,0.003064031473913945,3.341026825566182e-09,0.7450149030923234
