/net039 X,/net039 Y,/net010 X,/net010 Y,/net09 X,/net09 Y,/net08 X,/net08 Y,/net02 X,/net02 Y
0,2.589058170912616e-05,0,2.589058169745179e-05,0,2.589058169734745e-05,0,3.253766845901801e-05,0,0
1.5e-11,2.589058164728893e-05,1.5e-11,2.589058169755943e-05,1.5e-11,2.58905816974715e-05,1.5e-11,3.253766845924541e-05,1.5e-11,0
4.5e-11,2.589058167821375e-05,4.5e-11,2.589058169748674e-05,4.5e-11,2.589058169739142e-05,4.5e-11,3.253766845925154e-05,4.5e-11,0
1.05e-10,2.589058170093733e-05,1.05e-10,2.589058169618061e-05,1.05e-10,2.589058169633813e-05,1.05e-10,3.253766845929258e-05,1.05e-10,0
2.25e-10,2.589058169730525e-05,2.25e-10,2.589058169825597e-05,2.25e-10,2.589058169846212e-05,2.25e-10,3.253766845897612e-05,2.25e-10,0
4.65e-10,2.589058169726381e-05,4.65e-10,2.58905816963311e-05,4.65e-10,2.58905816962609e-05,4.65e-10,3.253766845958423e-05,4.65e-10,0
7.649999999999999e-10,2.589058169786239e-05,7.649999999999999e-10,2.58905816985772e-05,7.649999999999999e-10,2.589058169873531e-05,7.649999999999999e-10,3.253766845847288e-05,7.649999999999999e-10,0
1.065e-09,2.589058169934584e-05,1.065e-09,2.589058169867812e-05,1.065e-09,2.58905816963282e-05,1.065e-09,3.25376684601361e-05,1.065e-09,0
1.365e-09,2.589058169531857e-05,1.365e-09,2.589058169610062e-05,1.365e-09,2.589058169842722e-05,1.365e-09,3.253766845852854e-05,1.365e-09,0
1.665e-09,2.589058169960068e-05,1.665e-09,2.589058170143895e-05,1.665e-09,2.589058169643273e-05,1.665e-09,3.253766846018549e-05,1.665e-09,0
1.8325e-09,2.589058169787374e-05,1.8325e-09,2.589058169341707e-05,1.8325e-09,2.589058169812589e-05,1.8325e-09,3.253766845826575e-05,1.8325e-09,0
2e-09,2.589058169996376e-05,2e-09,2.589058170396197e-05,2e-09,2.589058169644319e-05,2e-09,3.253766846010934e-05,2e-09,0
2.120144127384571e-09,2.589058169747946e-05,2.120144127384571e-09,2.589058169741113e-05,2.120144127384571e-09,2.589058169745613e-05,2.120144127384571e-09,3.253766846139153e-05,2.120144127384571e-09,0.06674673743587282
2.261585129605973e-09,2.589058169882025e-05,2.261585129605973e-09,2.589058169591189e-05,2.261585129605973e-09,2.589058169600474e-05,2.261585129605973e-09,3.253766843147622e-05,2.261585129605973e-09,0.1453250720033182
2.400273552359008e-09,2.589058169585865e-05,2.400273552359008e-09,2.589058169901925e-05,2.400273552359008e-09,2.589058170180122e-05,2.400273552359008e-09,3.253766855601009e-05,2.400273552359008e-09,0.2223741957550043
2.464571113163125e-09,2.589058169870161e-05,2.464571113163125e-09,2.589058169613302e-05,2.464571113163125e-09,2.589058169291941e-05,2.464571113163125e-09,3.253766804403746e-05,2.464571113163125e-09,0.2580950628684028
2.496719893565184e-09,2.589058169594822e-05,2.496719893565184e-09,2.589058169838388e-05,2.496719893565184e-09,2.589058170485727e-05,2.496719893565184e-09,3.253766992959086e-05,2.496719893565184e-09,0.275955496425102
2.561017454369301e-09,2.58905817011775e-05,2.561017454369301e-09,2.589058169610005e-05,2.561017454369301e-09,2.589058168708432e-05,2.561017454369301e-09,3.253766640718341e-05,2.561017454369301e-09,0.3116763635385005
2.582949606878574e-09,2.589058169181045e-05,2.582949606878574e-09,2.589058170096372e-05,2.582949606878574e-09,2.589058172249392e-05,2.582949606878574e-09,3.253767134938159e-05,2.582949606878574e-09,0.3238608927103187
2.626813911897119e-09,2.589058170321014e-05,2.626813911897119e-09,2.589058169136525e-05,2.626813911897119e-09,2.589058166548472e-05,2.626813911897119e-09,3.253766572826756e-05,2.626813911897119e-09,0.348229951053955
2.639223654333818e-09,2.589058169351801e-05,2.639223654333818e-09,2.589058169910614e-05,2.639223654333818e-09,2.589058173239725e-05,2.639223654333818e-09,3.253766907118928e-05,2.639223654333818e-09,0.3551242524076765
2.664043139207215e-09,2.589058170152087e-05,2.664043139207215e-09,2.589058169801384e-05,2.664043139207215e-09,2.58905816733377e-05,2.664043139207215e-09,3.253766914296247e-05,2.664043139207215e-09,0.3689128551151196
2.681581833747952e-09,2.589058169396534e-05,2.681581833747952e-09,2.589058169716659e-05,2.681581833747952e-09,2.589058170262718e-05,2.681581833747952e-09,3.253766666848133e-05,2.681581833747952e-09,0.3786565743044179
2.697541805288245e-09,2.589058169805129e-05,2.697541805288245e-09,2.589058169570799e-05,2.697541805288245e-09,2.589058170885561e-05,2.697541805288245e-09,3.253767056616531e-05,2.697541805288245e-09,0.3875232251601358
2.71452226571827e-09,2.589058169651108e-05,2.71452226571827e-09,2.589058169661714e-05,2.71452226571827e-09,2.589058167643537e-05,2.71452226571827e-09,3.253766656720049e-05,2.71452226571827e-09,0.3969568142879278
2.732226652934409e-09,2.58905816981824e-05,2.732226652934409e-09,2.589058169794646e-05,2.732226652934409e-09,2.589058172273008e-05,2.732226652934409e-09,3.253766997132843e-05,2.732226652934409e-09,0.4067925849635604
2.753907713299447e-09,2.589058169655098e-05,2.753907713299447e-09,2.58905816992174e-05,2.753907713299447e-09,2.589058167482209e-05,2.753907713299447e-09,3.253766727485258e-05,2.753907713299447e-09,0.4188376184996926
2.77803198755089e-09,2.589058169831897e-05,2.77803198755089e-09,2.589058169579658e-05,2.77803198755089e-09,2.589058171897385e-05,2.77803198755089e-09,3.253766937244799e-05,2.77803198755089e-09,0.4322399930838279
2.804825689827493e-09,2.589058169655672e-05,2.804825689827493e-09,2.589058169653451e-05,2.804825689827493e-09,2.589058167735259e-05,2.804825689827493e-09,3.253766776015621e-05,2.804825689827493e-09,0.4471253832374963
2.830544434529839e-09,2.589058169566034e-05,2.830544434529839e-09,2.58905816976278e-05,2.830544434529839e-09,2.589058171511376e-05,2.830544434529839e-09,3.253766896848617e-05,2.830544434529839e-09,0.4614135747387995
2.858183736071355e-09,2.589058169890865e-05,2.858183736071355e-09,2.589058169479438e-05,2.858183736071355e-09,2.589058168189877e-05,2.858183736071355e-09,3.253766809732984e-05,2.858183736071355e-09,0.4767687422618637
2.882467277267496e-09,2.58905816988852e-05,2.882467277267496e-09,2.589058169980729e-05,2.882467277267496e-09,2.589058171080865e-05,2.882467277267496e-09,3.253766868503438e-05,2.882467277267496e-09,0.4902595984819423
2.909232680450441e-09,2.589058169830306e-05,2.909232680450441e-09,2.589058169515083e-05,2.909232680450441e-09,2.58905816859741e-05,2.909232680450441e-09,3.253766833275922e-05,2.909232680450441e-09,0.5051292669169117
2.93439298485918e-09,2.589058169913747e-05,2.93439298485918e-09,2.589058169945065e-05,2.93439298485918e-09,2.589058170727731e-05,2.93439298485918e-09,3.253766850249835e-05,2.93439298485918e-09,0.5191072138106556
2.984713593676658e-09,2.589058169534199e-05,2.984713593676658e-09,2.589058169797168e-05,2.984713593676658e-09,2.589058168824609e-05,2.984713593676658e-09,3.253766844984577e-05,2.984713593676658e-09,0.5470631075981435
3.022336694930902e-09,2.589058169922722e-05,3.022336694930902e-09,2.58905816971556e-05,3.022336694930902e-09,2.589058170518128e-05,3.022336694930902e-09,3.25376684294408e-05,3.022336694930902e-09,0.5679648305171677
3.070150733755931e-09,2.589058169571312e-05,3.070150733755931e-09,2.58905816976673e-05,3.070150733755931e-09,2.589058169315106e-05,3.070150733755931e-09,3.253766851552166e-05,3.070150733755931e-09,0.5945281854199619
3.081384249713348e-09,2.5890581698194e-05,3.081384249713348e-09,2.589058169755264e-05,3.081384249713348e-09,2.589058169907993e-05,3.081384249713348e-09,3.253766832326215e-05,3.081384249713348e-09,0.6007690276185265
3.10385128162818e-09,2.589058169665533e-05,3.10385128162818e-09,2.589058169511327e-05,3.10385128162818e-09,2.58905816964173e-05,3.10385128162818e-09,3.253766861724642e-05,3.10385128162818e-09,0.6132507120156556
3.112709274928445e-09,2.589058169768943e-05,3.112709274928445e-09,2.589058169918582e-05,3.112709274928445e-09,2.58905816967618e-05,3.112709274928445e-09,3.253766827365949e-05,3.112709274928445e-09,0.6181718194046918
3.130425261528976e-09,2.589058169668672e-05,3.130425261528976e-09,2.589058169569845e-05,3.130425261528976e-09,2.589058169825154e-05,3.130425261528976e-09,3.253766864451804e-05,3.130425261528976e-09,0.6280140341827642
3.133982735043405e-09,2.589058169586401e-05,3.133982735043405e-09,2.589058169811706e-05,3.133982735043405e-09,2.589058169319471e-05,3.133982735043405e-09,3.253766824892172e-05,3.133982735043405e-09,0.6299904083574471
3.141097682072263e-09,2.589058169591641e-05,3.141097682072263e-09,2.589058169848685e-05,3.141097682072263e-09,2.589058169452567e-05,3.141097682072263e-09,3.253766848332267e-05,3.141097682072263e-09,0.6339431567068128
3.147129813877398e-09,2.589058169822174e-05,3.147129813877398e-09,2.589058169770714e-05,3.147129813877398e-09,2.589058171053388e-05,3.147129813877398e-09,3.253766849645044e-05,3.147129813877398e-09,0.6372943410429988
3.153699400699984e-09,2.589058169825997e-05,3.153699400699984e-09,2.589058169883202e-05,3.153699400699984e-09,2.58905817343517e-05,3.153699400699984e-09,3.253766975167682e-05,3.153699400699984e-09,0.6409441114999913
3.159570414657966e-09,2.589058169362554e-05,3.159570414657966e-09,2.589058169475079e-05,3.159570414657966e-09,2.589058157926461e-05,3.159570414657966e-09,3.25376667547476e-05,3.159570414657966e-09,0.6442057859210922
3.168538343233343e-09,2.589058170454192e-05,3.168538343233343e-09,2.589058170225214e-05,3.168538343233343e-09,2.589058191061686e-05,3.168538343233343e-09,3.253767246770668e-05,3.168538343233343e-09,0.6491879684629683
3.175966997592744e-09,2.589058167403236e-05,3.175966997592744e-09,2.58905816931947e-05,3.175966997592744e-09,2.589058099344255e-05,3.175966997592744e-09,3.253765389536748e-05,3.175966997592744e-09,0.6533149986626354
3.184551598567432e-09,2.589058152620087e-05,3.184551598567432e-09,2.589058169688172e-05,3.184551598567432e-09,2.589057445143257e-05,3.184551598567432e-09,3.253742093218759e-05,3.184551598567432e-09,0.6580842214263511
3.191637983273605e-09,2.589058317790228e-05,3.191637983273605e-09,2.589058172374072e-05,3.191637983273605e-09,2.589062617250097e-05,3.191637983273605e-09,3.253860652005223e-05,3.191637983273605e-09,0.6620211018186691
3.193652152088922e-09,2.589058815875e-05,3.193652152088922e-09,2.589058184097614e-05,3.193652152088922e-09,2.589075730490001e-05,3.193652152088922e-09,3.25410392889872e-05,3.193652152088922e-09,0.6631400844938455
3.197680489719557e-09,2.589058778816623e-05,3.197680489719557e-09,2.589058164531259e-05,3.197680489719557e-09,2.589083914804459e-05,3.197680489719557e-09,3.254621346704272e-05,3.197680489719557e-09,0.6653780498441985
3.202183069359487e-09,2.589055584021751e-05,3.202183069359487e-09,2.589058108449531e-05,3.202183069359487e-09,2.589005208941473e-05,3.202183069359487e-09,3.25347078081276e-05,3.202183069359487e-09,0.6678794829774928
3.207604446239021e-09,2.589057260543907e-05,3.207604446239021e-09,2.589058209968531e-05,3.207604446239021e-09,2.588914906373061e-05,3.207604446239021e-09,3.249991173173546e-05,3.207604446239021e-09,0.6708913590216782
3.212355777417811e-09,2.589060513030262e-05,3.212355777417811e-09,2.589058172697766e-05,3.212355777417811e-09,2.58868810414354e-05,3.212355777417811e-09,3.242032673010944e-05,3.212355777417811e-09,0.6735309874543396
3.217358258358204e-09,2.589052116890146e-05,3.217358258358204e-09,2.589058346203577e-05,3.217358258358204e-09,2.589519831868206e-05,3.217358258358204e-09,3.251361475923087e-05,3.217358258358204e-09,0.6763101435323358
3.223027809052217e-09,2.589070390290811e-05,3.223027809052217e-09,2.589058186973705e-05,3.223027809052217e-09,2.590327595232363e-05,3.223027809052217e-09,3.283409158214166e-05,3.223027809052217e-09,0.6794598939178984
3.227714238840073e-09,2.58906987500501e-05,3.227714238840073e-09,2.589057347231669e-05,3.227714238840073e-09,2.587933559204447e-05,3.227714238840073e-09,3.260578688202258e-05,3.227714238840073e-09,0.6820634660222629
3.23484502980444e-09,2.589038594023181e-05,3.23484502980444e-09,2.589059007566668e-05,3.23484502980444e-09,2.588610049488337e-05,3.23484502980444e-09,3.23906815095984e-05,3.23484502980444e-09,0.6860250165580224
3.240457938583788e-09,2.589070577006834e-05,3.240457938583788e-09,2.589058180974573e-05,3.240457938583788e-09,2.589527079267467e-05,3.240457938583788e-09,3.250685002124618e-05,3.240457938583788e-09,0.6891432992132152
3.245419052518654e-09,2.58908908426221e-05,3.245419052518654e-09,2.589057711614772e-05,3.245419052518654e-09,2.588994092687977e-05,3.245419052518654e-09,3.250681437942635e-05,3.245419052518654e-09,0.6918994736214746
3.246752630217127e-09,2.589087402375444e-05,3.246752630217127e-09,2.589058157121741e-05,3.246752630217127e-09,2.589104905776982e-05,3.246752630217127e-09,3.252549865987505e-05,3.246752630217127e-09,0.6926403501206262
3.249419785614073e-09,2.589074698166675e-05,3.249419785614073e-09,2.589058044033489e-05,3.249419785614073e-09,2.588827908255447e-05,3.249419785614073e-09,3.248704266796214e-05,3.249419785614073e-09,0.6941221031189293
3.253576536424587e-09,2.589086971951715e-05,3.253576536424587e-09,2.589058457696074e-05,3.253576536424587e-09,2.588650695401247e-05,3.253576536424587e-09,3.240703825300163e-05,3.253576536424587e-09,0.6964314091247706
3.256881852880669e-09,2.589164324897377e-05,3.256881852880669e-09,2.589058604849703e-05,3.256881852880669e-09,2.588362922423838e-05,3.256881852880669e-09,3.231176668329956e-05,3.256881852880669e-09,0.6982676960448161
3.260171314399178e-09,2.588627393501366e-05,3.260171314399178e-09,2.58905452946309e-05,3.260171314399178e-09,2.588744004927402e-05,3.260171314399178e-09,3.218599996459734e-05,3.260171314399178e-09,0.7000951746662101
3.263347165335731e-09,2.579836964306474e-05,3.263347165335731e-09,2.588997074637612e-05,3.263347165335731e-09,2.589830956516095e-05,3.263347165335731e-09,3.070195528175464e-05,3.263347165335731e-09,0.7018595362976281
3.266261809875182e-09,2.576004341846196e-05,3.266261809875182e-09,2.589028713940726e-05,3.266261809875182e-09,2.590968875690307e-05,3.266261809875182e-09,2.907908322135088e-05,3.266261809875182e-09,0.7034787832639898
3.269205848297331e-09,2.601551878132087e-05,3.269205848297331e-09,2.589263277038152e-05,3.269205848297331e-09,2.591361818484717e-05,3.269205848297331e-09,3.196897465262161e-05,3.269205848297331e-09,0.7051143601651837
3.271872195318147e-09,2.69589310384831e-05,3.271872195318147e-09,2.589797711676914e-05,3.271872195318147e-09,2.591016277959501e-05,3.271872195318147e-09,4.94830742027631e-05,3.271872195318147e-09,0.706595664065637
3.27421990458009e-09,2.823119951370033e-05,3.27421990458009e-09,2.590134449001505e-05,3.27421990458009e-09,2.590934328235574e-05,3.27421990458009e-09,8.088813811121612e-05,3.27421990458009e-09,0.7078999469889388
3.276183511447291e-09,2.83703767289891e-05,3.276183511447291e-09,2.589177018600754e-05,3.276183511447291e-09,2.59080623011032e-05,3.276183511447291e-09,0.0001033575111454723,3.276183511447291e-09,0.7089908396929396
3.278604554916414e-09,2.686876573517863e-05,3.278604554916414e-09,2.587627451606608e-05,3.278604554916414e-09,2.58787755830022e-05,3.278604554916414e-09,8.337260371395936e-05,3.278604554916414e-09,0.7103358638424521
3.281253530115373e-09,2.45774345489104e-05,3.281253530115373e-09,2.586820313682108e-05,3.281253530115373e-09,2.584390699918375e-05,3.281253530115373e-09,-0.0002022886456148101,3.281253530115373e-09,0.7118075167307627
3.283806868529224e-09,1.799299044614982e-05,3.283806868529224e-09,2.58704608922576e-05,3.283806868529224e-09,2.583966690603865e-05,3.283806868529224e-09,-0.001022267868124849,3.283806868529224e-09,0.7132260380717913
3.286183098176772e-09,4.083652611365434e-06,3.286183098176772e-09,2.590259852922411e-05,3.286183098176772e-09,2.587740160310703e-05,3.286183098176772e-09,-0.001480040399134527,3.286183098176772e-09,0.7145461656537622
3.288331918555258e-09,-1.122864556514517e-06,3.288331918555258e-09,2.591915610323323e-05,3.288331918555258e-09,2.589724501395998e-05,3.288331918555258e-09,-0.001307644289527829,3.288331918555258e-09,0.7157399547529212
3.290570946367015e-09,6.351275074744908e-06,3.290570946367015e-09,2.591408359421177e-05,3.290570946367015e-09,2.588609565909373e-05,3.290570946367015e-09,-0.0009061987536662083,3.290570946367015e-09,0.7169838590927861
3.293372614745521e-09,2.06860227566967e-05,3.293372614745521e-09,2.591059555156056e-05,3.293372614745521e-09,2.587961646465864e-05,3.293372614745521e-09,-0.0005827825314077519,3.293372614745521e-09,0.7185403415252894
3.295380838151429e-09,3.164016219479266e-05,3.295380838151429e-09,2.592621825944177e-05,3.295380838151429e-09,2.587951108281218e-05,3.295380838151429e-09,-0.0007304003582610441,3.295380838151429e-09,0.7196560211952381
3.297479778878319e-09,7.016540837928771e-05,3.297479778878319e-09,2.595278085182006e-05,3.297479778878319e-09,2.588941852578869e-05,3.297479778878319e-09,-0.001289799284555651,3.297479778878319e-09,0.7208220993768436
3.299703001740628e-09,0.0002508149321238016,3.299703001740628e-09,2.593594144801957e-05,3.299703001740628e-09,2.590136552969971e-05,3.299703001740628e-09,-0.002170964580976574,3.299703001740628e-09,0.7220572231892376
3.302145242463909e-09,0.0007556550181348427,3.302145242463909e-09,2.58541506652044e-05,3.302145242463909e-09,2.591659825945365e-05,3.302145242463909e-09,-0.003049083237691012,3.302145242463909e-09,0.7234140235910604
3.304419922414683e-09,-0.0001059753412006316,3.304419922414683e-09,2.579615374057212e-05,3.304419922414683e-09,2.591668546640787e-05,3.304419922414683e-09,-0.003635912417555757,3.304419922414683e-09,0.7246777346748241
3.306917711438824e-09,-0.00827480505076781,3.306917711438824e-09,2.576263374617451e-05,3.306917711438824e-09,2.591315249410169e-05,3.306917711438824e-09,-0.003826201865665565,3.306917711438824e-09,0.7260653952437908
3.309116479285126e-09,-0.01646784186166491,3.309116479285126e-09,2.579086991753502e-05,3.309116479285126e-09,2.590910598242012e-05,3.309116479285126e-09,-0.003466910701871744,3.309116479285126e-09,0.7272869329361809
3.311305845242964e-09,-0.0150000128911768,3.311305845242964e-09,2.584479321693977e-05,3.311305845242964e-09,2.589884073848838e-05,3.311305845242964e-09,-0.002662427541677155,3.311305845242964e-09,0.7285032473572023
3.313410036911244e-09,0.01864542949321711,3.313410036911244e-09,2.588797876341314e-05,3.313410036911244e-09,2.587609896807279e-05,3.313410036911244e-09,-0.001969561056346782,3.313410036911244e-09,0.7296722427284689
3.315163107773959e-09,0.08827211353059516,3.315163107773959e-09,2.593736943026679e-05,3.315163107773959e-09,2.587875150439388e-05,3.315163107773959e-09,-0.001288310014180361,3.315163107773959e-09,0.7306461709855326
3.317318823797468e-09,0.2199593016662738,3.317318823797468e-09,2.598085084050435e-05,3.317318823797468e-09,2.589592733648383e-05,3.317318823797468e-09,5.008886803078067e-06,3.317318823797468e-09,0.7318437909985935
3.319592361693707e-09,0.3819078746081597,3.319592361693707e-09,2.59596062138544e-05,3.319592361693707e-09,2.588052044433082e-05,3.319592361693707e-09,0.001408757616247316,3.319592361693707e-09,0.7331068676076151
3.322224919426594e-09,0.5650736127285356,3.322224919426594e-09,2.591725271517185e-05,3.322224919426594e-09,2.587112280210463e-05,3.322224919426594e-09,0.002702837170394198,3.322224919426594e-09,0.7345693996814413
3.324562583874468e-09,0.6980656454527177,3.324562583874468e-09,2.589591921628489e-05,3.324562583874468e-09,2.586892418664507e-05,3.324562583874468e-09,0.003303206518805756,3.324562583874468e-09,0.735868102152482
3.326698019449787e-09,0.7840173363933584,3.326698019449787e-09,2.588860092737372e-05,3.326698019449787e-09,2.587753700542615e-05,3.326698019449787e-09,0.003429164692768584,3.326698019449787e-09,0.7370544552498814
3.328878282568734e-09,0.8628557929510023,3.328878282568734e-09,2.589694552044336e-05,3.328878282568734e-09,2.588972244113587e-05,3.328878282568734e-09,0.003271881126489217,3.328878282568734e-09,0.7382657125381856
3.331350834229799e-09,1.022801757146776,3.331350834229799e-09,2.589725971540176e-05,3.331350834229799e-09,2.589740717213424e-05,3.331350834229799e-09,0.002872960440982682,3.331350834229799e-09,0.7396393523498883
