/net039 X,/net039 Y,/net010 X,/net010 Y,/net09 X,/net09 Y,/net08 X,/net08 Y,/net02 X,/net02 Y
0,2.408439530917354e-05,0,2.408439530903841e-05,0,2.408439530922014e-05,0,3.040858391302067e-05,0,0
1.5e-11,2.408439530925348e-05,1.5e-11,2.408439530912137e-05,1.5e-11,2.408439530888135e-05,1.5e-11,3.040858391317205e-05,1.5e-11,0
4.5e-11,2.408439530906659e-05,4.5e-11,2.40843953089246e-05,4.5e-11,2.408439530913503e-05,4.5e-11,3.040858391294484e-05,4.5e-11,0
1.05e-10,2.408439531100198e-05,1.05e-10,2.408439530895013e-05,1.05e-10,2.40843953086289e-05,1.05e-10,3.040858391330837e-05,1.05e-10,0
2.25e-10,2.40843953064177e-05,2.25e-10,2.408439531086905e-05,2.25e-10,2.408439530863069e-05,2.25e-10,3.040858391291384e-05,2.25e-10,0
4.65e-10,2.408439531059167e-05,4.65e-10,2.408439530907632e-05,4.65e-10,2.408439530590741e-05,4.65e-10,3.040858391349778e-05,4.65e-10,0
7.649999999999999e-10,2.408439530909667e-05,7.649999999999999e-10,2.408439530773963e-05,7.649999999999999e-10,2.408439531116299e-05,7.649999999999999e-10,3.040858391299226e-05,7.649999999999999e-10,0
1.065e-09,2.408439531070391e-05,1.065e-09,2.408439531189781e-05,1.065e-09,2.40843953059894e-05,1.065e-09,3.040858391313058e-05,1.065e-09,0
1.365e-09,2.408439530659405e-05,1.365e-09,2.408439530807829e-05,1.365e-09,2.408439531108191e-05,1.365e-09,3.040858391297585e-05,1.365e-09,0
1.665e-09,2.408439531066529e-05,1.665e-09,2.408439531166257e-05,1.665e-09,2.408439530632776e-05,1.665e-09,3.040858391365301e-05,1.665e-09,0
1.8325e-09,2.40843953091834e-05,1.8325e-09,2.408439530826306e-05,1.8325e-09,2.408439531349183e-05,1.8325e-09,3.040858391254378e-05,1.8325e-09,0
2e-09,2.40843953103323e-05,2e-09,2.408439530895947e-05,2e-09,2.40843953061613e-05,2e-09,3.040858391367454e-05,2e-09,0
2.120144127384571e-09,2.408439530927815e-05,2.120144127384571e-09,2.408439530892686e-05,2.120144127384571e-09,2.408439530919494e-05,2.120144127384571e-09,3.040858391470837e-05,2.120144127384571e-09,0.06674673743587282
2.261585129605973e-09,2.408439530838874e-05,2.261585129605973e-09,2.408439530894163e-05,2.261585129605973e-09,2.408439530839697e-05,2.261585129605973e-09,3.040858389048986e-05,2.261585129605973e-09,0.1453250720033182
2.400273546196973e-09,2.408439531130802e-05,2.400273546196973e-09,2.408439531104024e-05,2.400273546196973e-09,2.408439531146778e-05,2.400273546196973e-09,3.040858399202185e-05,2.400273546196973e-09,0.2223741923316513
2.469617754492472e-09,2.408439530384863e-05,2.469617754492472e-09,2.40843953065343e-05,2.469617754492472e-09,2.408439530830867e-05,2.469617754492472e-09,3.040858359355267e-05,2.469617754492472e-09,0.2608987524958178
2.504289858640222e-09,2.408439531279575e-05,2.504289858640222e-09,2.408439531295651e-05,2.504289858640222e-09,2.408439531421226e-05,2.504289858640222e-09,3.040858507076241e-05,2.504289858640222e-09,0.280161032577901
2.573634066935721e-09,2.408439530688285e-05,2.573634066935721e-09,2.408439530449404e-05,2.573634066935721e-09,2.408439530087591e-05,2.573634066935721e-09,3.040858225560029e-05,2.573634066935721e-09,0.3186855927420672
2.595730582874253e-09,2.408439531011688e-05,2.595730582874253e-09,2.408439531207154e-05,2.595730582874253e-09,2.408439532895017e-05,2.595730582874253e-09,3.040858653978169e-05,2.595730582874253e-09,0.3309614349301403
2.606778840843518e-09,2.408439530727667e-05,2.606778840843518e-09,2.408439530613682e-05,2.606778840843518e-09,2.408439527466503e-05,2.606778840843518e-09,3.040858242375489e-05,2.606778840843518e-09,0.3370993560241768
2.62887535678205e-09,2.408439531227722e-05,2.62887535678205e-09,2.408439531117209e-05,2.62887535678205e-09,2.408439533712481e-05,2.62887535678205e-09,3.04085838898664e-05,2.62887535678205e-09,0.3493751982122499
2.646797031229827e-09,2.408439530785895e-05,2.646797031229827e-09,2.408439530593688e-05,2.646797031229827e-09,2.408439529596282e-05,2.646797031229827e-09,3.04085853638587e-05,2.646797031229827e-09,0.3593316840165703
2.667251792881372e-09,2.408439531195436e-05,2.667251792881372e-09,2.408439531085609e-05,2.667251792881372e-09,2.408439530690958e-05,2.667251792881372e-09,3.040858186101397e-05,2.667251792881372e-09,0.3706954404896511
2.685543857502148e-09,2.408439530579412e-05,2.685543857502148e-09,2.408439530644992e-05,2.685543857502148e-09,2.408439532344221e-05,2.685543857502148e-09,3.040858606557373e-05,2.685543857502148e-09,0.3808576986123043
2.701176911356256e-09,2.408439531104949e-05,2.701176911356256e-09,2.408439531029132e-05,2.701176911356256e-09,2.408439528650138e-05,2.701176911356256e-09,3.040858205520127e-05,2.701176911356256e-09,0.3895427285312532
2.718776443821552e-09,2.408439530611605e-05,2.718776443821552e-09,2.408439530691489e-05,2.718776443821552e-09,2.408439533223252e-05,2.718776443821552e-09,3.040858536701315e-05,2.718776443821552e-09,0.3993202465675288
2.736613698810063e-09,2.408439531050753e-05,2.736613698810063e-09,2.408439531003924e-05,2.736613698810063e-09,2.408439528551753e-05,2.736613698810063e-09,3.040858285647076e-05,2.736613698810063e-09,0.409229832672257
2.758142040574298e-09,2.408439530645846e-05,2.758142040574298e-09,2.408439530967399e-05,2.758142040574298e-09,2.40843953300394e-05,2.758142040574298e-09,3.040858468118556e-05,2.758142040574298e-09,0.4211900225412769
2.783425685004911e-09,2.408439531044816e-05,2.783425685004911e-09,2.408439530998058e-05,2.783425685004911e-09,2.408439528879164e-05,2.783425685004911e-09,3.040858335238399e-05,2.783425685004911e-09,0.4352364916693949
2.81117579573988e-09,2.408439530942529e-05,2.81117579573988e-09,2.408439530951537e-05,2.81117579573988e-09,2.408439532647536e-05,2.81117579573988e-09,3.040858431455624e-05,2.81117579573988e-09,0.450653219855489
2.837078203266241e-09,2.40843953080034e-05,2.837078203266241e-09,2.408439531022075e-05,2.837078203266241e-09,2.408439529268299e-05,2.837078203266241e-09,3.040858365353218e-05,2.837078203266241e-09,0.4650434462590228
2.864764818255742e-09,2.40843953118037e-05,2.864764818255742e-09,2.408439530720925e-05,2.864764818255742e-09,2.408439532271065e-05,2.864764818255742e-09,3.04085840633484e-05,2.864764818255742e-09,0.4804248990309676
2.888390747843863e-09,2.408439530855154e-05,2.888390747843863e-09,2.408439531238074e-05,2.888390747843863e-09,2.408439529679442e-05,2.888390747843863e-09,3.040858386589688e-05,2.888390747843863e-09,0.4935504154688129
2.91486190476116e-09,2.408439530865299e-05,2.91486190476116e-09,2.408439530969377e-05,2.91486190476116e-09,2.408439531878261e-05,2.91486190476116e-09,3.040858388733452e-05,2.91486190476116e-09,0.5082566137561999
2.940082210196898e-09,2.408439530830738e-05,2.940082210196898e-09,2.408439530768052e-05,2.940082210196898e-09,2.40843953026764e-05,2.940082210196898e-09,3.040858399960596e-05,2.940082210196898e-09,0.5222678945538323
2.990522821068374e-09,2.408439530874939e-05,2.990522821068374e-09,2.408439530968396e-05,2.990522821068374e-09,2.408439531413045e-05,2.990522821068374e-09,3.04085838013099e-05,2.990522821068374e-09,0.5502904561490968
3.027836358212392e-09,2.408439530871629e-05,3.027836358212392e-09,2.408439530984917e-05,3.027836358212392e-09,2.408439530642277e-05,3.027836358212392e-09,3.04085840538974e-05,3.027836358212392e-09,0.5710201990068846
3.076828545575636e-09,2.40843953110465e-05,3.076828545575636e-09,2.408439530960168e-05,3.076828545575636e-09,2.408439530998407e-05,3.076828545575636e-09,3.040858375367534e-05,3.076828545575636e-09,0.5982380808753535
3.088270430360919e-09,2.408439530696639e-05,3.088270430360919e-09,2.408439530831981e-05,3.088270430360919e-09,2.408439531106807e-05,3.088270430360919e-09,3.040858412682234e-05,3.088270430360919e-09,0.6045946835338438
3.111154199931484e-09,2.408439531020005e-05,3.111154199931484e-09,2.408439530893073e-05,3.111154199931484e-09,2.40843953056016e-05,3.111154199931484e-09,3.040858368406674e-05,3.111154199931484e-09,0.6173078888508245
3.119201844907257e-09,2.408439530932813e-05,3.119201844907257e-09,2.408439531048917e-05,3.119201844907257e-09,2.408439531196821e-05,3.119201844907257e-09,3.04085841632755e-05,3.119201844907257e-09,0.6217788027262541
3.123225667395144e-09,2.408439530844822e-05,3.123225667395144e-09,2.408439530905175e-05,3.123225667395144e-09,2.408439530583294e-05,3.123225667395144e-09,3.040858366786547e-05,3.123225667395144e-09,0.6240142596639687
3.131273312370917e-09,2.408439531133042e-05,3.131273312370917e-09,2.408439530901655e-05,3.131273312370917e-09,2.408439531020562e-05,3.131273312370917e-09,3.040858412675039e-05,3.131273312370917e-09,0.6284851735393983
3.134354649524656e-09,2.408439530941263e-05,3.134354649524656e-09,2.408439530934845e-05,3.134354649524656e-09,2.408439530648076e-05,3.134354649524656e-09,3.040858377064911e-05,3.134354649524656e-09,0.6301970275136975
3.140517323832133e-09,2.408439531068696e-05,3.140517323832133e-09,2.408439530812175e-05,3.140517323832133e-09,2.408439530881035e-05,3.140517323832133e-09,3.040858399147445e-05,3.140517323832133e-09,0.6336207354622959
3.146588685724549e-09,2.408439530713279e-05,3.146588685724549e-09,2.408439530857621e-05,3.146588685724549e-09,2.408439529881497e-05,3.146588685724549e-09,3.040858350834239e-05,3.146588685724549e-09,0.6369937142914159
3.152997237317777e-09,2.40843953126448e-05,3.152997237317777e-09,2.408439530988705e-05,3.152997237317777e-09,2.40843953660974e-05,3.152997237317777e-09,3.04085851244175e-05,3.152997237317777e-09,0.6405540207320986
3.158907816737591e-09,2.408439530593139e-05,3.158907816737591e-09,2.408439530515058e-05,3.158907816737591e-09,2.408439525000818e-05,3.158907816737591e-09,3.040858374770352e-05,3.158907816737591e-09,0.6438376759653285
3.165252867813465e-09,2.408439530786545e-05,3.165252867813465e-09,2.408439531061644e-05,3.165252867813465e-09,2.40843952968191e-05,3.165252867813465e-09,3.040858319335367e-05,3.165252867813465e-09,0.647362704340814
3.173523149477037e-09,2.408439531210192e-05,3.173523149477037e-09,2.408439531221555e-05,3.173523149477037e-09,2.408439552764098e-05,3.173523149477037e-09,3.040858996205651e-05,3.173523149477037e-09,0.6519573052650206
3.179811886791971e-09,2.408439523717288e-05,3.179811886791971e-09,2.408439530201027e-05,3.179811886791971e-09,2.408439286673709e-05,3.179811886791971e-09,3.040852652522544e-05,3.179811886791971e-09,0.6554510482177617
3.18554382188653e-09,2.408439499586175e-05,3.18554382188653e-09,2.408439530881041e-05,3.18554382188653e-09,2.408438332830059e-05,3.18554382188653e-09,3.040821675642043e-05,3.18554382188653e-09,0.6586354566036277
3.191596628676976e-09,2.408439695676107e-05,3.191596628676976e-09,2.408439534258472e-05,3.191596628676976e-09,2.408443876570847e-05,3.191596628676976e-09,3.040928461288652e-05,3.191596628676976e-09,0.6619981270427644
3.193457328161001e-09,2.408439798803198e-05,3.193457328161001e-09,2.408439534357462e-05,3.193457328161001e-09,2.408447632832545e-05,3.193457328161001e-09,3.041027620948317e-05,3.193457328161001e-09,0.6630318489783337
3.19717872712905e-09,2.408440143806013e-05,3.19717872712905e-09,2.408439536281845e-05,3.19717872712905e-09,2.408461279249878e-05,3.19717872712905e-09,3.041452771186982e-05,3.19717872712905e-09,0.6650992928494721
3.201650444970417e-09,2.4084388033406e-05,3.201650444970417e-09,2.408439502772622e-05,3.201650444970417e-09,2.408434021052972e-05,3.201650444970417e-09,3.0413506904243e-05,3.201650444970417e-09,0.6675835805391205
3.203198699737333e-09,2.408437201763263e-05,3.203198699737333e-09,2.408439471070429e-05,3.203198699737333e-09,2.408393787731133e-05,3.203198699737333e-09,3.040722375861683e-05,3.203198699737333e-09,0.6684437220762962
3.206295209271166e-09,2.40843690075863e-05,3.206295209271166e-09,2.408439533570928e-05,3.206295209271166e-09,2.408349027717993e-05,3.206295209271166e-09,3.039145452287655e-05,3.206295209271166e-09,0.6701640051506476
3.210264717352171e-09,2.408441781199114e-05,3.210264717352171e-09,2.40843959808672e-05,3.210264717352171e-09,2.408278402264582e-05,3.210264717352171e-09,3.036021260135386e-05,3.210264717352171e-09,0.6723692874178729
3.214870266109139e-09,2.408440179946622e-05,3.214870266109139e-09,2.408439458604221e-05,3.214870266109139e-09,2.408044217015525e-05,3.214870266109139e-09,3.027325760713577e-05,3.214870266109139e-09,0.6749279256161881
3.219663888908288e-09,2.408432041988211e-05,3.219663888908288e-09,2.408439848246653e-05,3.219663888908288e-09,2.409319424707612e-05,3.219663888908288e-09,3.045641067373357e-05,3.219663888908288e-09,0.6775910493934933
3.224069899167727e-09,2.408454945472965e-05,3.224069899167727e-09,2.40843938476512e-05,3.224069899167727e-09,2.409564589181088e-05,3.224069899167727e-09,3.071066126639483e-05,3.224069899167727e-09,0.6800388328709596
3.228741067839969e-09,2.408450150088758e-05,3.228741067839969e-09,2.4084387822549e-05,3.228741067839969e-09,2.407162699823167e-05,3.228741067839969e-09,3.044716821238904e-05,3.228741067839969e-09,0.6826339265777605
3.234551544853426e-09,2.408417752388895e-05,3.234551544853426e-09,2.408440390030571e-05,3.234551544853426e-09,2.408062606222996e-05,3.234551544853426e-09,3.028086997148888e-05,3.234551544853426e-09,0.6858619693630141
3.239918538156439e-09,2.408447894470609e-05,3.239918538156439e-09,2.408439484351391e-05,3.239918538156439e-09,2.408793761620515e-05,3.239918538156439e-09,3.036734965740108e-05,3.239918538156439e-09,0.6888436323091327
3.24475860926313e-09,2.408472489837391e-05,3.24475860926313e-09,2.408439265788896e-05,3.24475860926313e-09,2.408336701363081e-05,3.24475860926313e-09,3.036190547691728e-05,3.24475860926313e-09,0.6915325607017387
3.249169854963791e-09,2.408489043124681e-05,3.249169854963791e-09,2.408439542512733e-05,3.249169854963791e-09,2.408199507415753e-05,3.249169854963791e-09,3.032874925758311e-05,3.249169854963791e-09,0.6939832527576617
3.253636037543241e-09,2.408559307762346e-05,3.253636037543241e-09,2.408440024976122e-05,3.253636037543241e-09,2.407818760309218e-05,3.253636037543241e-09,3.021259803819192e-05,3.253636037543241e-09,0.6964644653018005
3.256886575789683e-09,2.408576028844573e-05,3.256886575789683e-09,2.408440000267988e-05,3.256886575789683e-09,2.408061786752008e-05,3.256886575789683e-09,3.017965497438271e-05,3.256886575789683e-09,0.6982703198831569
3.2599891730677e-09,2.402669090631323e-05,3.2599891730677e-09,2.408398651205066e-05,3.2599891730677e-09,2.408836981409646e-05,3.2599891730677e-09,2.922070608827838e-05,3.2599891730677e-09,0.6999939850376109
3.262947088261714e-09,2.393337709023106e-05,3.262947088261714e-09,2.408374362720362e-05,3.262947088261714e-09,2.410177907851202e-05,3.262947088261714e-09,2.703774129936336e-05,3.262947088261714e-09,0.7016372712565078
3.265707961836053e-09,2.408213328811503e-05,3.265707961836053e-09,2.408558443638724e-05,3.265707961836053e-09,2.410901955571489e-05,3.265707961836053e-09,2.778931381314522e-05,3.265707961836053e-09,0.7031710899089183
3.266349403287049e-09,2.417794371429454e-05,3.266349403287049e-09,2.408637369237797e-05,3.266349403287049e-09,2.410951440115114e-05,3.266349403287049e-09,2.89281787804892e-05,3.266349403287049e-09,0.7035274462705827
3.267632286189041e-09,2.446395707637392e-05,3.267632286189041e-09,2.408822626189179e-05,3.267632286189041e-09,2.410548970209818e-05,3.267632286189041e-09,3.353211161367852e-05,3.267632286189041e-09,0.7042401589939115
3.269364006292713e-09,2.534349269643798e-05,3.269364006292713e-09,2.409325769159031e-05,3.269364006292713e-09,2.41025296876261e-05,3.269364006292713e-09,4.970676779510586e-05,3.269364006292713e-09,0.705202225718174
3.270971217735722e-09,2.645715901080953e-05,3.270971217735722e-09,2.409708973689192e-05,3.270971217735722e-09,2.410970493878019e-05,3.270971217735722e-09,7.528046428178822e-05,3.270971217735722e-09,0.7060951209642897
3.273072329448203e-09,2.6923823664606e-05,3.273072329448203e-09,2.408742102033449e-05,3.273072329448203e-09,2.410304996413204e-05,3.273072329448203e-09,0.0001060237274831923,3.273072329448203e-09,0.7072624052490015
3.275518242795109e-09,2.538334793814502e-05,3.275518242795109e-09,2.406972430772929e-05,3.275518242795109e-09,2.40618004929283e-05,3.275518242795109e-09,9.660809419532833e-05,3.275518242795109e-09,0.7086212459972825
3.278090421060865e-09,2.254799692671997e-05,3.278090421060865e-09,2.405734053651493e-05,3.278090421060865e-09,2.403250201687434e-05,3.278090421060865e-09,-0.0002021885155999636,3.278090421060865e-09,0.7100502339227025
3.280550331832609e-09,1.485619609197436e-05,3.280550331832609e-09,2.406154763627691e-05,3.280550331832609e-09,2.403198304846053e-05,3.280550331832609e-09,-0.001067987773697832,3.280550331832609e-09,0.7114168510181162
3.282698586918255e-09,1.388832290116167e-06,3.282698586918255e-09,2.409879300006582e-05,3.282698586918255e-09,2.407166147706813e-05,3.282698586918255e-09,-0.001514380135072275,3.282698586918255e-09,0.7126103260656974
3.284749641181993e-09,-3.456407701594571e-06,3.284749641181993e-09,2.411973250739832e-05,3.284749641181993e-09,2.409366942666519e-05,3.284749641181993e-09,-0.001332201761547779,3.284749641181993e-09,0.7137498006566628
3.286936703627927e-09,5.290120976580002e-06,3.286936703627927e-09,2.41131699231213e-05,3.286936703627927e-09,2.408038124315241e-05,3.286936703627927e-09,-0.000935392538735904,3.286936703627927e-09,0.7149648353488482
3.289246570140063e-09,1.66483914853479e-05,3.289246570140063e-09,2.410563664592795e-05,3.289246570140063e-09,2.407540354845539e-05,3.289246570140063e-09,-0.0006864077477324547,3.289246570140063e-09,0.7162480945222572
3.291171660229728e-09,2.348816103683825e-05,3.291171660229728e-09,2.409464455533992e-05,3.291171660229728e-09,2.407505647464738e-05,3.291171660229728e-09,-0.0008640999485401707,3.291171660229728e-09,0.7173175890165157
3.293132586180961e-09,4.427415323126217e-05,3.293132586180961e-09,2.410059870981687e-05,3.293132586180961e-09,2.408418718315436e-05,3.293132586180961e-09,-0.001445942075440706,3.293132586180961e-09,0.718406992322756
3.295782502575287e-09,0.0003023962889378641,3.295782502575287e-09,2.412682402870098e-05,3.295782502575287e-09,2.410002124116367e-05,3.295782502575287e-09,-0.002538635298422784,3.295782502575287e-09,0.7198791680973814
3.297811223788357e-09,0.0008162114275059087,3.297811223788357e-09,2.410674003538665e-05,3.297811223788357e-09,2.411484944467136e-05,3.297811223788357e-09,-0.003199919717196321,3.297811223788357e-09,0.7210062354379759
3.300246157395089e-09,-0.0008366196764605027,3.300246157395089e-09,2.402426164227523e-05,3.300246157395089e-09,2.410928277970278e-05,3.300246157395089e-09,-0.003716932825409051,3.300246157395089e-09,0.7223589763306052
3.302340276142176e-09,-0.00855536586677624,3.302340276142176e-09,2.397648331128307e-05,3.302340276142176e-09,2.410396682566865e-05,3.302340276142176e-09,-0.003794293343441203,3.302340276142176e-09,0.7235223756345421
3.304338600316756e-09,-0.01623534858135394,3.304338600316756e-09,2.39655854287306e-05,3.304338600316756e-09,2.410191987817811e-05,3.304338600316756e-09,-0.003408974477783624,3.304338600316756e-09,0.724632555731531
3.306438157388253e-09,-0.01671484002302923,3.306438157388253e-09,2.401709180133346e-05,3.306438157388253e-09,2.409059946994899e-05,3.306438157388253e-09,-0.002605312237106353,3.306438157388253e-09,0.7257989763268072
3.308350556877268e-09,0.007741156968552492,3.308350556877268e-09,2.405606482776078e-05,3.308350556877268e-09,2.406904570247975e-05,3.308350556877268e-09,-0.001966217586466426,3.308350556877268e-09,0.7268614204873711
3.3100270382555e-09,0.07023193070169381,3.3100270382555e-09,2.411598104530968e-05,3.3100270382555e-09,2.407353622128268e-05,3.3100270382555e-09,-0.001273885306911128,3.3100270382555e-09,0.7277927990308332
3.312094055202885e-09,0.2024178754321277,3.312094055202885e-09,2.417105421943277e-05,3.312094055202885e-09,2.40923101506339e-05,3.312094055202885e-09,7.683530605414354e-05,3.312094055202885e-09,0.7289411417793803
3.314277227566682e-09,0.3694164254590945,3.314277227566682e-09,2.414650971394612e-05,3.314277227566682e-09,2.40732347037395e-05,3.314277227566682e-09,0.001537737785272586,3.314277227566682e-09,0.7301540153148234
