/net039 X,/net039 Y,/net010 X,/net010 Y,/net09 X,/net09 Y,/net08 X,/net08 Y,/net02 X,/net02 Y
0,2.255487370446637e-05,0,2.25548737045133e-05,0,2.255487370438386e-05,0,2.840229443630642e-05,0,0
1.5e-11,2.255487370444448e-05,1.5e-11,2.255487370449145e-05,1.5e-11,2.255487370436005e-05,1.5e-11,2.840229443275154e-05,1.5e-11,0
4.5e-11,2.255487370438274e-05,4.5e-11,2.255487370441449e-05,4.5e-11,2.255487370449394e-05,4.5e-11,2.840229443161065e-05,4.5e-11,0
1.05e-10,2.255487370425601e-05,1.05e-10,2.255487370421451e-05,1.05e-10,2.255487370188308e-05,1.05e-10,2.840229443125083e-05,1.05e-10,0
2.25e-10,2.255487370443447e-05,2.25e-10,2.255487370450508e-05,2.25e-10,2.255487370654904e-05,2.25e-10,2.840229443194635e-05,2.25e-10,0
4.65e-10,2.255487370669154e-05,4.65e-10,2.255487370422546e-05,4.65e-10,2.255487370233256e-05,4.65e-10,2.84022944308746e-05,4.65e-10,0
7.649999999999999e-10,2.255487370192685e-05,7.649999999999999e-10,2.25548737019499e-05,7.649999999999999e-10,2.255487370576693e-05,7.649999999999999e-10,2.840229443175232e-05,7.649999999999999e-10,0
1.065e-09,2.255487370917687e-05,1.065e-09,2.255487370678398e-05,1.065e-09,2.255487370271711e-05,1.065e-09,2.840229443119191e-05,1.065e-09,0
1.365e-09,2.255487369938585e-05,1.365e-09,2.255487369921916e-05,1.365e-09,2.255487370559967e-05,1.365e-09,2.840229443189138e-05,1.365e-09,0
1.665e-09,2.255487370901715e-05,1.665e-09,2.255487370919541e-05,1.665e-09,2.255487370307593e-05,1.665e-09,2.840229443115745e-05,1.665e-09,0
1.8325e-09,2.255487370216153e-05,1.8325e-09,2.255487369947897e-05,1.8325e-09,2.255487370563951e-05,1.8325e-09,2.840229443181049e-05,1.8325e-09,0
2e-09,2.255487370866705e-05,2e-09,2.25548737090772e-05,2e-09,2.255487370304006e-05,2e-09,2.840229443128175e-05,2e-09,0
2.075e-09,2.255487370451537e-05,2.075e-09,2.255487370457157e-05,2.075e-09,2.255487370437438e-05,2.075e-09,2.840229443805483e-05,2.075e-09,0.04166666666666658
2.20404436348408e-09,2.255487370433998e-05,2.20404436348408e-09,2.255487370427038e-05,2.20404436348408e-09,2.255487370438695e-05,2.20404436348408e-09,2.840229438566968e-05,2.20404436348408e-09,0.1133579797133779
2.328921039924755e-09,2.255487370660488e-05,2.328921039924755e-09,2.25548737043568e-05,2.328921039924755e-09,2.255487370648937e-05,2.328921039924755e-09,2.84022945758817e-05,2.328921039924755e-09,0.1827339110693081
2.391359378145092e-09,2.255487370206283e-05,2.391359378145092e-09,2.255487370658992e-05,2.391359378145092e-09,2.255487370148886e-05,2.391359378145092e-09,2.840229388084755e-05,2.391359378145092e-09,0.2174218767472731
2.42257854725526e-09,2.255487370850995e-05,2.42257854725526e-09,2.255487370197062e-05,2.42257854725526e-09,2.255487371138935e-05,2.42257854725526e-09,2.840229635399264e-05,2.42257854725526e-09,0.2347658595862556
2.485016885475597e-09,2.255487369996246e-05,2.485016885475597e-09,2.255487370661815e-05,2.485016885475597e-09,2.255487369344909e-05,2.485016885475597e-09,2.840229170782046e-05,2.485016885475597e-09,0.2694538252642204
2.515450547235543e-09,2.255487371069244e-05,2.515450547235543e-09,2.255487370220381e-05,2.515450547235543e-09,2.255487372696987e-05,2.515450547235543e-09,2.84022983645393e-05,2.515450547235543e-09,0.2863614151308571
2.530667378115516e-09,2.255487370130079e-05,2.530667378115516e-09,2.255487370610857e-05,2.530667378115516e-09,2.255487366095713e-05,2.530667378115516e-09,2.840229057677304e-05,2.530667378115516e-09,0.2948152100641753
2.561101039875462e-09,2.255487370741051e-05,2.561101039875462e-09,2.255487370495918e-05,2.561101039875462e-09,2.255487375250985e-05,2.561101039875462e-09,2.840229715064942e-05,2.561101039875462e-09,0.311722799930812
2.576317870755435e-09,2.255487370151646e-05,2.576317870755435e-09,2.255487370373893e-05,2.576317870755435e-09,2.255487366489435e-05,2.576317870755435e-09,2.840229437839583e-05,2.576317870755435e-09,0.3201765948641302
2.60675153251538e-09,2.255487370711368e-05,2.60675153251538e-09,2.255487370261258e-05,2.60675153251538e-09,2.255487373019494e-05,2.60675153251538e-09,2.840229333976553e-05,2.60675153251538e-09,0.3370841847307669
2.627816701290072e-09,2.255487370399883e-05,2.627816701290072e-09,2.255487370563636e-05,2.627816701290072e-09,2.25548736966406e-05,2.627816701290072e-09,2.840229661482658e-05,2.627816701290072e-09,0.3487870562722622
2.658102753762428e-09,2.255487370460244e-05,2.658102753762428e-09,2.255487370309351e-05,2.658102753762428e-09,2.255487370038044e-05,2.658102753762428e-09,2.840229185580259e-05,2.658102753762428e-09,0.3656126409791265
2.679393063837556e-09,2.25548737041063e-05,2.679393063837556e-09,2.255487370770072e-05,2.679393063837556e-09,2.255487372085272e-05,2.679393063837556e-09,2.840229717869955e-05,2.679393063837556e-09,0.3774405910208645
2.698532995351991e-09,2.255487370466847e-05,2.698532995351991e-09,2.255487370127066e-05,2.698532995351991e-09,2.255487367880976e-05,2.698532995351991e-09,2.8402291844586e-05,2.698532995351991e-09,0.3880738863066618
2.72031284320807e-09,2.255487370613775e-05,2.72031284320807e-09,2.255487370693783e-05,2.72031284320807e-09,2.255487373417751e-05,2.72031284320807e-09,2.840229671226878e-05,2.72031284320807e-09,0.4001738017822612
2.740722233068837e-09,2.255487370258236e-05,2.740722233068837e-09,2.255487370191904e-05,2.740722233068837e-09,2.255487367239999e-05,2.740722233068837e-09,2.840229253795245e-05,2.740722233068837e-09,0.4115123517049092
2.764011424739136e-09,2.255487370812304e-05,2.764011424739136e-09,2.255487370661266e-05,2.764011424739136e-09,2.255487373610715e-05,2.764011424739136e-09,2.840229598477274e-05,2.764011424739136e-09,0.4244507915217421
2.792324078234559e-09,2.255487370287478e-05,2.792324078234559e-09,2.255487369987012e-05,2.792324078234559e-09,2.255487367327049e-05,2.792324078234559e-09,2.840229313827761e-05,2.792324078234559e-09,0.440180043463644
2.821762883204113e-09,2.255487370566894e-05,2.821762883204113e-09,2.255487370839471e-05,2.821762883204113e-09,2.255487373368465e-05,2.821762883204113e-09,2.84022954974972e-05,2.821762883204113e-09,0.4565349351133961
2.849236333736864e-09,2.25548737030465e-05,2.849236333736864e-09,2.25548737004371e-05,2.849236333736864e-09,2.255487367903459e-05,2.849236333736864e-09,2.840229358101299e-05,2.849236333736864e-09,0.4717979631871467
2.878645643401267e-09,2.2554873705316e-05,2.878645643401267e-09,2.255487370775725e-05,2.878645643401267e-09,2.255487372767303e-05,2.878645643401267e-09,2.840229510630311e-05,2.878645643401267e-09,0.4881364685562593
2.901849905517904e-09,2.255487370567539e-05,2.901849905517904e-09,2.255487370104381e-05,2.901849905517904e-09,2.255487368840362e-05,2.901849905517904e-09,2.840229394653977e-05,2.901849905517904e-09,0.5010277252877243
2.927051495399583e-09,2.255487370298416e-05,2.927051495399583e-09,2.255487370735656e-05,2.927051495399583e-09,2.255487371850395e-05,2.927051495399583e-09,2.840229477111975e-05,2.927051495399583e-09,0.5150286085553237
2.95633817721852e-09,2.255487370577783e-05,2.95633817721852e-09,2.255487370122441e-05,2.95633817721852e-09,2.255487369609314e-05,2.95633817721852e-09,2.840229419621066e-05,2.95633817721852e-09,0.5312989873436221
2.995492515192698e-09,2.255487370303146e-05,2.995492515192698e-09,2.255487370736285e-05,2.995492515192698e-09,2.25548737118606e-05,2.995492515192698e-09,2.840229459916918e-05,2.995492515192698e-09,0.5530513973292767
3.033863793690394e-09,2.255487370557741e-05,3.033863793690394e-09,2.25548737013145e-05,3.033863793690394e-09,2.255487369772329e-05,3.033863793690394e-09,2.840229432418487e-05,3.033863793690394e-09,0.5743687742724409
3.085374219116111e-09,2.255487370307604e-05,3.085374219116111e-09,2.25548737073225e-05,3.085374219116111e-09,2.255487370784467e-05,3.085374219116111e-09,2.840229449915973e-05,3.085374219116111e-09,0.6029856772867286
3.097574357782032e-09,2.255487370503402e-05,3.097574357782032e-09,2.255487370200637e-05,3.097574357782032e-09,2.255487370476556e-05,3.097574357782032e-09,2.840229449225745e-05,3.097574357782032e-09,0.6097635321011288
3.121974635113873e-09,2.255487370368777e-05,3.121974635113873e-09,2.255487370697725e-05,3.121974635113873e-09,2.255487370311211e-05,3.121974635113873e-09,2.84022943270013e-05,3.121974635113873e-09,0.6233192417299293
3.128402488343016e-09,2.255487370472243e-05,3.128402488343016e-09,2.255487370469182e-05,3.128402488343016e-09,2.255487370520563e-05,3.128402488343016e-09,2.840229463948648e-05,3.128402488343016e-09,0.6268902713016753
3.131616414957587e-09,2.255487370421341e-05,3.131616414957587e-09,2.255487370431462e-05,3.131616414957587e-09,2.255487370028693e-05,3.131616414957587e-09,2.840229417439025e-05,3.131616414957587e-09,0.6286757860875483
3.13804426818673e-09,2.255487370265866e-05,3.13804426818673e-09,2.255487370563084e-05,3.13804426818673e-09,2.255487370863017e-05,3.13804426818673e-09,2.840229462788359e-05,3.13804426818673e-09,0.6322468156592943
3.141258194801301e-09,2.25548737066159e-05,3.141258194801301e-09,2.255487370407568e-05,3.141258194801301e-09,2.255487370259603e-05,3.141258194801301e-09,2.840229430126405e-05,3.141258194801301e-09,0.6340323304451673
3.147686048030444e-09,2.25548737040798e-05,3.147686048030444e-09,2.255487370437372e-05,3.147686048030444e-09,2.255487370069836e-05,3.147686048030444e-09,2.840229433778417e-05,3.147686048030444e-09,0.6376033600169133
3.152273949012787e-09,2.255487370436567e-05,3.152273949012787e-09,2.255487370571661e-05,3.152273949012787e-09,2.255487371887765e-05,3.152273949012787e-09,2.840229446300992e-05,3.152273949012787e-09,0.6401521938959925
3.157849033119899e-09,2.255487370683839e-05,3.157849033119899e-09,2.25548737031079e-05,3.157849033119899e-09,2.255487377072923e-05,3.157849033119899e-09,2.840229635862878e-05,3.157849033119899e-09,0.6432494628443882
3.16271912369985e-09,2.255487369848358e-05,3.16271912369985e-09,2.255487370121195e-05,3.16271912369985e-09,2.255487351397504e-05,3.16271912369985e-09,2.840229197204467e-05,3.16271912369985e-09,0.6459550687221391
3.170254680295958e-09,2.255487370984807e-05,3.170254680295958e-09,2.255487371006719e-05,3.170254680295958e-09,2.255487392600867e-05,3.170254680295958e-09,2.840229697111295e-05,3.170254680295958e-09,0.6501414890533098
3.17840668335828e-09,2.25548737023675e-05,3.17840668335828e-09,2.255487369934105e-05,3.17840668335828e-09,2.255487360436924e-05,3.17840668335828e-09,2.840229642880406e-05,3.17840668335828e-09,0.654670379643489
3.184717236714485e-09,2.255487346678005e-05,3.184717236714485e-09,2.255487369959368e-05,3.184717236714485e-09,2.255486551698108e-05,3.184717236714485e-09,2.840207095963965e-05,3.184717236714485e-09,0.6581762426191584
3.191811238908321e-09,2.255487434056538e-05,3.191811238908321e-09,2.255487372102885e-05,3.191811238908321e-09,2.255488873872196e-05,3.191811238908321e-09,2.840244404971882e-05,3.191811238908321e-09,0.6621173549490672
3.198108323678694e-09,2.255487602746264e-05,3.198108323678694e-09,2.255487371674024e-05,3.198108323678694e-09,2.255496614258706e-05,3.198108323678694e-09,2.840508148898553e-05,3.198108323678694e-09,0.6656157353770522
3.200147423373492e-09,2.255488411094405e-05,3.200147423373492e-09,2.255487391673307e-05,3.200147423373492e-09,2.255516579227713e-05,3.200147423373492e-09,2.840922632047047e-05,3.200147423373492e-09,0.6667485685408286
3.204225622763087e-09,2.255486217486101e-05,3.204225622763087e-09,2.255487322524938e-05,3.204225622763087e-09,2.255475234622346e-05,3.204225622763087e-09,2.840699662954559e-05,3.204225622763087e-09,0.6690142348683814
3.205608327473814e-09,2.255483790430336e-05,3.205608327473814e-09,2.255487271499448e-05,3.205608327473814e-09,2.255415561770863e-05,3.205608327473814e-09,2.839755518677694e-05,3.205608327473814e-09,0.6697824041521188
3.208373736895268e-09,2.255484975141039e-05,3.208373736895268e-09,2.255487411096056e-05,3.208373736895268e-09,2.255394994313791e-05,3.208373736895268e-09,2.838252116640357e-05,3.208373736895268e-09,0.6713187427195935
3.212471233899052e-09,2.255491011358241e-05,3.212471233899052e-09,2.255487448181843e-05,3.212471233899052e-09,2.255340607314004e-05,3.212471233899052e-09,2.835242250673063e-05,3.212471233899052e-09,0.6735951299439179
3.216771680025049e-09,2.25548651138314e-05,3.216771680025049e-09,2.255487237145816e-05,3.216771680025049e-09,2.255068792486849e-05,3.216771680025049e-09,2.826076183583176e-05,3.216771680025049e-09,0.675984266680583
3.221656980573201e-09,2.25548134022652e-05,3.221656980573201e-09,2.255487779197541e-05,3.221656980573201e-09,2.256540488585978e-05,3.221656980573201e-09,2.848602152853777e-05,3.221656980573201e-09,0.6786983225406674
3.225957303681748e-09,2.25550354398422e-05,3.225957303681748e-09,2.255487040911732e-05,3.225957303681748e-09,2.25637656238434e-05,3.225957303681748e-09,2.870289428092612e-05,3.225957303681748e-09,0.6810873909343045
3.230648509474555e-09,2.25549484897424e-05,3.230648509474555e-09,2.255486771237606e-05,3.230648509474555e-09,2.254032555261544e-05,3.230648509474555e-09,2.839191476324609e-05,3.230648509474555e-09,0.6836936163747529
3.23567529813695e-09,2.255464157292854e-05,3.23567529813695e-09,2.255488299805115e-05,3.23567529813695e-09,2.255301858188907e-05,3.23567529813695e-09,2.828362787068561e-05,3.23567529813695e-09,0.6864862767427498
3.241138696074364e-09,2.255498926107107e-05,3.241138696074364e-09,2.255487119827866e-05,3.241138696074364e-09,2.255737326873192e-05,3.241138696074364e-09,2.835336577286754e-05,3.241138696074364e-09,0.6895214978190909
3.242301143533946e-09,2.255510268028343e-05,3.242301143533946e-09,2.255487164409986e-05,3.242301143533946e-09,2.255501945755903e-05,3.242301143533946e-09,2.833837251928587e-05,3.242301143533946e-09,0.690167301963303
3.244626038453109e-09,2.255529069799951e-05,3.244626038453109e-09,2.255487431259429e-05,3.244626038453109e-09,2.255383135090772e-05,3.244626038453109e-09,2.833425182009987e-05,3.244626038453109e-09,0.6914589102517273
3.248007051645707e-09,2.255565963492576e-05,3.248007051645707e-09,2.255487052551146e-05,3.248007051645707e-09,2.25506192914536e-05,3.248007051645707e-09,2.826998841626631e-05,3.248007051645707e-09,0.6933372509142819
3.251102844131099e-09,2.255650776554532e-05,3.251102844131099e-09,2.255488175020456e-05,3.251102844131099e-09,2.254942564386004e-05,3.251102844131099e-09,2.820443183854395e-05,3.251102844131099e-09,0.6950571356283881
3.25395911384315e-09,2.255788350046826e-05,3.25395911384315e-09,2.255488648316076e-05,3.25395911384315e-09,2.254963706747887e-05,3.25395911384315e-09,2.81743910901831e-05,3.25395911384315e-09,0.6966439521350831
3.2566854169106e-09,2.254423967062714e-05,3.2566854169106e-09,2.255477760711069e-05,3.2566854169106e-09,2.255909161805325e-05,3.2566854169106e-09,2.806503393702917e-05,3.2566854169106e-09,0.6981585649503333
3.259315231138049e-09,2.240731722233184e-05,3.259315231138049e-09,2.255386241021541e-05,3.259315231138049e-09,2.257038882153059e-05,3.259315231138049e-09,2.583749956444068e-05,3.259315231138049e-09,0.6996195728544716
3.261912818409005e-09,2.240724570411871e-05,3.261912818409005e-09,2.25548669179342e-05,3.261912818409005e-09,2.257940396847079e-05,3.261912818409005e-09,2.41836007712464e-05,3.261912818409005e-09,0.7010626768938919
3.264386786653888e-09,2.275122119014143e-05,3.264386786653888e-09,2.2557808335098e-05,3.264386786653888e-09,2.257933789499111e-05,3.264386786653888e-09,2.815979210400079e-05,3.264386786653888e-09,0.7024371036966046
3.266077402065923e-09,2.328857727564772e-05,3.266077402065923e-09,2.256046376327201e-05,3.266077402065923e-09,2.257023417819684e-05,3.266077402065923e-09,3.79086334886893e-05,3.266077402065923e-09,0.7033763344810684
3.267858164614888e-09,2.464352856017856e-05,3.267858164614888e-09,2.256768647414094e-05,3.267858164614888e-09,2.257459897266757e-05,3.267858164614888e-09,6.458546779029378e-05,3.267858164614888e-09,0.7043656470082712
3.269577643700227e-09,2.581255932869449e-05,3.269577643700227e-09,2.256671090345948e-05,3.269577643700227e-09,2.257607511585286e-05,3.269577643700227e-09,9.991111992175303e-05,3.269577643700227e-09,0.7053209131667926
3.272046918101123e-09,2.479089729830148e-05,3.272046918101123e-09,2.254381886260696e-05,3.272046918101123e-09,2.253610768291186e-05,3.272046918101123e-09,0.0001206130988145085,3.272046918101123e-09,0.7066927322784013
3.274381473526879e-09,2.156479336179799e-05,3.274381473526879e-09,2.252336513876996e-05,3.274381473526879e-09,2.250521550994599e-05,3.274381473526879e-09,-7.841331556562322e-05,3.274381473526879e-09,0.7079897075149328
3.276892178958254e-09,1.498974211770345e-05,3.276892178958254e-09,2.252681740194599e-05,3.276892178958254e-09,2.249891097042488e-05,3.276892178958254e-09,-0.0008980664200362729,3.276892178958254e-09,0.7093845438656967
3.278877815670571e-09,2.034062193321606e-06,3.278877815670571e-09,2.256102761061873e-05,3.278877815670571e-09,2.2529503453484e-05,3.278877815670571e-09,-0.001491003414531582,3.278877815670571e-09,0.7104876753725392
3.280825748065169e-09,-5.594397533188139e-06,3.280825748065169e-09,2.259508839286697e-05,3.280825748065169e-09,2.256398325999652e-05,3.280825748065169e-09,-0.001417967826787876,3.280825748065169e-09,0.7115698600362048
3.282921261828741e-09,2.199373897569673e-06,3.282921261828741e-09,2.259264609811181e-05,3.282921261828741e-09,2.255662459330468e-05,3.282921261828741e-09,-0.001050014024476983,3.282921261828741e-09,0.7127340343493003
3.285015922978996e-09,1.202505439393925e-05,3.285015922978996e-09,2.257731715944802e-05,3.285015922978996e-09,2.254792805913478e-05,3.285015922978996e-09,-0.0008192942505696055,3.285015922978996e-09,0.713897734988331
3.286858210777675e-09,1.71453006564028e-05,3.286858210777675e-09,2.256672228581594e-05,3.286858210777675e-09,2.254932050105032e-05,3.286858210777675e-09,-0.0009723659180701001,3.286858210777675e-09,0.7149212282098193
3.288688815167168e-09,2.209260405276005e-05,3.288688815167168e-09,2.254961629737325e-05,3.288688815167168e-09,2.255449278683315e-05,3.288688815167168e-09,-0.00151913154202779,3.288688815167168e-09,0.7159382306484268
3.291139267913152e-09,0.0002079007527582822,3.291139267913152e-09,2.257614540301215e-05,3.291139267913152e-09,2.257019781258498e-05,3.291139267913152e-09,-0.002577359511472177,3.291139267913152e-09,0.7172995932850846
3.293031099594715e-09,0.0006970268151372254,3.293031099594715e-09,2.257918266682212e-05,3.293031099594715e-09,2.258504379215698e-05,3.293031099594715e-09,-0.00323489595810127,3.293031099594715e-09,0.7183506108859526
3.29512728795263e-09,0.0009230361025255089,3.29512728795263e-09,2.255826423214856e-05,3.29512728795263e-09,2.258343701824946e-05,3.29512728795263e-09,-0.003684511249729475,3.29512728795263e-09,0.7195151599736833
3.297373737408505e-09,-0.006136011852721853,3.297373737408505e-09,2.246431843153057e-05,3.297373737408505e-09,2.257298820294207e-05,3.297373737408505e-09,-0.003791727432728472,3.297373737408505e-09,0.7207631874491695
3.299191248401347e-09,-0.01481708322988271,3.299191248401347e-09,2.245023113896528e-05,3.299191248401347e-09,2.257138072383469e-05,3.299191248401347e-09,-0.003464270081840157,3.299191248401347e-09,0.7217729157785261
3.301182999948923e-09,-0.0182534860624649,3.301182999948923e-09,2.247425244231046e-05,3.301182999948923e-09,2.256292462946538e-05,3.301182999948923e-09,-0.002675384908778218,3.301182999948923e-09,0.722879444416068
3.30309487580282e-09,-0.007612534777545717,3.30309487580282e-09,2.250586133424601e-05,3.30309487580282e-09,2.253783477781395e-05,3.30309487580282e-09,-0.00203940622448832,3.30309487580282e-09,0.7239415976682334
3.304655428145207e-09,0.03619354542905297,3.304655428145207e-09,2.256810296135545e-05,3.304655428145207e-09,2.254235456460419e-05,3.304655428145207e-09,-0.001417172591733722,3.304655428145207e-09,0.7248085711917815
3.30659245543545e-09,0.1553747154433253,3.30659245543545e-09,2.263152240234529e-05,3.30659245543545e-09,2.25667354282154e-05,3.30659245543545e-09,-8.075105879876782e-05,3.30659245543545e-09,0.725884697464139
3.308612919475576e-09,0.3205189839394392,3.308612919475576e-09,2.262029779228003e-05,3.308612919475576e-09,2.254636773128408e-05,3.308612919475576e-09,0.001419763078112535,3.308612919475576e-09,0.7270071774864312
