/net039 X,/net039 Y,/net010 X,/net010 Y,/net09 X,/net09 Y,/net08 X,/net08 Y,/net02 X,/net02 Y
0,2.206314049340312e-05,0,2.206314050842804e-05,0,2.2063140508637e-05,0,2.773839586281826e-05,0,0
1.5e-11,2.206313720850379e-05,1.5e-11,2.206314050842426e-05,1.5e-11,2.206314050843333e-05,1.5e-11,2.773894417674855e-05,1.5e-11,0
4.5e-11,2.206314237665097e-05,4.5e-11,2.206314050825361e-05,4.5e-11,2.20631405082541e-05,4.5e-11,2.773848647242215e-05,4.5e-11,0
1.05e-10,2.206313895486866e-05,1.05e-10,2.206314051036758e-05,1.05e-10,2.20631405079526e-05,1.05e-10,2.773819491912673e-05,1.05e-10,0
2.25e-10,2.206314152016669e-05,2.25e-10,2.206314050498384e-05,2.25e-10,2.206314050975722e-05,2.25e-10,2.773847379807794e-05,2.25e-10,0
4.65e-10,2.206313975918224e-05,4.65e-10,2.206314051275747e-05,4.65e-10,2.206314051007621e-05,4.65e-10,2.773832124416905e-05,4.65e-10,0
7.649999999999999e-10,2.206314106902297e-05,7.649999999999999e-10,2.206314050499525e-05,7.649999999999999e-10,2.20631405078923e-05,7.649999999999999e-10,2.773846150793552e-05,7.649999999999999e-10,0
1.065e-09,2.206314012513398e-05,1.065e-09,2.206314051011489e-05,1.065e-09,2.206314050731625e-05,1.065e-09,2.7738339251342e-05,1.065e-09,0
1.365e-09,2.206314073074131e-05,1.365e-09,2.206314050734351e-05,1.365e-09,2.206314051044834e-05,1.365e-09,2.773844412030174e-05,1.365e-09,0
1.665e-09,2.206314043196013e-05,1.665e-09,2.206314051006793e-05,1.665e-09,2.206314050477455e-05,1.665e-09,2.773835514538334e-05,1.665e-09,0
1.8325e-09,2.20631403560692e-05,1.8325e-09,2.206314050793625e-05,1.8325e-09,2.206314051034029e-05,1.8325e-09,2.773842499293402e-05,1.8325e-09,0
2e-09,2.206314085194165e-05,2e-09,2.206314051212681e-05,2e-09,2.206314050496891e-05,2e-09,2.773837613593965e-05,2e-09,0
2.075e-09,2.206314042458178e-05,2.075e-09,2.206314050843976e-05,2.075e-09,2.206314050838057e-05,2.075e-09,2.77383916937257e-05,2.075e-09,0.04166666666666658
2.20404436348487e-09,2.206314057095718e-05,2.20404436348487e-09,2.206314050772183e-05,2.20404436348487e-09,2.206314050774311e-05,2.20404436348487e-09,2.773839892397992e-05,2.20404436348487e-09,0.1133579797138165
2.328921039967119e-09,2.206314046443703e-05,2.328921039967119e-09,2.206314051006371e-05,2.328921039967119e-09,2.206314050967877e-05,2.328921039967119e-09,2.773839376112558e-05,2.328921039967119e-09,0.1827339110928436
2.391359378208243e-09,2.206314052595378e-05,2.391359378208243e-09,2.206314050772472e-05,2.391359378208243e-09,2.206314050736753e-05,2.391359378208243e-09,2.773839638283096e-05,2.391359378208243e-09,0.2174218767823571
2.422578547328805e-09,2.206314052033764e-05,2.422578547328805e-09,2.206314050727641e-05,2.422578547328805e-09,2.206314051235963e-05,2.422578547328805e-09,2.773839776936678e-05,2.422578547328805e-09,0.2347658596271137
2.485016885569929e-09,2.206314049187871e-05,2.485016885569929e-09,2.206314051023407e-05,2.485016885569929e-09,2.206314050163479e-05,2.485016885569929e-09,2.773839301495443e-05,2.485016885569929e-09,0.2694538253166269
2.51623605469049e-09,2.206314052545329e-05,2.51623605469049e-09,2.206314050541598e-05,2.51623605469049e-09,2.206314052531838e-05,2.51623605469049e-09,2.773839997778431e-05,2.51623605469049e-09,0.2867978081613835
2.531845639250771e-09,2.206314049533578e-05,2.531845639250771e-09,2.206314050921084e-05,2.531845639250771e-09,2.206314046621928e-05,2.531845639250771e-09,2.773839176035723e-05,2.531845639250771e-09,0.2954697995837618
2.563064808371333e-09,2.206314051511217e-05,2.563064808371333e-09,2.206314050848043e-05,2.563064808371333e-09,2.206314055672591e-05,2.563064808371333e-09,2.773839891095554e-05,2.563064808371333e-09,0.3128137824285184
2.578674392931614e-09,2.206314050906317e-05,2.578674392931614e-09,2.206314050892332e-05,2.578674392931614e-09,2.206314046484489e-05,2.578674392931614e-09,2.77383953951642e-05,2.578674392931614e-09,0.3214857738508967
2.609893562052176e-09,2.206314050583934e-05,2.609893562052176e-09,2.206314050888709e-05,2.609893562052176e-09,2.206314054042597e-05,2.609893562052176e-09,2.773839515992234e-05,2.609893562052176e-09,0.3388297566956533
2.633198004017128e-09,2.206314051258674e-05,2.633198004017128e-09,2.206314050849198e-05,2.633198004017128e-09,2.206314049155727e-05,2.633198004017128e-09,2.773839769398866e-05,2.633198004017128e-09,0.3517766688984044
2.659154549586035e-09,2.206314050242521e-05,2.659154549586035e-09,2.206314050908604e-05,2.659154549586035e-09,2.206314050989073e-05,2.659154549586035e-09,2.773839344523181e-05,2.659154549586035e-09,0.3661969719922417
2.682970715379355e-09,2.206314051485141e-05,2.682970715379355e-09,2.206314050627568e-05,2.682970715379355e-09,2.206314052132063e-05,2.682970715379355e-09,2.773839854604341e-05,2.682970715379355e-09,0.3794281752107528
2.703697923743723e-09,2.206314050062077e-05,2.703697923743723e-09,2.206314050923861e-05,2.703697923743723e-09,2.206314048438862e-05,2.703697923743723e-09,2.773839320989801e-05,2.703697923743723e-09,0.3909432909687347
2.726643302169296e-09,2.206314051441595e-05,2.726643302169296e-09,2.206314050828652e-05,2.726643302169296e-09,2.206314053847315e-05,2.726643302169296e-09,2.773839829844931e-05,2.726643302169296e-09,0.4036907234273868
2.748537728525039e-09,2.20631405032187e-05,2.748537728525039e-09,2.206314050905898e-05,2.748537728525039e-09,2.206314047400077e-05,2.748537728525039e-09,2.773839374896931e-05,2.748537728525039e-09,0.4158542936250214
2.77459113906345e-09,2.206314051172803e-05,2.77459113906345e-09,2.206314050874232e-05,2.77459113906345e-09,2.206314054170126e-05,2.77459113906345e-09,2.773839768038528e-05,2.77459113906345e-09,0.4303284105908053
2.799901224149786e-09,2.206314050590666e-05,2.799901224149786e-09,2.20631405090315e-05,2.799901224149786e-09,2.206314047617988e-05,2.799901224149786e-09,2.77383943456049e-05,2.799901224149786e-09,0.4443895689721035
2.829699259788892e-09,2.206314051183087e-05,2.829699259788892e-09,2.206314050855525e-05,2.829699259788892e-09,2.206314053872643e-05,2.829699259788892e-09,2.773839714101447e-05,2.829699259788892e-09,0.4609440332160509
2.857218495032413e-09,2.206314050608215e-05,2.857218495032413e-09,2.206314050879466e-05,2.857218495032413e-09,2.206314048057406e-05,2.857218495032413e-09,2.773839482132137e-05,2.857218495032413e-09,0.4762324972402293
2.889869912473929e-09,2.206314050915301e-05,2.889869912473929e-09,2.206314050907497e-05,2.889869912473929e-09,2.206314053572029e-05,2.889869912473929e-09,2.773839672577288e-05,2.889869912473929e-09,0.4943721735966273
2.92242323495898e-09,2.206314050843033e-05,2.92242323495898e-09,2.206314050863946e-05,2.92242323495898e-09,2.206314048368338e-05,2.92242323495898e-09,2.773839516034973e-05,2.92242323495898e-09,0.5124573527549892
2.948472432006987e-09,2.206314050932203e-05,2.948472432006987e-09,2.206314050866246e-05,2.948472432006987e-09,2.206314052904773e-05,2.948472432006987e-09,2.773839639140923e-05,2.948472432006987e-09,0.5269291288927704
2.996397889708228e-09,2.206314050834187e-05,2.996397889708228e-09,2.206314050853189e-05,2.996397889708228e-09,2.206314048944092e-05,2.996397889708228e-09,2.773839541727927e-05,2.996397889708228e-09,0.5535543831712376
3.032736596598217e-09,2.206314050719538e-05,3.032736596598217e-09,2.20631405089025e-05,3.032736596598217e-09,2.206314052428904e-05,3.032736596598217e-09,2.773839621027354e-05,3.032736596598217e-09,0.5737425536656761
3.085603158445816e-09,2.206314051014388e-05,3.085603158445816e-09,2.206314050846209e-05,3.085603158445816e-09,2.206314049413569e-05,3.085603158445816e-09,2.77383955761984e-05,3.085603158445816e-09,0.603112865803231
3.097611341867444e-09,2.206314050809813e-05,3.097611341867444e-09,2.206314050704211e-05,3.097611341867444e-09,2.206314051654152e-05,3.097611341867444e-09,2.773839593791295e-05,3.097611341867444e-09,0.6097840788152465
3.1216277087107e-09,2.206314050911852e-05,3.1216277087107e-09,2.206314051066785e-05,3.1216277087107e-09,2.20631405016866e-05,3.1216277087107e-09,2.773839586299807e-05,3.1216277087107e-09,0.6231265048392778
3.128428979161142e-09,2.206314050872255e-05,3.128428979161142e-09,2.206314050780252e-05,3.128428979161142e-09,2.206314051139656e-05,3.128428979161142e-09,2.773839570926244e-05,3.128428979161142e-09,0.6269049884228565
3.131829614386363e-09,2.206314050847291e-05,3.131829614386363e-09,2.206314050951062e-05,3.131829614386363e-09,2.206314050848e-05,3.131829614386363e-09,2.773839606364534e-05,3.131829614386363e-09,0.6287942302146459
3.138630884836804e-09,2.206314050755275e-05,3.138630884836804e-09,2.206314050780359e-05,3.138630884836804e-09,2.206314050900842e-05,3.138630884836804e-09,2.773839565121012e-05,3.138630884836804e-09,0.6325727137982247
3.142031520062025e-09,2.206314050873923e-05,3.142031520062025e-09,2.206314050801465e-05,3.142031520062025e-09,2.206314051059435e-05,3.142031520062025e-09,2.773839607686213e-05,3.142031520062025e-09,0.6344619555900139
3.146660546015549e-09,2.206314050864262e-05,3.146660546015549e-09,2.206314050866828e-05,3.146660546015549e-09,2.206314049617358e-05,3.146660546015549e-09,2.773839548548007e-05,3.146660546015549e-09,0.6370336366753051
3.151123583605072e-09,2.206314050798361e-05,3.151123583605072e-09,2.206314050958568e-05,3.151123583605072e-09,2.206314050426439e-05,3.151123583605072e-09,2.77383955820767e-05,3.151123583605072e-09,0.639513102002818
3.157533748928843e-09,2.206314051141886e-05,3.157533748928843e-09,2.206314050745331e-05,3.157533748928843e-09,2.206314059842926e-05,3.157533748928843e-09,2.773839788669748e-05,3.157533748928843e-09,0.6430743049604682
3.162081492075134e-09,2.206314050399551e-05,3.162081492075134e-09,2.206314050474843e-05,3.162081492075134e-09,2.206314033980706e-05,3.162081492075134e-09,2.773839444280544e-05,3.162081492075134e-09,0.6456008289306302
3.164138936329197e-09,2.206314050345238e-05,3.164138936329197e-09,2.20631405104349e-05,3.164138936329197e-09,2.206314035999996e-05,3.164138936329197e-09,2.77383925828849e-05,3.164138936329197e-09,0.6467438535162203
3.168253824837321e-09,2.206314051456271e-05,3.168253824837321e-09,2.206314051493049e-05,3.168253824837321e-09,2.2063140772722e-05,3.168253824837321e-09,2.77383984391403e-05,3.168253824837321e-09,0.6490299026874006
3.173353873639683e-09,2.206314051473876e-05,3.173353873639683e-09,2.206314050323157e-05,3.173353873639683e-09,2.20631407199696e-05,3.173353873639683e-09,2.773840457507653e-05,3.173353873639683e-09,0.6518632631331573
3.178374907988614e-09,2.206314047324163e-05,3.178374907988614e-09,2.206314050668058e-05,3.178374907988614e-09,2.206313963712771e-05,3.178374907988614e-09,2.773838406286751e-05,3.178374907988614e-09,0.6546527266603411
3.179730862007199e-09,2.206314045677374e-05,3.179730862007199e-09,2.206314050748077e-05,3.179730862007199e-09,2.206313904864717e-05,3.179730862007199e-09,2.773836914476464e-05,3.179730862007199e-09,0.6554060344484437
3.182442770044368e-09,2.206314039919363e-05,3.182442770044368e-09,2.206314050840251e-05,3.182442770044368e-09,2.206313689144774e-05,3.182442770044368e-09,2.773830853887896e-05,3.182442770044368e-09,0.6569126500246487
3.187153447184951e-09,2.206314014268173e-05,3.187153447184951e-09,2.206314050360727e-05,3.187153447184951e-09,2.206312633611399e-05,3.187153447184951e-09,2.773796758641391e-05,3.187153447184951e-09,0.6595296928805282
3.191473409414339e-09,2.20631423107215e-05,3.191473409414339e-09,2.206314055113745e-05,3.191473409414339e-09,2.206318126530344e-05,3.191473409414339e-09,2.773885170392474e-05,3.191473409414339e-09,0.6619296718968548
3.193140142448396e-09,2.206314227516723e-05,3.193140142448396e-09,2.206314051793592e-05,3.193140142448396e-09,2.206319845944062e-05,3.193140142448396e-09,2.773951010101941e-05,3.193140142448396e-09,0.6628556346935534
3.196473608516511e-09,2.206313970552908e-05,3.196473608516511e-09,2.20631404350997e-05,3.196473608516511e-09,2.206315781843963e-05,3.196473608516511e-09,2.773977648763634e-05,3.196473608516511e-09,0.6647075602869504
3.201727302638107e-09,2.206314682934839e-05,3.201727302638107e-09,2.206314065024799e-05,3.201727302638107e-09,2.206335614198354e-05,3.201727302638107e-09,2.774515781430399e-05,3.201727302638107e-09,0.6676262792433928
3.205909503236013e-09,2.20631218475583e-05,3.205909503236013e-09,2.206313999526657e-05,3.205909503236013e-09,2.206275878275779e-05,3.205909503236013e-09,2.773715361960097e-05,3.205909503236013e-09,0.6699497240200071
3.207885132127222e-09,2.20631083677573e-05,3.207885132127222e-09,2.206314006075904e-05,3.207885132127222e-09,2.206228270106709e-05,3.207885132127222e-09,2.772513759741788e-05,3.207885132127222e-09,0.6710472956262342
3.211836389909639e-09,2.206315632047053e-05,3.211836389909639e-09,2.206314148030149e-05,3.211836389909639e-09,2.20621826594448e-05,3.211836389909639e-09,2.770482238193544e-05,3.211836389909639e-09,0.6732424388386885
3.216511117158133e-09,2.206316317996357e-05,3.216511117158133e-09,2.206313968872195e-05,3.216511117158133e-09,2.205942047056131e-05,3.216511117158133e-09,2.76192872200777e-05,3.216511117158133e-09,0.6758395095322963
3.220701564617425e-09,2.206303789830232e-05,3.220701564617425e-09,2.206314241411537e-05,3.220701564617425e-09,2.206744017676483e-05,3.220701564617425e-09,2.770072035490477e-05,3.220701564617425e-09,0.6781675358985694
3.22567104676245e-09,2.206329004283424e-05,3.22567104676245e-09,2.206314185359618e-05,3.22567104676245e-09,2.207718714290369e-05,3.22567104676245e-09,2.805333667134157e-05,3.22567104676245e-09,0.6809283593124721
3.229863612022352e-09,2.206327957313298e-05,3.229863612022352e-09,2.206312994655935e-05,3.229863612022352e-09,2.205069068735384e-05,3.229863612022352e-09,2.78132528878657e-05,3.229863612022352e-09,0.6832575622346397
3.23492295572374e-09,2.206290423731886e-05,3.23492295572374e-09,2.206314975029298e-05,3.23492295572374e-09,2.205732516303227e-05,3.23492295572374e-09,2.760149400939098e-05,3.23492295572374e-09,0.6860683087354112
3.240232634314309e-09,2.206318240504279e-05,3.240232634314309e-09,2.20631407823439e-05,3.240232634314309e-09,2.206706658050515e-05,3.240232634314309e-09,2.768911726044473e-05,3.240232634314309e-09,0.689018130174616
3.241420270242997e-09,2.206329239401019e-05,3.241420270242997e-09,2.206313690222072e-05,3.241420270242997e-09,2.206309341668505e-05,3.241420270242997e-09,2.76602778884918e-05,3.241420270242997e-09,0.6896779279127762
3.243795542100373e-09,2.206351521214992e-05,3.243795542100373e-09,2.206314319973573e-05,3.243795542100373e-09,2.206265498789006e-05,3.243795542100373e-09,2.766463535198829e-05,3.243795542100373e-09,0.6909975233890963
3.246567049998194e-09,2.206379495892791e-05,3.246567049998194e-09,2.206313503221514e-05,3.246567049998194e-09,2.205912485241045e-05,3.246567049998194e-09,2.761159706359803e-05,3.246567049998194e-09,0.6925372499989967
3.249553048557372e-09,2.206461671748466e-05,3.249553048557372e-09,2.206314634442192e-05,3.249553048557372e-09,2.205843093686016e-05,3.249553048557372e-09,2.755401785672019e-05,3.249553048557372e-09,0.694196138087429
3.252268858336544e-09,2.206606855678486e-05,3.252268858336544e-09,2.206315479069726e-05,3.252268858336544e-09,2.205655962634016e-05,3.252268858336544e-09,2.75032690269987e-05,3.252268858336544e-09,0.69570492129808
3.254808619341603e-09,2.206590368211984e-05,3.254808619341603e-09,2.206314287137207e-05,3.254808619341603e-09,2.206360897491308e-05,3.254808619341603e-09,2.756018862125176e-05,3.254808619341603e-09,0.697115899634224
3.257550092450715e-09,2.197282651028399e-05,3.257550092450715e-09,2.206247485383057e-05,3.257550092450715e-09,2.207564450829497e-05,3.257550092450715e-09,2.620262606082285e-05,3.257550092450715e-09,0.6986389402503971
3.260047932138212e-09,2.188206572972107e-05,3.260047932138212e-09,2.206243286237128e-05,3.260047932138212e-09,2.208594274346267e-05,3.260047932138212e-09,2.382344309731997e-05,3.260047932138212e-09,0.7000266289656736
3.262678710085866e-09,2.211086464321302e-05,3.262678710085866e-09,2.206499337211888e-05,3.262678710085866e-09,2.208887788307666e-05,3.262678710085866e-09,2.538408529791756e-05,3.262678710085866e-09,0.7014881722699254
3.265027869986986e-09,2.268732838340065e-05,3.265027869986986e-09,2.206801386791379e-05,3.265027869986986e-09,2.207984205162237e-05,3.265027869986986e-09,3.574428384144073e-05,3.265027869986986e-09,0.7027932611038809
3.266894301501379e-09,2.403349847805675e-05,3.266894301501379e-09,2.207513561184481e-05,3.266894301501379e-09,2.208107027936422e-05,3.266894301501379e-09,6.203224293705408e-05,3.266894301501379e-09,0.7038301675007663
3.268643578678042e-09,2.541992853685444e-05,3.268643578678042e-09,2.207654429869644e-05,3.268643578678042e-09,2.208084776806174e-05,3.268643578678042e-09,0.0001002679654126825,3.268643578678042e-09,0.7048019881544679
3.270849992463658e-09,2.459038024417077e-05,3.270849992463658e-09,2.205411590580836e-05,3.270849992463658e-09,2.204646196872614e-05,3.270849992463658e-09,0.0001249813895071372,3.270849992463658e-09,0.7060277735909212
3.273149698005521e-09,2.126246665887902e-05,3.273149698005521e-09,2.203059791276949e-05,3.273149698005521e-09,2.201524053997481e-05,3.273149698005521e-09,-4.935974481831321e-05,3.273149698005521e-09,0.707305387780845
3.275607784505808e-09,1.52425719400205e-05,3.275607784505808e-09,2.203364381970477e-05,3.275607784505808e-09,2.200657916418208e-05,3.275607784505808e-09,-0.0008201222180727682,3.275607784505808e-09,0.7086709913921158
3.27753380520963e-09,2.715505351694006e-06,3.27753380520963e-09,2.206478527318888e-05,3.27753380520963e-09,2.203167423562374e-05,3.27753380520963e-09,-0.001463032468122444,3.27753380520963e-09,0.7097410028942388
3.279444711722452e-09,-6.033284563322095e-06,3.279444711722452e-09,2.210375790190197e-05,3.279444711722452e-09,2.207110319808058e-05,3.279444711722452e-09,-0.001445348033337919,3.279444711722452e-09,0.7108026176235843
3.281504809750085e-09,9.959946621776003e-07,3.281504809750085e-09,2.210409975442705e-05,3.281504809750085e-09,2.206713708189801e-05,3.281504809750085e-09,-0.001094171475683131,3.281504809750085e-09,0.7119471165278248
3.283562313291329e-09,1.047611524292932e-05,3.283562313291329e-09,2.208620882855127e-05,3.283562313291329e-09,2.205705625633167e-05,3.283562313291329e-09,-0.0008642361334759373,3.283562313291329e-09,0.7130901740507385
3.28537107031543e-09,1.547777274255318e-05,3.28537107031543e-09,2.207573030292585e-05,3.28537107031543e-09,2.205896841075852e-05,3.28537107031543e-09,-0.001000581017908687,3.28537107031543e-09,0.7140950390641279
3.287151207630454e-09,1.682322518785363e-05,3.287151207630454e-09,2.205881578850999e-05,3.287151207630454e-09,2.20626986776052e-05,3.287151207630454e-09,-0.001523619568564613,3.287151207630454e-09,0.715084004239141
3.289477682968701e-09,0.0001592142578135069,3.289477682968701e-09,2.207254517250509e-05,3.289477682968701e-09,2.207761515281481e-05,3.289477682968701e-09,-0.0025396060780201,3.289477682968701e-09,0.7163764905381672
3.29134515401812e-09,0.0006187981086856378,3.29134515401812e-09,2.208804427542149e-05,3.29134515401812e-09,2.209240330472636e-05,3.29134515401812e-09,-0.003220341664239104,3.29134515401812e-09,0.7174139744545113
3.293334965374955e-09,0.001197507956318855,3.293334965374955e-09,2.207476965902268e-05,3.293334965374955e-09,2.209303749582508e-05,3.293334965374955e-09,-0.003666882723207379,3.293334965374955e-09,0.7185194252083081
3.295596620078408e-09,-0.004975650683116284,3.295596620078408e-09,2.198981633193631e-05,3.295596620078408e-09,2.208164050572062e-05,3.295596620078408e-09,-0.003800452270853215,3.295596620078408e-09,0.7197759000435597
3.297365607599978e-09,-0.01370521322558097,3.297365607599978e-09,2.19610858422581e-05,3.297365607599978e-09,2.207942326341521e-05,3.297365607599978e-09,-0.003509456620538475,3.297365607599978e-09,0.7207586708888766
3.299299328041154e-09,-0.01799507162126376,3.299299328041154e-09,2.197745783956163e-05,3.299299328041154e-09,2.207243787023035e-05,3.299299328041154e-09,-0.002752028838730607,3.299299328041154e-09,0.7218329600228631
