/net039 X,/net039 Y,/net010 X,/net010 Y,/net09 X,/net09 Y,/net08 X,/net08 Y,/net02 X,/net02 Y
0,2.157303543471744e-05,0,2.157303541112835e-05,0,2.157303543455254e-05,0,2.707355882677768e-05,0,0
1.5e-11,2.157303543473104e-05,1.5e-11,2.157303543308605e-05,1.5e-11,2.157303543456718e-05,1.5e-11,2.70735588266326e-05,1.5e-11,0
4.5e-11,2.157303543475556e-05,4.5e-11,2.157303543445384e-05,4.5e-11,2.15730354345967e-05,4.5e-11,2.707355882684588e-05,4.5e-11,0
1.05e-10,2.15730354338946e-05,1.05e-10,2.157303543411161e-05,1.05e-10,2.157303543401846e-05,1.05e-10,2.707355882619119e-05,1.05e-10,0
2.25e-10,2.15730354337377e-05,2.25e-10,2.15730354356531e-05,2.25e-10,2.157303543571495e-05,2.25e-10,2.707355882676419e-05,2.25e-10,0
4.65e-10,2.157303543630522e-05,4.65e-10,2.157303543471604e-05,4.65e-10,2.157303543198686e-05,4.65e-10,2.707355882697671e-05,4.65e-10,0
7.649999999999999e-10,2.157303543365458e-05,7.649999999999999e-10,2.157303543296291e-05,7.649999999999999e-10,2.157303543781912e-05,7.649999999999999e-10,2.707355882634703e-05,7.649999999999999e-10,0
1.065e-09,2.157303543410539e-05,1.065e-09,2.157303543688113e-05,1.065e-09,2.157303543236812e-05,1.065e-09,2.707355882665905e-05,1.065e-09,0
1.365e-09,2.157303543593696e-05,1.365e-09,2.157303543335593e-05,1.365e-09,2.157303543995607e-05,1.365e-09,2.70735588266949e-05,1.365e-09,0
1.665e-09,2.15730354340353e-05,1.665e-09,2.157303543651622e-05,1.665e-09,2.157303542802197e-05,1.665e-09,2.70735588270009e-05,1.665e-09,0
1.8325e-09,2.157303543595388e-05,1.8325e-09,2.157303543390133e-05,1.8325e-09,2.157303544193189e-05,1.8325e-09,2.707355882656269e-05,1.8325e-09,0
2e-09,2.157303543396517e-05,2e-09,2.15730354315938e-05,2e-09,2.157303542587408e-05,2e-09,2.707355882636148e-05,2e-09,0
2.075e-09,2.157303543474888e-05,2.075e-09,2.157303543471039e-05,2.075e-09,2.15730354344356e-05,2.075e-09,2.707355883236267e-05,2.075e-09,0.04166666666666658
2.20404436348408e-09,2.157303543634885e-05,2.20404436348408e-09,2.157303543363082e-05,2.20404436348408e-09,2.157303543363988e-05,2.20404436348408e-09,2.70735587878507e-05,2.20404436348408e-09,0.1133579797133779
2.328921040001371e-09,2.157303543164257e-05,2.328921040001371e-09,2.157303543661189e-05,2.328921040001371e-09,2.157303543661064e-05,2.328921040001371e-09,2.7073558951685e-05,2.328921040001371e-09,0.182733911111873
2.391359378260017e-09,2.15730354380498e-05,2.391359378260017e-09,2.157303543332278e-05,2.391359378260017e-09,2.157303543069019e-05,2.391359378260017e-09,2.707355834533861e-05,2.391359378260017e-09,0.2174218768111205
2.422578547389339e-09,2.157303543247115e-05,2.422578547389339e-09,2.157303543646619e-05,2.422578547389339e-09,2.157303544286287e-05,2.422578547389339e-09,2.707356055172175e-05,2.422578547389339e-09,0.2347658596607441
2.485016885647985e-09,2.157303543781969e-05,2.485016885647985e-09,2.157303543374175e-05,2.485016885647985e-09,2.157303542392098e-05,2.485016885647985e-09,2.707355635085623e-05,2.485016885647985e-09,0.2694538253599914
2.516236054777307e-09,2.157303543261379e-05,2.516236054777307e-09,2.157303543602278e-05,2.516236054777307e-09,2.157303545615329e-05,2.516236054777307e-09,2.707356249359409e-05,2.516236054777307e-09,0.286797808209615
2.531845639341968e-09,2.157303543673415e-05,2.531845639341968e-09,2.157303543246165e-05,2.531845639341968e-09,2.157303539135843e-05,2.531845639341968e-09,2.707355487676318e-05,2.531845639341968e-09,0.2954697996344269
2.563064808471291e-09,2.157303543323408e-05,2.563064808471291e-09,2.157303543542145e-05,2.563064808471291e-09,2.157303548495135e-05,2.563064808471291e-09,2.707356191000907e-05,2.563064808471291e-09,0.3128137824840505
2.578674393035952e-09,2.157303543460241e-05,2.578674393035952e-09,2.157303543474379e-05,2.578674393035952e-09,2.157303538909709e-05,2.578674393035952e-09,2.707355811437724e-05,2.578674393035952e-09,0.3214857739088623
2.609893562165275e-09,2.157303543335708e-05,2.609893562165275e-09,2.157303543308838e-05,2.609893562165275e-09,2.157303547197145e-05,2.609893562165275e-09,2.707355839275555e-05,2.609893562165275e-09,0.338829756758486
2.64227359745767e-09,2.157303543655664e-05,2.64227359745767e-09,2.157303543680039e-05,2.64227359745767e-09,2.157303540927547e-05,2.64227359745767e-09,2.707356013571646e-05,2.64227359745767e-09,0.3568186652542613
2.669703074045282e-09,2.157303543371556e-05,2.669703074045282e-09,2.157303543337726e-05,2.669703074045282e-09,2.157303544731264e-05,2.669703074045282e-09,2.707355679989875e-05,2.669703074045282e-09,0.3720572633584899
2.703893877786999e-09,2.157303543605446e-05,2.703893877786999e-09,2.157303543666681e-05,2.703893877786999e-09,2.157303543090895e-05,2.703893877786999e-09,2.707356120110408e-05,2.703893877786999e-09,0.3910521543261104
2.733388098147582e-09,2.157303543427133e-05,2.733388098147582e-09,2.157303543151268e-05,2.733388098147582e-09,2.157303542739746e-05,2.733388098147582e-09,2.707355625631974e-05,2.733388098147582e-09,0.4074378323042122
2.758129817531262e-09,2.157303543589688e-05,2.758129817531262e-09,2.157303543840888e-05,2.758129817531262e-09,2.157303545358276e-05,2.758129817531262e-09,2.707356141286681e-05,2.758129817531262e-09,0.421183231961812
2.785042303078402e-09,2.157303543390579e-05,2.785042303078402e-09,2.157303543189533e-05,2.785042303078402e-09,2.157303540891506e-05,2.785042303078402e-09,2.707355636950222e-05,2.785042303078402e-09,0.4361346128213346
2.81198357210465e-09,2.157303543421669e-05,2.81198357210465e-09,2.157303543608999e-05,2.81198357210465e-09,2.157303546268755e-05,2.81198357210465e-09,2.70735610738701e-05,2.81198357210465e-09,0.4511019845025834
2.840931420596007e-09,2.157303543552835e-05,2.840931420596007e-09,2.157303543412464e-05,2.840931420596007e-09,2.157303540533796e-05,2.840931420596007e-09,2.707355681424249e-05,2.840931420596007e-09,0.467184122553337
2.86985031492529e-09,2.157303543458283e-05,2.86985031492529e-09,2.157303543763022e-05,2.86985031492529e-09,2.157303546344262e-05,2.86985031492529e-09,2.70735605914028e-05,2.86985031492529e-09,0.4832501749584945
2.895054894459985e-09,2.157303543303212e-05,2.895054894459985e-09,2.157303543273054e-05,2.895054894459985e-09,2.157303540661672e-05,2.895054894459985e-09,2.707355734175313e-05,2.895054894459985e-09,0.4972527191444363
2.922465920416335e-09,2.157303543456229e-05,2.922465920416335e-09,2.157303543740021e-05,2.922465920416335e-09,2.157303546053184e-05,2.922465920416335e-09,2.707356006922784e-05,2.922465920416335e-09,0.5124810668979641
2.948235252298933e-09,2.157303543355188e-05,2.948235252298933e-09,2.157303543297422e-05,2.948235252298933e-09,2.157303541065473e-05,2.948235252298933e-09,2.707355781877178e-05,2.948235252298933e-09,0.5267973623882962
2.999773916064129e-09,2.157303543663778e-05,2.999773916064129e-09,2.157303543496323e-05,2.999773916064129e-09,2.157303545901153e-05,2.999773916064129e-09,2.707355972685376e-05,2.999773916064129e-09,0.5554299533689605
3.037452350878562e-09,2.157303543343703e-05,3.037452350878562e-09,2.157303543521403e-05,3.037452350878562e-09,2.157303541045208e-05,3.037452350878562e-09,2.707355806227366e-05,3.037452350878562e-09,0.5763624171547568
3.089426627749136e-09,2.157303543681354e-05,3.089426627749136e-09,2.157303543498059e-05,3.089426627749136e-09,2.157303545663633e-05,3.089426627749136e-09,2.707355950103286e-05,3.089426627749136e-09,0.6052370154161868
3.101457801579279e-09,2.157303543390781e-05,3.101457801579279e-09,2.157303543495269e-05,3.101457801579279e-09,2.157303541894286e-05,3.101457801579279e-09,2.707355846920381e-05,3.101457801579279e-09,0.611921000877377
3.10747338849435e-09,2.157303543592882e-05,3.10747338849435e-09,2.157303543681472e-05,3.10747338849435e-09,2.15730354412259e-05,3.10747338849435e-09,2.707355881343633e-05,3.10747338849435e-09,0.6152629936079721
3.119504562324492e-09,2.157303543616114e-05,3.119504562324492e-09,2.157303543359081e-05,3.119504562324492e-09,2.157303543017543e-05,3.119504562324492e-09,2.707355892797503e-05,3.119504562324492e-09,0.6219469790691624
3.132438744537162e-09,2.15730354342621e-05,3.132438744537162e-09,2.157303543647405e-05,3.132438744537162e-09,2.157303543830409e-05,3.132438744537162e-09,2.707355867567066e-05,3.132438744537162e-09,0.6291326358539788
3.13580938101134e-09,2.157303543379062e-05,3.13580938101134e-09,2.15730354329708e-05,3.13580938101134e-09,2.157303543572844e-05,3.13580938101134e-09,2.707355903012274e-05,3.13580938101134e-09,0.6310052116729665
3.142550653959696e-09,2.157303543411764e-05,3.142550653959696e-09,2.157303543504216e-05,3.142550653959696e-09,2.157303543003049e-05,3.142550653959696e-09,2.707355862426715e-05,3.142550653959696e-09,0.634750363310942
3.145921290433874e-09,2.157303543630746e-05,3.145921290433874e-09,2.157303543460553e-05,3.145921290433874e-09,2.157303543015508e-05,3.145921290433874e-09,2.707355885783068e-05,3.145921290433874e-09,0.6366229391299297
3.151685532319177e-09,2.157303543413735e-05,3.151685532319177e-09,2.157303543408818e-05,3.151685532319177e-09,2.15730354290028e-05,3.151685532319177e-09,2.707355840674276e-05,3.151685532319177e-09,0.6398252957328764
3.15670160209883e-09,2.157303543616901e-05,3.15670160209883e-09,2.157303543727134e-05,3.15670160209883e-09,2.157303551017283e-05,3.15670160209883e-09,2.707356042574459e-05,3.15670160209883e-09,0.6426120011660164
3.161301029151769e-09,2.157303543528209e-05,3.161301029151769e-09,2.157303543030467e-05,3.161301029151769e-09,2.157303537068575e-05,3.161301029151769e-09,2.707355903272888e-05,3.161301029151769e-09,0.6451672384176496
3.166612634724689e-09,2.157303542961733e-05,3.166612634724689e-09,2.157303543503602e-05,3.166612634724689e-09,2.157303532813372e-05,3.166612634724689e-09,2.707355612775664e-05,3.166612634724689e-09,0.6481181304026052
3.173301735474067e-09,2.157303544490632e-05,3.173301735474067e-09,2.157303543985497e-05,3.173301735474067e-09,2.157303579584569e-05,3.173301735474067e-09,2.707356575750148e-05,3.173301735474067e-09,0.6518342974855926
3.179731853596697e-09,2.157303541557723e-05,3.179731853596697e-09,2.157303542590874e-05,3.179731853596697e-09,2.157303491511618e-05,3.179731853596697e-09,2.70735539561461e-05,3.179731853596697e-09,0.6554065853314985
3.186123491220582e-09,2.157303524742797e-05,3.186123491220582e-09,2.157303543819839e-05,3.186123491220582e-09,2.157302842968628e-05,3.186123491220582e-09,2.707335030428455e-05,3.186123491220582e-09,0.6589574951225456
3.192089251930329e-09,2.157303597077466e-05,3.192089251930329e-09,2.157303544517338e-05,3.192089251930329e-09,2.15730471622127e-05,3.192089251930329e-09,2.707362372945669e-05,3.192089251930329e-09,0.6622718066279608
3.198232551770898e-09,2.157303681064768e-05,3.198232551770898e-09,2.157303543890895e-05,3.198232551770898e-09,2.157309349720129e-05,3.198232551770898e-09,2.707532341823981e-05,3.198232551770898e-09,0.6656847509838321
3.200299656633151e-09,2.157304539077255e-05,3.200299656633151e-09,2.157303566353748e-05,3.200299656633151e-09,2.157330784237279e-05,3.200299656633151e-09,2.707940499854794e-05,3.200299656633151e-09,0.6668331425739726
3.204433866357657e-09,2.157303100709282e-05,3.204433866357657e-09,2.157303509184142e-05,3.204433866357657e-09,2.157308737798131e-05,3.204433866357657e-09,2.708116044862291e-05,3.204433866357657e-09,0.6691299257542536
3.205596730052299e-09,2.157300748077277e-05,3.205596730052299e-09,2.157303442070331e-05,3.205596730052299e-09,2.157255730952054e-05,3.205596730052299e-09,2.707434557106732e-05,3.205596730052299e-09,0.6697759611401661
3.207922457441585e-09,2.157299598194792e-05,3.207922457441585e-09,2.157303514428141e-05,3.207922457441585e-09,2.157200581023486e-05,3.207922457441585e-09,2.705800053564366e-05,3.207922457441585e-09,0.6710680319119914
3.211577729822701e-09,2.157305892916649e-05,3.211577729822701e-09,2.157303693046358e-05,3.211577729822701e-09,2.157261931737044e-05,3.211577729822701e-09,2.704973092423924e-05,3.211577729822701e-09,0.6730987387903894
3.217211863003563e-09,2.157305401940599e-05,3.217211863003563e-09,2.157303409348889e-05,3.217211863003563e-09,2.156987416721286e-05,3.217211863003563e-09,2.696795481654486e-05,3.217211863003563e-09,0.6762288127797574
3.221322823025243e-09,2.157292621271964e-05,3.221322823025243e-09,2.157303696022389e-05,3.221322823025243e-09,2.157622718556899e-05,3.221322823025243e-09,2.702639446379272e-05,3.221322823025243e-09,0.678512679458468
3.226816014096266e-09,2.157320314483538e-05,3.226816014096266e-09,2.157303714558335e-05,3.226816014096266e-09,2.158654837064615e-05,3.226816014096266e-09,2.739159752813301e-05,3.226816014096266e-09,0.6815644522757034
3.231055645779834e-09,2.157314542784902e-05,3.231055645779834e-09,2.157302445078075e-05,3.231055645779834e-09,2.155894753850902e-05,3.231055645779834e-09,2.711702326388045e-05,3.231055645779834e-09,0.6839198032110189
3.236062782689516e-09,2.157278091789796e-05,3.236062782689516e-09,2.157304588351726e-05,3.236062782689516e-09,2.156861872625283e-05,3.236062782689516e-09,2.692642524477982e-05,3.236062782689516e-09,0.6867015459386199
3.241257106391755e-09,2.157313280497506e-05,3.241257106391755e-09,2.157303489054094e-05,3.241257106391755e-09,2.157686132313326e-05,3.241257106391755e-09,2.702228369136203e-05,3.241257106391755e-09,0.6895872813287529
3.242304974749486e-09,2.15732378376761e-05,3.242304974749486e-09,2.157303020265415e-05,3.242304974749486e-09,2.157182198788142e-05,3.242304974749486e-09,2.697763577856049e-05,3.242304974749486e-09,0.6901694304163809
3.244400711464947e-09,2.157351428626872e-05,3.244400711464947e-09,2.157303862780307e-05,3.244400711464947e-09,2.15719347757133e-05,3.244400711464947e-09,2.697572956341294e-05,3.244400711464947e-09,0.6913337285916369
3.247308204927262e-09,2.157407146520281e-05,3.247308204927262e-09,2.15730319959862e-05,3.247308204927262e-09,2.156818069734983e-05,3.247308204927262e-09,2.691599996267759e-05,3.247308204927262e-09,0.6929490027373679
3.250069107732363e-09,2.157528323349972e-05,3.250069107732363e-09,2.157304436539988e-05,3.250069107732363e-09,2.156719600189258e-05,3.250069107732363e-09,2.68535685347223e-05,3.250069107732363e-09,0.6944828376290906
3.252726285805189e-09,2.157695537679773e-05,3.252726285805189e-09,2.157305245413467e-05,3.252726285805189e-09,2.156848407751228e-05,3.252726285805189e-09,2.685605835031564e-05,3.252726285805189e-09,0.6959590476695495
3.255403382879726e-09,2.156032132630218e-05,3.255403382879726e-09,2.157291845478346e-05,3.255403382879726e-09,2.158065091284751e-05,3.255403382879726e-09,2.676048613165296e-05,3.255403382879726e-09,0.6974463238220701
3.257859675108214e-09,2.141107661517683e-05,3.257859675108214e-09,2.157190604935203e-05,3.257859675108214e-09,2.159065053518933e-05,3.257859675108214e-09,2.436864439766054e-05,3.257859675108214e-09,0.6988109306156743
3.260390419175879e-09,2.142479509425504e-05,3.260390419175879e-09,2.157313682068453e-05,3.260390419175879e-09,2.159898126226375e-05,3.260390419175879e-09,2.26917930041434e-05,3.260390419175879e-09,0.7002168995421548
3.262689510154062e-09,2.177306609741644e-05,3.262689510154062e-09,2.157611834892598e-05,3.262689510154062e-09,2.159700444256388e-05,3.262689510154062e-09,2.666108208958123e-05,3.262689510154062e-09,0.7014941723078122
3.264332376312794e-09,2.226003368511928e-05,3.264332376312794e-09,2.157822491253394e-05,3.264332376312794e-09,2.158653893554042e-05,3.264332376312794e-09,3.574543515055792e-05,3.264332376312794e-09,0.7024068757293297
3.265991849260275e-09,2.364647991466985e-05,3.265991849260275e-09,2.158630612219335e-05,3.265991849260275e-09,2.159192077398381e-05,3.265991849260275e-09,6.200992642395649e-05,3.265991849260275e-09,0.7033288051445971
3.26774156818575e-09,2.511033126239968e-05,3.26774156818575e-09,2.158720490459051e-05,3.26774156818575e-09,2.15917895365062e-05,3.26774156818575e-09,0.0001029718658510642,3.26774156818575e-09,0.7043008712143058
3.270049005493028e-09,2.405016561266297e-05,3.270049005493028e-09,2.156137635949724e-05,3.270049005493028e-09,2.154972271676478e-05,3.270049005493028e-09,0.0001278076723787731,3.270049005493028e-09,0.7055827808294598
3.272384558569536e-09,2.029362323754086e-05,3.272384558569536e-09,2.153703555775696e-05,3.272384558569536e-09,2.15216613337739e-05,3.272384558569536e-09,-9.226705376798956e-05,3.272384558569536e-09,0.7068803103164089
3.274574656811078e-09,1.429569111402156e-05,3.274574656811078e-09,2.154149776299038e-05,3.274574656811078e-09,2.151382018222373e-05,3.274574656811078e-09,-0.0008655638266071129,3.274574656811078e-09,0.7080970315617102
3.27645520465304e-09,1.172016308694978e-06,3.27645520465304e-09,2.157892135874398e-05,3.27645520465304e-09,2.154392992978703e-05,3.27645520465304e-09,-0.001476967017556234,3.27645520465304e-09,0.7091417803628002
3.278304444019269e-09,-6.527491187945231e-06,3.278304444019269e-09,2.16172048761924e-05,3.278304444019269e-09,2.158281796598358e-05,3.278304444019269e-09,-0.001435045406866455,3.278304444019269e-09,0.7101691355662607
3.280428409411412e-09,1.510341150967796e-06,3.280428409411412e-09,2.161373138527821e-05,3.280428409411412e-09,2.157633828073322e-05,3.280428409411412e-09,-0.001089618964061065,3.280428409411412e-09,0.7113491163396732
3.282334127597455e-09,9.916231901838703e-06,3.282334127597455e-09,2.159590772991908e-05,3.282334127597455e-09,2.15691430832314e-05,3.282334127597455e-09,-0.0009032040033161242,3.282334127597455e-09,0.712407848665253
3.284157724047803e-09,1.408845831915067e-05,3.284157724047803e-09,2.158422939509446e-05,3.284157724047803e-09,2.156973269049317e-05,3.284157724047803e-09,-0.001086055883245438,3.284157724047803e-09,0.7134209578043348
3.285902887593609e-09,1.390404147329729e-05,3.285902887593609e-09,2.156552195206055e-05,3.285902887593609e-09,2.157442289251881e-05,3.285902887593609e-09,-0.001642058604328225,3.285902887593609e-09,0.7143904931075605
3.288374209401836e-09,0.0002060305762200008,3.288374209401836e-09,2.158359111262226e-05,3.288374209401836e-09,2.159017922859889e-05,3.288374209401836e-09,-0.002728707531887297,3.288374209401836e-09,0.7157634496676865
3.290173898625713e-09,0.0007182615429113153,3.290173898625713e-09,2.159549328336999e-05,3.290173898625713e-09,2.160422378554494e-05,3.290173898625713e-09,-0.003337474044046149,3.290173898625713e-09,0.7167632770142852
3.292140067206814e-09,0.001093377071388654,3.292140067206814e-09,2.158027614612059e-05,3.292140067206814e-09,2.16011944957107e-05,3.292140067206814e-09,-0.003726000263996256,3.292140067206814e-09,0.7178555928926746
3.294386272197239e-09,-0.006138102794558513,3.294386272197239e-09,2.148951539702211e-05,3.294386272197239e-09,2.159004815970182e-05,3.294386272197239e-09,-0.003767164210277528,3.294386272197239e-09,0.7191034845540214
3.296078906965355e-09,-0.0145893882824498,3.296078906965355e-09,2.147300038878007e-05,3.296078906965355e-09,2.158825691747371e-05,3.296078906965355e-09,-0.003402559420705684,3.296078906965355e-09,0.7200438372029749
3.2980473001842e-09,-0.01832208704411587,3.2980473001842e-09,2.149536774057088e-05,3.2980473001842e-09,2.157871263450573e-05,3.2980473001842e-09,-0.002576901228283909,3.2980473001842e-09,0.7211373889912225
3.299836763526078e-09,-0.01144278453431657,3.299836763526078e-09,2.152396374515541e-05,3.299836763526078e-09,2.155325211002708e-05,3.299836763526078e-09,-0.001987454991148915,3.299836763526078e-09,0.7221315352922657
3.301350849064181e-09,0.0288219956433419,3.301350849064181e-09,2.158989582425616e-05,3.301350849064181e-09,2.15617772072418e-05,3.301350849064181e-09,-0.001348516362978201,3.301350849064181e-09,0.7229726939245448
3.303257384856723e-09,0.1505974269559923,3.303257384856723e-09,2.165446198310014e-05,3.303257384856723e-09,2.158833975107262e-05,3.303257384856723e-09,8.055124756757635e-05,3.303257384856723e-09,0.7240318804759572
3.305143546863883e-09,0.3141643203902688,3.305143546863883e-09,2.16327900358556e-05,3.305143546863883e-09,2.156298524702649e-05,3.305143546863883e-09,0.001570461192047219,3.305143546863883e-09,0.7250797482577128
