/net039 X,/net039 Y,/net010 X,/net010 Y,/net09 X,/net09 Y,/net08 X,/net08 Y,/net02 X,/net02 Y
0,0.0008161667069078902,0,0.0008161667068968199,0,0.000816166658041124,0,0.0004281160806650726,0,0
1.5e-11,0.0008161667069079966,1.5e-11,0.0008161667068970112,1.5e-11,0.0008161666580410851,1.5e-11,0.0004281160810036089,1.5e-11,0
4.5e-11,0.0008161667069079016,4.5e-11,0.0008161667068967129,4.5e-11,0.0008161666580410063,4.5e-11,0.000428116080784273,4.5e-11,0
1.05e-10,0.0008161667069098128,1.05e-10,0.0008161667068942994,1.05e-10,0.0008161666580406005,1.05e-10,0.0004281160805986988,1.05e-10,0
2.25e-10,0.0008161667069066533,2.25e-10,0.0008161667068995256,2.25e-10,0.0008161666580437782,2.25e-10,0.0004281160807218344,2.25e-10,0
4.65e-10,0.0008161667069069092,4.65e-10,0.0008161667068947904,4.65e-10,0.0008161666580405649,4.65e-10,0.0004281160806245877,4.65e-10,0
7.649999999999999e-10,0.0008161667069103421,7.649999999999999e-10,0.0008161667068991922,7.649999999999999e-10,0.00081616665804063,7.649999999999999e-10,0.000428116080707396,7.649999999999999e-10,0
1.065e-09,0.0008161667069035863,1.065e-09,0.000816166706894772,1.065e-09,0.0008161666580405902,1.065e-09,0.0004281160806358236,1.065e-09,0
1.365e-09,0.0008161667069164466,1.365e-09,0.0008161667068988628,1.365e-09,0.0008161666580437123,1.365e-09,0.0004281160806964165,1.365e-09,0
1.665e-09,0.0008161667069008211,1.665e-09,0.0008161667068950494,1.665e-09,0.0008161666580343602,1.665e-09,0.0004281160806453141,1.665e-09,0
1.8325e-09,0.0008161667069160824,1.8325e-09,0.0008161667068958849,1.8325e-09,0.0008161666580466408,1.8325e-09,0.0004281160806837612,1.8325e-09,0
2e-09,0.0008161667069013579,2e-09,0.0008161667068978396,2e-09,0.0008161666580380241,2e-09,0.000428116080658895,2e-09,0
2.120144127384571e-09,0.0008161667069079357,2.120144127384571e-09,0.0008161667068969769,2.120144127384571e-09,0.0008161666580409973,2.120144127384571e-09,0.0004281160807509909,2.120144127384571e-09,0.06674673743587282
2.261585129605973e-09,0.0008161667069101562,2.261585129605973e-09,0.0008161667068965327,2.261585129605973e-09,0.000816166658040227,2.261585129605973e-09,0.0004281160807240529,2.261585129605973e-09,0.1453250720033182
2.400273538304042e-09,0.000816166706906064,2.400273538304042e-09,0.000816166706897155,2.400273538304042e-09,0.0008161666580393732,2.400273538304042e-09,0.0004281160803504389,2.400273538304042e-09,0.2223741879466899
2.452455436904633e-09,0.0008161667069105617,2.452455436904633e-09,0.0008161667068968205,2.452455436904633e-09,0.0008161666580405422,2.452455436904633e-09,0.0004281160814058596,2.452455436904633e-09,0.251364131613685
2.478546386204929e-09,0.0008161667069070223,2.478546386204929e-09,0.0008161667068971738,2.478546386204929e-09,0.0008161666580366676,2.478546386204929e-09,0.0004281160802105776,2.478546386204929e-09,0.2658591034471825
2.53072828480552e-09,0.0008161667069070123,2.53072828480552e-09,0.0008161667068965126,2.53072828480552e-09,0.0008161666580476632,2.53072828480552e-09,0.0004281160809445112,2.53072828480552e-09,0.2948490471141775
2.562893966080668e-09,0.0008161667069068556,2.562893966080668e-09,0.000816166706897368,2.562893966080668e-09,0.0008161666580308777,2.562893966080668e-09,0.0004281160796425293,2.562893966080668e-09,0.3127188700448154
2.601084588773805e-09,0.0008161667069099122,2.601084588773805e-09,0.0008161667068968382,2.601084588773805e-09,0.0008161666580507104,2.601084588773805e-09,0.0004281160830234248,2.601084588773805e-09,0.3339358826521139
2.631990174354253e-09,0.0008161667069043724,2.631990174354253e-09,0.0008161667068979373,2.631990174354253e-09,0.0008161666580217138,2.631990174354253e-09,0.0004281160766881058,2.631990174354253e-09,0.3511056524190296
2.645298197936623e-09,0.0008161667069110153,2.645298197936623e-09,0.0008161667068940522,2.645298197936623e-09,0.0008161666580887064,2.645298197936623e-09,0.0004281160859904168,2.645298197936623e-09,0.3584989988536796
2.671914245101363e-09,0.0008161667069029901,2.671914245101363e-09,0.0008161667068997006,2.671914245101363e-09,0.0008161666579803308,2.671914245101363e-09,0.0004281160759443441,2.671914245101363e-09,0.3732856917229797
2.696549637263285e-09,0.0008161667069131728,2.696549637263285e-09,0.0008161667068952614,2.696549637263285e-09,0.0008161666581052903,2.696549637263285e-09,0.0004281160842893151,2.696549637263285e-09,0.3869720207018248
2.732085201861335e-09,0.0008161667069067922,2.732085201861335e-09,0.0008161667068988444,2.732085201861335e-09,0.0008161666579792952,2.732085201861335e-09,0.0004281160778733787,2.732085201861335e-09,0.4067140010340752
2.76244480830391e-09,0.0008161667069071482,2.76244480830391e-09,0.0008161667068957269,2.76244480830391e-09,0.0008161666580993679,2.76244480830391e-09,0.0004281160825528616,2.76244480830391e-09,0.4235804490577274
2.798678480884789e-09,0.0008161667069089682,2.798678480884789e-09,0.0008161667068983248,2.798678480884789e-09,0.0008161666579883494,2.798678480884789e-09,0.0004281160794479241,2.798678480884789e-09,0.4437102671582161
2.830773926881549e-09,0.0008161667069076331,2.830773926881549e-09,0.0008161667068958087,2.830773926881549e-09,0.0008161666580852455,2.830773926881549e-09,0.0004281160812472979,2.830773926881549e-09,0.4615410704897493
2.868059105335294e-09,0.0008161667069059975,2.868059105335294e-09,0.0008161667068982424,2.868059105335294e-09,0.0008161666580033987,2.868059105335294e-09,0.0004281160805362503,2.868059105335294e-09,0.4822550585196076
2.903591521791044e-09,0.0008161667069133606,2.903591521791044e-09,0.0008161667068963792,2.903591521791044e-09,0.0008161666580718299,2.903591521791044e-09,0.0004281160804110382,2.903591521791044e-09,0.5019952898839132
2.932038992431997e-09,0.0008161667069042333,2.932038992431997e-09,0.0008161667068949562,2.932038992431997e-09,0.0008161666580184521,2.932038992431997e-09,0.0004281160812937927,2.932038992431997e-09,0.517799440239998
2.974488772500547e-09,0.0008161667069097105,2.974488772500547e-09,0.0008161667068961991,2.974488772500547e-09,0.0008161666580587145,2.974488772500547e-09,0.0004281160798473532,2.974488772500547e-09,0.5413826513891925
3.023062204820466e-09,0.0008161667069101875,3.023062204820466e-09,0.0008161667068951064,3.023062204820466e-09,0.0008161666580255297,3.023062204820466e-09,0.0004281160816187569,3.023062204820466e-09,0.5683678915669254
3.03304213824239e-09,0.0008161667069078599,3.03304213824239e-09,0.0008161667068988018,3.03304213824239e-09,0.0008161666580403414,3.03304213824239e-09,0.0004281160793404273,3.03304213824239e-09,0.57391229902355
3.053002005086239e-09,0.0008161667069091125,3.053002005086239e-09,0.0008161667068933399,3.053002005086239e-09,0.0008161666580481015,3.053002005086239e-09,0.000428116082042581,3.053002005086239e-09,0.5850011139367995
3.062197548368962e-09,0.0008161667069084548,3.062197548368962e-09,0.0008161667068992013,3.062197548368962e-09,0.0008161666580277666,3.062197548368962e-09,0.0004281160793037393,3.062197548368962e-09,0.5901097490938675
3.080588634934406e-09,0.0008161667069055987,3.080588634934406e-09,0.0008161667068974601,3.080588634934406e-09,0.0008161666580551539,3.080588634934406e-09,0.0004281160819802217,3.080588634934406e-09,0.6003270194080035
3.100749224549791e-09,0.0008161667069107969,3.100749224549791e-09,0.0008161667068968733,3.100749224549791e-09,0.0008161666580249676,3.100749224549791e-09,0.0004281160794030972,3.100749224549791e-09,0.6115273469721062
3.106130059618571e-09,0.0008161667069074255,3.106130059618571e-09,0.0008161667068951905,3.106130059618571e-09,0.0008161666580573363,3.106130059618571e-09,0.0004281160817464462,3.106130059618571e-09,0.6145166997880952
3.116891729756132e-09,0.0008161667069074148,3.116891729756132e-09,0.0008161667068963117,3.116891729756132e-09,0.0008161666580258307,3.116891729756132e-09,0.0004281160796729524,3.116891729756132e-09,0.6204954054200734
3.133189864509465e-09,0.0008161667069064574,3.133189864509465e-09,0.0008161667068973406,3.133189864509465e-09,0.0008161666580544476,3.133189864509465e-09,0.0004281160815288414,3.133189864509465e-09,0.6295499247274803
3.137839064677166e-09,0.000816166706906965,3.137839064677166e-09,0.0008161667068972583,3.137839064677166e-09,0.0008161666580136178,3.137839064677166e-09,0.0004281160794768312,3.137839064677166e-09,0.6321328137095366
3.147137465012568e-09,0.000816166706908756,3.147137465012568e-09,0.0008161667068967905,3.147137465012568e-09,0.0008161666580053178,3.147137465012568e-09,0.0004281160773098398,3.147137465012568e-09,0.6372985916736488
3.16088560164452e-09,0.0008161667069113864,3.16088560164452e-09,0.0008161667068972986,3.16088560164452e-09,0.0008161666582663636,3.16088560164452e-09,0.0004281160903372283,3.16088560164452e-09,0.6449364453580663
3.173643208208291e-09,0.0008161667069349107,3.173643208208291e-09,0.0008161667068965312,3.173643208208291e-09,0.0008161666609241306,3.173643208208291e-09,0.0004281163575999459,3.173643208208291e-09,0.6520240045601616
3.177158452639745e-09,0.0008161667074870422,3.177158452639745e-09,0.0008161667069083893,3.177158452639745e-09,0.0008161666784172231,3.177158452639745e-09,0.0004281169543131931,3.177158452639745e-09,0.6539769181331917
3.184188941502654e-09,0.0008161667053599557,3.184188941502654e-09,0.0008161667068582881,3.184188941502654e-09,0.0008161665708172656,3.184188941502654e-09,0.0004281138951402431,3.184188941502654e-09,0.6578827452792521
3.194456404011026e-09,0.0008161667077248846,3.194456404011026e-09,0.000816166706948726,3.194456404011026e-09,0.00081616648116478,3.194456404011026e-09,0.0004280982402590879,3.194456404011026e-09,0.6635868911172366
3.203265770928201e-09,0.0008161667084626831,3.203265770928201e-09,0.0008161667069349214,3.203265770928201e-09,0.0008161670707323086,3.203265770928201e-09,0.0004281034609250847,3.203265770928201e-09,0.6684809838490003
3.213416723815346e-09,0.0008161667119794926,3.213416723815346e-09,0.0008161667068176645,3.213416723815346e-09,0.0008161683395165508,3.213416723815346e-09,0.0004282087222608586,3.213416723815346e-09,0.6741204021196369
3.221913850833251e-09,0.000816166705331249,3.221913850833251e-09,0.0008161667063288577,3.221913850833251e-09,0.0008161631829196235,3.221913850833251e-09,0.0004281294043189111,3.221913850833251e-09,0.6788410282406947
3.224579855997509e-09,0.0008161666767603923,3.224579855997509e-09,0.0008161667075532172,3.224579855997509e-09,0.0008161631637855086,3.224579855997509e-09,0.0004280697755651951,3.224579855997509e-09,0.680322142220838
3.229911866326025e-09,0.0008161666696053102,3.229911866326025e-09,0.0008161667080033306,3.229911866326025e-09,0.0008161670264070839,3.229911866326025e-09,0.0004280537038110831,3.229911866326025e-09,0.6832843701811249
3.23959191646742e-09,0.0008161667286709337,3.23959191646742e-09,0.0008161667057588395,3.23959191646742e-09,0.0008161682084992256,3.23959191646742e-09,0.0004280914723539785,3.23959191646742e-09,0.6886621758152335
3.249516781642958e-09,0.0008161667391606288,3.249516781642958e-09,0.0008161667072816703,3.249516781642958e-09,0.0008161669958167581,3.249516781642958e-09,0.000428118597597872,3.249516781642958e-09,0.6941759898016435
3.25767586122693e-09,0.0008161667199414212,3.25767586122693e-09,0.0008161667067864369,3.25767586122693e-09,0.0008161666279748149,3.25767586122693e-09,0.0004281231232600381,3.25767586122693e-09,0.6987088117927387
3.265792198731988e-09,0.0008161666799489227,3.265792198731988e-09,0.0008161667069732996,3.265792198731988e-09,0.0008161664850758442,3.265792198731988e-09,0.0004281184291438924,3.265792198731988e-09,0.7032178881844375
3.273629584587165e-09,0.0008161665105230044,3.273629584587165e-09,0.0008161667062044698,3.273629584587165e-09,0.0008161654777370802,3.273629584587165e-09,0.0004280566357033774,3.273629584587165e-09,0.7075719914373141
3.279693996889144e-09,0.0008161652284850987,3.279693996889144e-09,0.0008161667015573735,3.279693996889144e-09,0.0008161650653742118,3.279693996889144e-09,0.0004279052495097608,3.279693996889144e-09,0.7109411093828577
3.284284871110967e-09,0.0008161630569238485,3.284284871110967e-09,0.0008161666971019605,3.284284871110967e-09,0.0008161679403503299,3.284284871110967e-09,0.0004277588179219025,3.284284871110967e-09,0.7134915950616485
3.288665941146841e-09,0.0008161906569776655,3.288665941146841e-09,0.0008161668615847793,3.288665941146841e-09,0.0008161736043064001,3.288665941146841e-09,0.0004285654385453652,3.288665941146841e-09,0.7159255228593562
3.29255514588281e-09,0.0008163430318693778,3.29255514588281e-09,0.000816167596336413,3.29255514588281e-09,0.0008161752864374898,3.29255514588281e-09,0.0004337427897618383,3.29255514588281e-09,0.7180861921571166
3.296337812491162e-09,0.0008166043963044988,3.296337812491162e-09,0.0008161681227003661,3.296337812491162e-09,0.0008161718365919262,3.296337812491162e-09,0.0004456580621584846,3.296337812491162e-09,0.720187673606201
3.300172743133928e-09,0.0008163852550724268,3.300172743133928e-09,0.0008161649634416188,3.300172743133928e-09,0.0008161639937730961,3.300172743133928e-09,0.0004438412354179004,3.300172743133928e-09,0.7223181906299597
3.303017372283708e-09,0.0008157776263145742,3.303017372283708e-09,0.0008161622370851266,3.303017372283708e-09,0.0008161602938126395,3.303017372283708e-09,0.0003993185076246608,3.303017372283708e-09,0.7238985401576153
3.305662346826309e-09,0.0008153467116318815,3.305662346826309e-09,0.0008161637767823033,3.305662346826309e-09,0.0008161577058083017,3.305662346826309e-09,0.0002848177461074202,3.305662346826309e-09,0.7253679704590607
3.308842044111786e-09,0.0008146348163131102,3.308842044111786e-09,0.00081616868907487,3.308842044111786e-09,0.0008161487002395136,3.308842044111786e-09,-1.130048162508062e-05,3.308842044111786e-09,0.7271344689509923
3.312489224052866e-09,0.0008117708278005959,3.312489224052866e-09,0.0008161737905548354,3.312489224052866e-09,0.0008161490964182267,3.312489224052866e-09,-0.000401455134759449,3.312489224052866e-09,0.7291606800293702
3.31636195956262e-09,0.0008103691380197192,3.31636195956262e-09,0.0008161710822658814,3.31636195956262e-09,0.0008161633801999627,3.31636195956262e-09,-0.0004616217262111259,3.31636195956262e-09,0.7313121997570112
3.319442902381547e-09,0.0008147613885915578,3.319442902381547e-09,0.0008161586824845518,3.319442902381547e-09,0.0008161683901995091,3.319442902381547e-09,-0.0002661311042153619,3.319442902381547e-09,0.7330238346564151
3.322365899591757e-09,0.0008256276484676415,3.322365899591757e-09,0.0008161578239261182,3.322365899591757e-09,0.0008161711677860534,3.322365899591757e-09,-6.767381024409069e-06,3.322365899591757e-09,0.7346477219954207
3.32544067767188e-09,0.0008437872755412436,3.32544067767188e-09,0.0008161659653252986,3.32544067767188e-09,0.0008161729689513653,3.32544067767188e-09,0.0001991900605431325,3.32544067767188e-09,0.7363559320399333
3.328587565522175e-09,0.0008652387451964875,3.328587565522175e-09,0.0008161795286515504,3.328587565522175e-09,0.0008161739666246102,3.328587565522175e-09,0.0001254906441831362,3.328587565522175e-09,0.7381042030678747
3.331270596384225e-09,0.0008846620949531439,3.331270596384225e-09,0.0008161834583880355,3.331270596384225e-09,0.0008161760681216745,3.331270596384225e-09,-0.0003020298923233827,3.331270596384225e-09,0.739594775769014
3.334180690887433e-09,0.0008945582446111812,3.334180690887433e-09,0.0008161701613308925,3.334180690887433e-09,0.0008161793541168301,3.334180690887433e-09,-0.001106761554333894,3.334180690887433e-09,0.7412114949374627
3.337941143532467e-09,0.0003335100241903619,3.337941143532467e-09,0.0008161442552490401,3.337941143532467e-09,0.0008161833215979513,3.337941143532467e-09,-0.002137754947103348,3.337941143532467e-09,0.7433006352958149
3.340925726249031e-09,-0.002314286460231666,3.340925726249031e-09,0.0008161299599271084,3.340925726249031e-09,0.0008161783802728326,3.340925726249031e-09,-0.002682766107041741,3.340925726249031e-09,0.7449587368050175
3.344155375997155e-09,-0.005633811787498894,3.344155375997155e-09,0.0008161300936282274,3.344155375997155e-09,0.0008161700611890193,3.344155375997155e-09,-0.002812236856995076,3.344155375997155e-09,0.7467529866650858
3.347385061018313e-09,0.006318217171879777,3.347385061018313e-09,0.0008161512549626842,3.347385061018313e-09,0.0008161634863696351,3.347385061018313e-09,-0.002331414318323165,3.347385061018313e-09,0.7485472561212853
3.350373133449177e-09,0.05198698711706849,3.350373133449177e-09,0.0008161817359735866,3.350373133449177e-09,0.0008161561119189508,3.350373133449177e-09,-0.001480146638587435,3.350373133449177e-09,0.7502072963606541
3.35317996200182e-09,0.1300993770048028,3.35317996200182e-09,0.0008161994944177749,3.35317996200182e-09,0.00081614775102848,3.35317996200182e-09,-0.0008665267189977113,3.35317996200182e-09,0.7517666455565665
3.35553965910587e-09,0.2119058316734325,3.35553965910587e-09,0.0008162176253781186,3.35553965910587e-09,0.0008161571958140412,3.35553965910587e-09,-0.0003062574904049707,3.35553965910587e-09,0.7530775883921501
3.35833834175602e-09,0.3226334996045968,3.35833834175602e-09,0.0008162218409351063,3.35833834175602e-09,0.000816167538217456,3.35833834175602e-09,0.0006768981596376617,3.35833834175602e-09,0.7546324120866776
3.361490374134786e-09,0.4596236864687085,3.361490374134786e-09,0.0008161955586632648,3.361490374134786e-09,0.0008161605167240256,3.361490374134786e-09,0.001758937930446506,3.361490374134786e-09,0.7563835411859923
3.365714112570223e-09,0.6341188232064955,3.365714112570223e-09,0.0008161693719608991,3.365714112570223e-09,0.0008161622108326233,3.365714112570223e-09,0.002759011665264066,3.365714112570223e-09,0.7587300625390127
3.368713472615036e-09,0.7299549045179579,3.368713472615036e-09,0.0008161613954757353,3.368713472615036e-09,0.0008161662348744846,3.368713472615036e-09,0.003025677899391689,3.368713472615036e-09,0.7603963736750197
3.37158468755799e-09,0.7961156577314225,3.37158468755799e-09,0.0008161606006872475,3.37158468755799e-09,0.0008161720465933216,3.37158468755799e-09,0.003009227732316826,3.37158468755799e-09,0.761991493087772
3.374403778776892e-09,0.8744152215062785,3.374403778776892e-09,0.0008161603829818509,3.374403778776892e-09,0.0008161741568439817,3.374403778776892e-09,0.002814464016119892,3.374403778776892e-09,0.7635576548760513
3.377935207060007e-09,1.126522308804549,3.377935207060007e-09,0.0008161583642249936,3.377935207060007e-09,0.0008161734379270082,3.377935207060007e-09,0.002446441651556263,3.377935207060007e-09,0.7655195594777816
3.380514267122264e-09,1.560423433517661,3.380514267122264e-09,0.0008161571440662487,3.380514267122264e-09,0.0008161715663011327,3.380514267122264e-09,0.002150775860166568,3.380514267122264e-09,0.7669523706234798
3.38272668498394e-09,2.170987255320977,3.38272668498394e-09,0.000816155512503183,3.38272668498394e-09,0.0008161695768232219,3.38272668498394e-09,0.001923832253563174,3.38272668498394e-09,0.7681814916577443
3.385183909589215e-09,2.996201239180379,3.385183909589215e-09,0.0008161542565267741,3.385183909589215e-09,0.000816167075377204,3.385183909589215e-09,0.001697079978805013,3.385183909589215e-09,0.7695466164384528
3.387219809236493e-09,3.642750972203792,3.387219809236493e-09,0.0008161530850023928,3.387219809236493e-09,0.0008161652100015189,3.387219809236493e-09,0.001532011515692135,3.387219809236493e-09,0.7706776717980515
3.388902947843411e-09,4.045098513634764,3.388902947843411e-09,0.0008161533023271651,3.388902947843411e-09,0.0008161643928447372,3.388902947843411e-09,0.001406624205723499,3.388902947843411e-09,0.7716127488018949
3.39053828708738e-09,4.320856233688001,3.39053828708738e-09,0.0008161532779862539,3.39053828708738e-09,0.0008161636784206075,3.39053828708738e-09,0.001296995013584867,3.39053828708738e-09,0.7725212706040998
3.39253455020871e-09,4.55549472445609,3.39253455020871e-09,0.0008161543676201299,3.39253455020871e-09,0.000816163559197945,3.39253455020871e-09,0.001175889226056238,3.39253455020871e-09,0.7736303056715053
