/net039 X,/net039 Y,/net010 X,/net010 Y,/net09 X,/net09 Y,/net08 X,/net08 Y,/net02 X,/net02 Y
0,0.001221935355847838,0,0.001221935355810655,0,0.001221935078539723,0,0.0005945553714446495,0,0
1.5e-11,0.001221935355847936,1.5e-11,0.001221935355810589,1.5e-11,0.001221935078539835,1.5e-11,0.0005945553714952986,1.5e-11,0
4.5e-11,0.00122193535584778,4.5e-11,0.001221935355810588,4.5e-11,0.001221935078539924,4.5e-11,0.0005945553714626196,4.5e-11,0
1.05e-10,0.001221935355847461,1.05e-10,0.001221935355810401,1.05e-10,0.00122193507854142,1.05e-10,0.0005945553714351421,1.05e-10,0
2.25e-10,0.001221935355846882,2.25e-10,0.001221935355812942,2.25e-10,0.001221935078538212,2.25e-10,0.0005945553714535563,2.25e-10,0
4.65e-10,0.001221935355851276,4.65e-10,0.001221935355807082,4.65e-10,0.001221935078540945,4.65e-10,0.0005945553714389814,4.65e-10,0
7.649999999999999e-10,0.001221935355843968,7.649999999999999e-10,0.001221935355815743,7.649999999999999e-10,0.001221935078538665,7.649999999999999e-10,0.0005945553714515216,7.649999999999999e-10,0
1.065e-09,0.001221935355847948,1.065e-09,0.00122193535580464,1.065e-09,0.001221935078538088,1.065e-09,0.0005945553714405661,1.065e-09,0
1.365e-09,0.001221935355849464,1.365e-09,0.001221935355818272,1.365e-09,0.00122193507854207,1.365e-09,0.0005945553714497177,1.365e-09,0
1.665e-09,0.001221935355847807,1.665e-09,0.001221935355805331,1.665e-09,0.001221935078534762,1.665e-09,0.000594555371442074,1.665e-09,0
1.8325e-09,0.001221935355849161,1.8325e-09,0.001221935355815016,1.8325e-09,0.001221935078545129,1.8325e-09,0.0005945553714477883,1.8325e-09,0
2e-09,0.001221935355845489,2e-09,0.001221935355808267,2e-09,0.001221935078537859,2e-09,0.0005945553714437829,2e-09,0
2.120144127384571e-09,0.001221935355847693,2.120144127384571e-09,0.001221935355810649,2.120144127384571e-09,0.001221935078539441,2.120144127384571e-09,0.000594555371631395,2.120144127384571e-09,0.06674673743587282
2.261585129605973e-09,0.001221935355850546,2.261585129605973e-09,0.001221935355810297,2.261585129605973e-09,0.001221935078535483,2.261585129605973e-09,0.0005945553714090604,2.261585129605973e-09,0.1453250720033182
2.400273538304042e-09,0.001221935355846637,2.400273538304042e-09,0.001221935355816166,2.400273538304042e-09,0.001221935078537131,2.400273538304042e-09,0.0005945553711222848,2.400273538304042e-09,0.2223741879466899
2.452360435819651e-09,0.001221935355847794,2.452360435819651e-09,0.001221935355808469,2.452360435819651e-09,0.001221935078535519,2.452360435819651e-09,0.0005945553726369453,2.452360435819651e-09,0.2513113532331392
2.478403884577455e-09,0.001221935355847127,2.478403884577455e-09,0.001221935355811897,2.478403884577455e-09,0.001221935078538504,2.478403884577455e-09,0.0005945553699625,2.478403884577455e-09,0.265779935876364
2.530490782093065e-09,0.001221935355847418,2.530490782093065e-09,0.001221935355808822,2.530490782093065e-09,0.001221935078543696,2.530490782093065e-09,0.000594555372840425,2.530490782093065e-09,0.2947171011628136
2.565708996973161e-09,0.001221935355847187,2.565708996973161e-09,0.001221935355812007,2.565708996973161e-09,0.001221935078528598,2.565708996973161e-09,0.0005945553692909091,2.565708996973161e-09,0.3142827760962004
2.602811917709145e-09,0.001221935355847776,2.602811917709145e-09,0.001221935355808626,2.602811917709145e-09,0.00122193507855106,2.602811917709145e-09,0.0005945553750988371,2.602811917709145e-09,0.3348955098384137
2.637110123970139e-09,0.00122193535585006,2.637110123970139e-09,0.001221935355811966,2.637110123970139e-09,0.001221935078516416,2.637110123970139e-09,0.0005945553661574645,2.637110123970139e-09,0.3539500688722996
2.676337473458421e-09,0.001221935355844914,2.676337473458421e-09,0.001221935355808743,2.676337473458421e-09,0.001221935078569792,2.676337473458421e-09,0.0005945553777142481,2.676337473458421e-09,0.3757430408102336
2.704265818239165e-09,0.001221935355848773,2.704265818239165e-09,0.001221935355811232,2.704265818239165e-09,0.001221935078485717,2.704265818239165e-09,0.0005945553647627215,2.704265818239165e-09,0.391258787910647
2.737469031731152e-09,0.001221935355848264,2.737469031731152e-09,0.001221935355814836,2.737469031731152e-09,0.001221935078606677,2.737469031731152e-09,0.0005945553777445673,2.737469031731152e-09,0.4097050176284176
2.76668999485476e-09,0.001221935355849279,2.76668999485476e-09,0.001221935355806283,2.76668999485476e-09,0.001221935078461423,2.76668999485476e-09,0.0005945553660921053,2.76668999485476e-09,0.425938886030422
2.802698740537555e-09,0.001221935355845959,2.802698740537555e-09,0.001221935355814058,2.802698740537555e-09,0.001221935078621666,2.802698740537555e-09,0.0005945553758368496,2.802698740537555e-09,0.4459437447430862
2.83503791880168e-09,0.001221935355851518,2.83503791880168e-09,0.001221935355808937,2.83503791880168e-09,0.001221935078462838,2.83503791880168e-09,0.0005945553681621077,2.83503791880168e-09,0.4639099548898225
2.875675650593271e-09,0.001221935355846318,2.875675650593271e-09,0.001221935355811069,2.875675650593271e-09,0.001221935078614408,2.875675650593271e-09,0.0005945553738897756,2.875675650593271e-09,0.4864864725518172
2.908817640321404e-09,0.001221935355850666,2.908817640321404e-09,0.001221935355809116,2.908817640321404e-09,0.001221935078473321,2.908817640321404e-09,0.0005945553699273173,2.908817640321404e-09,0.5048986890674466
2.938308791200721e-09,0.001221935355846402,2.938308791200721e-09,0.001221935355814153,2.938308791200721e-09,0.001221935078598412,2.938308791200721e-09,0.0005945553720812617,2.938308791200721e-09,0.5212826617781781
2.983963797692435e-09,0.001221935355847566,2.983963797692435e-09,0.001221935355806723,2.983963797692435e-09,0.001221935078489417,2.983963797692435e-09,0.0005945553712854017,2.983963797692435e-09,0.5466465542735751
3.03037572131306e-09,0.001221935355849265,3.03037572131306e-09,0.001221935355813822,3.03037572131306e-09,0.001221935078586977,3.03037572131306e-09,0.0005945553712010058,3.03037572131306e-09,0.5724309562850333
3.040176363747737e-09,0.001221935355845806,3.040176363747737e-09,0.001221935355807813,3.040176363747737e-09,0.001221935078525123,3.040176363747737e-09,0.0005945553729037179,3.040176363747737e-09,0.5778757576376314
3.05977764861709e-09,0.001221935355848376,3.05977764861709e-09,0.001221935355812439,3.05977764861709e-09,0.001221935078546456,3.05977764861709e-09,0.00059455536972454,3.05977764861709e-09,0.5887653603428278
3.090964187740564e-09,0.001221935355846108,3.090964187740564e-09,0.001221935355807853,3.090964187740564e-09,0.001221935078539758,3.090964187740564e-09,0.0005945553732552104,3.090964187740564e-09,0.6060912154114242
3.096784601461322e-09,0.001221935355849443,3.096784601461322e-09,0.001221935355811498,3.096784601461322e-09,0.001221935078526579,3.096784601461322e-09,0.0005945553695650349,3.096784601461322e-09,0.6093247785896236
3.10842542890284e-09,0.001221935355847908,3.10842542890284e-09,0.001221935355810626,3.10842542890284e-09,0.00122193507855998,3.10842542890284e-09,0.0005945553731940334,3.10842542890284e-09,0.6157919049460221
3.129758382339002e-09,0.001221935355846965,3.129758382339002e-09,0.001221935355812425,3.129758382339002e-09,0.001221935078522029,3.129758382339002e-09,0.0005945553697526034,3.129758382339002e-09,0.62764354574389
3.134963032237338e-09,0.001221935355849356,3.134963032237338e-09,0.001221935355808993,3.134963032237338e-09,0.001221935078538744,3.134963032237338e-09,0.0005945553718668599,3.134963032237338e-09,0.6305350179096322
3.14537233203401e-09,0.001221935355844343,3.14537233203401e-09,0.001221935355811583,3.14537233203401e-09,0.00122193507854441,3.14537233203401e-09,0.0005945553686725281,3.14537233203401e-09,0.6363179622411166
3.149273085453574e-09,0.001221935355849845,3.149273085453574e-09,0.001221935355810855,3.149273085453574e-09,0.001221935078560965,3.149273085453574e-09,0.0005945553703258247,3.149273085453574e-09,0.6384850474742075
3.157074592292701e-09,0.001221935355855116,3.157074592292701e-09,0.001221935355810495,3.157074592292701e-09,0.001221935079186614,3.157074592292701e-09,0.0005945554069895417,3.157074592292701e-09,0.6428192179403893
3.16888551849679e-09,0.00122193535583155,3.16888551849679e-09,0.001221935355809499,3.16888551849679e-09,0.001221935078440246,3.16888551849679e-09,0.0005945555114397721,3.16888551849679e-09,0.649380843609328
3.183859015456008e-09,0.001221935355833381,3.183859015456008e-09,0.001221935355810965,3.183859015456008e-09,0.001221935068110427,3.183859015456008e-09,0.0005945540590585811,3.183859015456008e-09,0.6576994530311155
3.195965355440745e-09,0.001221935355810416,3.195965355440745e-09,0.001221935355809993,3.195965355440745e-09,0.001221934998767208,3.195965355440745e-09,0.00059454137780228,3.195965355440745e-09,0.6644251974670806
3.208062693347805e-09,0.001221935357009735,3.208062693347805e-09,0.001221935355837558,3.208062693347805e-09,0.0012219357024096,3.208062693347805e-09,0.0005945797150215971,3.208062693347805e-09,0.6711459407487803
3.219415050408284e-09,0.001221935355883856,3.219415050408284e-09,0.001221935355644479,3.219415050408284e-09,0.001221934559465212,3.219415050408284e-09,0.0005946143618132501,3.219415050408284e-09,0.6774528057823798
3.229332949328091e-09,0.001221935338647124,3.229332949328091e-09,0.001221935355995573,3.229332949328091e-09,0.001221932681945382,3.229332949328091e-09,0.0005944846147986397,3.229332949328091e-09,0.6829627496267173
3.24109760435197e-09,0.00122193537320754,3.24109760435197e-09,0.001221935356233046,3.24109760435197e-09,0.001221938334451098,3.24109760435197e-09,0.0005945255417335751,3.24109760435197e-09,0.6894986690844276
3.251885874849613e-09,0.001221935393157194,3.251885874849613e-09,0.001221935354491113,3.251885874849613e-09,0.001221934788283677,3.251885874849613e-09,0.0005945774158807673,3.251885874849613e-09,0.6954921526942293
3.260303725132026e-09,0.001221935336516166,3.260303725132026e-09,0.001221935356979093,3.260303725132026e-09,0.00122193451858851,3.260303725132026e-09,0.0005945597953205706,3.260303725132026e-09,0.7001687361844587
3.268489769274792e-09,0.001221935303284853,3.268489769274792e-09,0.001221935355415497,3.268489769274792e-09,0.001221935015306117,3.268489769274792e-09,0.0005945608712543715,3.268489769274792e-09,0.7047165384859955
3.275927871986498e-09,0.00122193522505174,3.275927871986498e-09,0.001221935355417788,3.275927871986498e-09,0.00122193388691619,3.275927871986498e-09,0.0005944915066540378,3.275927871986498e-09,0.7088488177702765
3.281853791278902e-09,0.001221934431389231,3.281853791278902e-09,0.001221935352892263,3.281853791278902e-09,0.001221934583330336,3.281853791278902e-09,0.0005943773197248977,3.281853791278902e-09,0.7121409951549454
3.28640194014845e-09,0.001221934749132405,3.28640194014845e-09,0.001221935358276723,3.28640194014845e-09,0.001221937442659171,3.28640194014845e-09,0.000594343663515272,3.28640194014845e-09,0.7146677445269168
3.290819452663248e-09,0.001221965724270323,3.290819452663248e-09,0.001221935521397341,3.290819452663248e-09,0.001221941628509058,3.290819452663248e-09,0.0005955347476301947,3.290819452663248e-09,0.7171219181462487
3.294575961170455e-09,0.001222093043932503,3.294575961170455e-09,0.001221936089271745,3.294575961170455e-09,0.001221940777487514,3.294575961170455e-09,0.0006009159734014679,3.294575961170455e-09,0.7192088673169194
3.298408882132792e-09,0.001222227576584742,3.298408882132792e-09,0.001221935992504867,3.298408882132792e-09,0.001221935859617942,3.298408882132792e-09,0.0006108324776942827,3.298408882132792e-09,0.721338267851551
3.301092985795558e-09,0.001222036692728982,3.301092985795558e-09,0.001221933795813578,3.301092985795558e-09,0.001221928992194105,3.301092985795558e-09,0.0006100855264268886,3.301092985795558e-09,0.7228294365530876
3.303897746651819e-09,0.001221567948824342,3.303897746651819e-09,0.001221932018284803,3.303897746651819e-09,0.001221926274723016,3.303897746651819e-09,0.0005788262443469734,3.303897746651819e-09,0.7243876370287882
3.306341994024548e-09,0.001221275329946289,3.306341994024548e-09,0.00122193315379098,3.306341994024548e-09,0.001221926811669828,3.306341994024548e-09,0.000504119720862358,3.306341994024548e-09,0.7257455522358601
3.309637221623783e-09,0.001220959456063577,3.309637221623783e-09,0.001221936896528798,3.309637221623783e-09,0.001221920639682544,3.309637221623783e-09,0.0002796784170214971,3.309637221623783e-09,0.7275762342354352
3.313197945320281e-09,0.001219440004019429,3.313197945320281e-09,0.001221940192760755,3.313197945320281e-09,0.001221919188730497,3.313197945320281e-09,-8.579659453392963e-05,3.313197945320281e-09,0.7295544140668228
3.317513132919295e-09,0.001218052675299719,3.317513132919295e-09,0.001221938567912203,3.317513132919295e-09,0.001221934385733751,3.317513132919295e-09,-0.0002590189951445489,3.317513132919295e-09,0.7319517405107194
3.320626993163354e-09,0.001221506792868068,3.320626993163354e-09,0.001221929468968091,3.320626993163354e-09,0.001221941407167503,3.320626993163354e-09,-0.0001130591319588623,3.320626993163354e-09,0.73368166286853
3.323601883866444e-09,0.001230253276889192,3.323601883866444e-09,0.001221927237394317,3.323601883866444e-09,0.001221943681572081,3.323601883866444e-09,0.0001222202663045888,3.323601883866444e-09,0.7353343799258022
3.326613670351433e-09,0.001243372565603753,3.326613670351433e-09,0.001221934277318119,3.326613670351433e-09,0.001221945053439028,3.326613670351433e-09,0.0003303838655637052,3.326613670351433e-09,0.7370075946396852
3.329974773754709e-09,0.001257819455758457,3.329974773754709e-09,0.001221945535181193,3.329974773754709e-09,0.001221945452497416,3.329974773754709e-09,0.0002952295350048175,3.329974773754709e-09,0.7388748743081719
3.332721074469909e-09,0.001267511750228193,3.332721074469909e-09,0.001221948263887342,3.332721074469909e-09,0.001221946518500194,3.332721074469909e-09,-8.950585010489561e-05,3.332721074469909e-09,0.7404005969277271
3.335598562444694e-09,0.001265975610747761,3.335598562444694e-09,0.001221936376412945,3.335598562444694e-09,0.001221948070273906,3.335598562444694e-09,-0.0008396671684439825,3.335598562444694e-09,0.7419992013581634
3.339490749986222e-09,0.0008051774714846927,3.339490749986222e-09,0.001221913965831807,3.339490749986222e-09,0.001221949282017002,3.339490749986222e-09,-0.001883006649743517,3.339490749986222e-09,0.7441615277701235
3.342451679166475e-09,-0.001249545955926172,3.342451679166475e-09,0.001221905119099279,3.342451679166475e-09,0.001221943097408868,3.342451679166475e-09,-0.002417218035794857,3.342451679166475e-09,0.7458064884258195
3.345699903455919e-09,-0.003937138258971415,3.345699903455919e-09,0.001221909755342601,3.345699903455919e-09,0.001221933573562366,3.345699903455919e-09,-0.002560550745192057,3.345699903455919e-09,0.7476110574755105
3.3489258216741e-09,0.006611706628543625,3.3489258216741e-09,0.001221932248396801,3.3489258216741e-09,0.001221927362421849,3.3489258216741e-09,-0.002113489721534021,3.3489258216741e-09,0.7494032342633887
3.351915193347691e-09,0.04705716429911212,3.351915193347691e-09,0.001221960576720148,3.351915193347691e-09,0.001221921882710231,3.351915193347691e-09,-0.001259417969155619,3.351915193347691e-09,0.751063996304273
3.354853744650386e-09,0.1214592778156359,3.354853744650386e-09,0.001221973888601294,3.354853744650386e-09,0.001221915061999359,3.354853744650386e-09,-0.0006337772684313612,3.354853744650386e-09,0.7526965248057701
3.357204553460831e-09,0.1978034497486542,3.357204553460831e-09,0.001221986461799351,3.357204553460831e-09,0.001221925827000869,3.357204553460831e-09,-0.0001361406649672818,3.357204553460831e-09,0.7540025297004616
3.360012596173632e-09,0.3038199639199985,3.360012596173632e-09,0.001221986318083905,3.360012596173632e-09,0.001221937641512652,3.360012596173632e-09,0.0008023777537971523,3.360012596173632e-09,0.7555625534297955
3.363130786119756e-09,0.4356841065689603,3.363130786119756e-09,0.001221956038435075,3.363130786119756e-09,0.001221930258393525,3.363130786119756e-09,0.001856802874520507,3.363130786119756e-09,0.7572948811776422
3.367329228266982e-09,0.6088015047663259,3.367329228266982e-09,0.001221929355326821,3.367329228266982e-09,0.001221932016866896,3.367329228266982e-09,0.002851719935298265,3.367329228266982e-09,0.7596273490372123
3.370343267169856e-09,0.7080957277664202,3.370343267169856e-09,0.001221922322144277,3.370343267169856e-09,0.00122193657046734,3.370343267169856e-09,0.003125941926580462,3.370343267169856e-09,0.7613018150943646
3.373218552453701e-09,0.7775351874334608,3.373218552453701e-09,0.001221922228046652,3.373218552453701e-09,0.001221941943331379,3.373218552453701e-09,0.003116893887351124,3.373218552453701e-09,0.7628991958076113
3.376033091990245e-09,0.8536472484632436,3.376033091990245e-09,0.001221921850487427,3.376033091990245e-09,0.001221943063917164,3.376033091990245e-09,0.00292957247687511,3.376033091990245e-09,0.7644628288834696
3.379757408603917e-09,1.108568418956131,3.379757408603917e-09,0.001221919892127607,3.379757408603917e-09,0.001221940899468862,3.379757408603917e-09,0.002550946836630475,3.379757408603917e-09,0.7665318936688428
3.382396236362381e-09,1.543147456426299,3.382396236362381e-09,0.001221918744263536,3.382396236362381e-09,0.001221938226907156,3.382396236362381e-09,0.002253552712392045,3.382396236362381e-09,0.7679979090902118
3.384640128513211e-09,2.157261209221769,3.384640128513211e-09,0.001221917702801806,3.384640128513211e-09,0.001221935849723755,3.384640128513211e-09,0.002030255702507296,3.384640128513211e-09,0.7692445158406725
3.387062559100367e-09,2.968686715212906,3.387062559100367e-09,0.00122191714395892,3.387062559100367e-09,0.001221933315673247,3.387062559100367e-09,0.001813184998347443,3.387062559100367e-09,0.770590310611315
3.389134152541334e-09,3.628154850304501,3.389134152541334e-09,0.001221916918257887,3.389134152541334e-09,0.001221931578812228,3.389134152541334e-09,0.001651105727928199,3.389134152541334e-09,0.7717411958562967
3.390821888660197e-09,4.034774584528172,3.390821888660197e-09,0.001221917864252619,3.390821888660197e-09,0.00122193103764396,3.390821888660197e-09,0.001529253078371534,3.390821888660197e-09,0.7726788270334425
3.392463336972777e-09,4.313858868546695,3.392463336972777e-09,0.001221918654283571,3.392463336972777e-09,0.001221930568459454,3.392463336972777e-09,0.001423261602667944,3.392463336972777e-09,0.7735907427626537
3.394458867102385e-09,4.549881109363453,3.394458867102385e-09,0.001221920598521095,3.394458867102385e-09,0.001221930811057364,3.394458867102385e-09,0.001306126964929438,3.394458867102385e-09,0.7746993706124361
3.396504192215257e-09,4.708723410789426,3.396504192215257e-09,0.001221922314143534,3.396504192215257e-09,0.001221930961883936,3.396504192215257e-09,0.001202392360798802,3.396504192215257e-09,0.7758356623418091
3.39899451334476e-09,4.830072477179956,3.39899451334476e-09,0.001221924972965502,3.39899451334476e-09,0.001221931702318586,3.39899451334476e-09,0.001093750824511729,3.39899451334476e-09,0.7772191740804224
3.401742548775285e-09,4.905568588781841,3.401742548775285e-09,0.001221927349740374,3.401742548775285e-09,0.001221932228007593,3.401742548775285e-09,0.0009950148737015161,3.401742548775285e-09,0.7787458604307136
3.405085424806948e-09,4.952689315848395,3.405085424806948e-09,0.001221930384143785,3.405085424806948e-09,0.001221933211949523,3.405085424806948e-09,0.0008981376340826139,3.405085424806948e-09,0.7806030137816375
3.408854132503834e-09,4.975955933815679,3.408854132503834e-09,0.001221932911362269,3.408854132503834e-09,0.001221933868683425,3.408854132503834e-09,0.0008148754420489473,3.408854132503834e-09,0.7826967402799075
3.41364394167257e-09,4.987753074195699,3.41364394167257e-09,0.001221935672065183,3.41364394167257e-09,0.001221934741983517,3.41364394167257e-09,0.000738673482312252,3.41364394167257e-09,0.7853577453736502
3.419527143176922e-09,4.992299127093509,3.419527143176922e-09,0.001221937611621906,3.419527143176922e-09,0.001221935121428136,3.419527143176922e-09,0.0006785336876678075,3.419527143176922e-09,0.7886261906538456
