/net039 X,/net039 Y,/net010 X,/net010 Y,/net09 X,/net09 Y,/net08 X,/net08 Y,/net02 X,/net02 Y
0,0.001777128279405019,0,0.001777128279299686,0,0.001777126992117359,0,0.0008023863200111321,0,0
1.5e-11,0.001777128279404995,1.5e-11,0.001777128279299742,1.5e-11,0.001777126992117492,1.5e-11,0.0008023863200123843,1.5e-11,0
4.5e-11,0.001777128279404931,4.5e-11,0.001777128279299677,4.5e-11,0.001777126992117387,4.5e-11,0.0008023863200117944,4.5e-11,0
1.05e-10,0.001777128279403233,1.05e-10,0.00177712827930105,1.05e-10,0.00177712699211644,1.05e-10,0.0008023863200107315,1.05e-10,0
2.25e-10,0.00177712827940596,2.25e-10,0.001777128279295035,2.25e-10,0.001777126992116654,2.25e-10,0.000802386320011401,2.25e-10,0
4.65e-10,0.001777128279404173,4.65e-10,0.001777128279306894,4.65e-10,0.001777126992119631,4.65e-10,0.0008023863200114048,4.65e-10,0
7.649999999999999e-10,0.00177712827940893,7.649999999999999e-10,0.001777128279292235,7.649999999999999e-10,0.001777126992113079,7.649999999999999e-10,0.0008023863200110856,7.649999999999999e-10,0
1.065e-09,0.001777128279400589,1.065e-09,0.001777128279309318,1.065e-09,0.001777126992121607,1.065e-09,0.0008023863200113026,1.065e-09,0
1.365e-09,0.001777128279411501,1.365e-09,0.001777128279289774,1.365e-09,0.001777126992115857,1.365e-09,0.0008023863200111768,1.365e-09,0
1.665e-09,0.001777128279400787,1.665e-09,0.00177712827930956,1.665e-09,0.00177712699211987,1.665e-09,0.0008023863200114077,1.665e-09,0
1.8325e-09,0.001777128279411587,1.8325e-09,0.001777128279289171,1.8325e-09,0.001777126992113147,1.8325e-09,0.0008023863200109283,1.8325e-09,0
2e-09,0.001777128279400382,2e-09,0.001777128279309672,2e-09,0.001777126992122239,2e-09,0.0008023863200114801,2e-09,0
2.120144127384571e-09,0.00177712827940479,2.120144127384571e-09,0.001777128279299806,2.120144127384571e-09,0.001777126992114213,2.120144127384571e-09,0.0008023863203563148,2.120144127384571e-09,0.06674673743587282
2.261585129605973e-09,0.001777128279403258,2.261585129605973e-09,0.001777128279298205,2.261585129605973e-09,0.001777126992108636,2.261585129605973e-09,0.0008023863197964576,2.261585129605973e-09,0.1453250720033182
2.400273538304042e-09,0.001777128279408479,2.400273538304042e-09,0.001777128279301436,2.400273538304042e-09,0.001777126992104597,2.400273538304042e-09,0.000802386319823138,2.400273538304042e-09,0.2223741879466899
2.45235299218644e-09,0.001777128279403845,2.45235299218644e-09,0.001777128279298201,2.45235299218644e-09,0.001777126992113601,2.45235299218644e-09,0.0008023863215864688,2.45235299218644e-09,0.2513072178813553
2.478392719127639e-09,0.001777128279405666,2.478392719127639e-09,0.001777128279300525,2.478392719127639e-09,0.001777126992116466,2.478392719127639e-09,0.0008023863174353196,2.478392719127639e-09,0.2657737328486881
2.530472173010036e-09,0.001777128279403949,2.530472173010036e-09,0.001777128279301417,2.530472173010036e-09,0.001777126992118014,2.530472173010036e-09,0.0008023863226317836,2.530472173010036e-09,0.2947067627833535
2.578602661801192e-09,0.001777128279405706,2.578602661801192e-09,0.001777128279298063,2.578602661801192e-09,0.00177712699210771,2.578602661801192e-09,0.0008023863168687236,2.578602661801192e-09,0.3214459232228842
2.616335115170129e-09,0.001777128279403883,2.616335115170129e-09,0.001777128279300843,2.616335115170129e-09,0.001777126992135655,2.616335115170129e-09,0.0008023863246971622,2.616335115170129e-09,0.3424083973167381
2.662120858747819e-09,0.001777128279405851,2.662120858747819e-09,0.001777128279297923,2.662120858747819e-09,0.001777126992099229,2.662120858747819e-09,0.0008023863138723978,2.662120858747819e-09,0.3678449215265658
2.695111211502935e-09,0.001777128279404154,2.695111211502935e-09,0.001777128279298049,2.695111211502935e-09,0.001777126992153838,2.695111211502935e-09,0.0008023863277731856,2.695111211502935e-09,0.3861728952794083
2.727067916017115e-09,0.001777128279408343,2.727067916017115e-09,0.001777128279300587,2.727067916017115e-09,0.001777126992073437,2.727067916017115e-09,0.0008023863115509887,2.727067916017115e-09,0.4039266200095083
2.773795928656702e-09,0.001777128279401491,2.773795928656702e-09,0.001777128279298248,2.773795928656702e-09,0.001777126992187344,2.773795928656702e-09,0.0008023863284154355,2.773795928656702e-09,0.4298866270315009
2.810722956346048e-09,0.001777128279410018,2.810722956346048e-09,0.00177712827930026,2.810722956346048e-09,0.001777126992048154,2.810722956346048e-09,0.0008023863122242327,2.810722956346048e-09,0.4504016424144713
2.846028141066829e-09,0.00177712827940212,2.846028141066829e-09,0.001777128279298502,2.846028141066829e-09,0.00177712699221745,2.846028141066829e-09,0.0008023863267802587,2.846028141066829e-09,0.470015633926016
2.888975764605139e-09,0.001777128279409206,2.888975764605139e-09,0.00177712827930016,2.888975764605139e-09,0.001777126992028256,2.888975764605139e-09,0.0008023863142669202,2.888975764605139e-09,0.493875424780633
2.9192728733518e-09,0.001777128279400143,2.9192728733518e-09,0.001777128279296516,2.9192728733518e-09,0.001777126992230045,2.9192728733518e-09,0.0008023863242718226,2.9192728733518e-09,0.5107071518621109
2.951024616894614e-09,0.001777128279408176,2.951024616894614e-09,0.001777128279300001,2.951024616894614e-09,0.001777126992031192,2.951024616894614e-09,0.0008023863171163037,2.951024616894614e-09,0.5283470093858967
2.991009498780207e-09,0.001777128279403848,2.991009498780207e-09,0.00177712827929975,2.991009498780207e-09,0.001777126992216915,2.991009498780207e-09,0.0008023863219357367,2.991009498780207e-09,0.5505608326556708
3.033950704559857e-09,0.00177712827940521,3.033950704559857e-09,0.001777128279300357,3.033950704559857e-09,0.001777126992054616,3.033950704559857e-09,0.0008023863188934072,3.033950704559857e-09,0.5744170580888093
3.072527423389001e-09,0.001777128279404127,3.072527423389001e-09,0.001777128279296479,3.072527423389001e-09,0.001777126992202219,3.072527423389001e-09,0.0008023863203552353,3.072527423389001e-09,0.595848568549445
3.081612502612273e-09,0.001777128279403019,3.081612502612273e-09,0.001777128279301112,3.081612502612273e-09,0.001777126992100648,3.081612502612273e-09,0.0008023863217742403,3.081612502612273e-09,0.600895834784596
3.099782661058816e-09,0.001777128279404004,3.099782661058816e-09,0.001777128279303013,3.099782661058816e-09,0.001777126992150697,3.099782661058816e-09,0.0008023863177873054,3.099782661058816e-09,0.6109903672548977
3.125042590135778e-09,0.001777128279405716,3.125042590135778e-09,0.001777128279299651,3.125042590135778e-09,0.001777126992126311,3.125042590135778e-09,0.0008023863224115223,3.125042590135778e-09,0.6250236611865432
3.131381127505084e-09,0.001777128279403797,3.131381127505084e-09,0.001777128279299761,3.131381127505084e-09,0.001777126992101555,3.131381127505084e-09,0.0008023863164954081,3.131381127505084e-09,0.6285450708361575
3.144058202243695e-09,0.001777128279404185,3.144058202243695e-09,0.001777128279300223,3.144058202243695e-09,0.00177712699219803,3.144058202243695e-09,0.0008023863242038016,3.144058202243695e-09,0.6355878901353863
3.148633257383574e-09,0.001777128279407522,3.148633257383574e-09,0.001777128279301071,3.148633257383574e-09,0.001777126992267958,3.148633257383574e-09,0.0008023863288170469,3.148633257383574e-09,0.6381295874353189
3.157783367663332e-09,0.001777128279400828,3.157783367663332e-09,0.001777128279296735,3.157783367663332e-09,0.001777126992188349,3.157783367663332e-09,0.0008023863703956622,3.157783367663332e-09,0.6432129820351841
3.171614534331353e-09,0.00177712827940281,3.171614534331353e-09,0.001777128279302062,3.171614534331353e-09,0.001777126990792441,3.171614534331353e-09,0.0008023862420671909,3.171614534331353e-09,0.6508969635174183
3.185338767707215e-09,0.001777128279427109,3.185338767707215e-09,0.001777128279300667,3.185338767707215e-09,0.001777126986580811,3.185338767707215e-09,0.0008023835339442919,3.185338767707215e-09,0.6585215376151196
3.200599183959174e-09,0.001777128279412716,3.200599183959174e-09,0.001777128279297445,3.200599183959174e-09,0.001777127043832405,3.200599183959174e-09,0.0008023840771070347,3.200599183959174e-09,0.6669995466439856
3.214145624585016e-09,0.001777128279302011,3.214145624585016e-09,0.001777128279290282,3.214145624585016e-09,0.001777127085910464,3.214145624585016e-09,0.0008024280807815073,3.214145624585016e-09,0.6745253469916757
3.227374932331461e-09,0.001777128277950751,3.227374932331461e-09,0.00177712827930609,3.227374932331461e-09,0.001777125841728228,3.227374932331461e-09,0.0008023689596797743,3.227374932331461e-09,0.681874962406367
3.230439153304114e-09,0.00177712826825376,3.230439153304114e-09,0.001777128279497125,3.230439153304114e-09,0.001777126004196673,3.230439153304114e-09,0.0008023242765797007,3.230439153304114e-09,0.6835773073911743
3.23656759524942e-09,0.001777128289920962,3.23656759524942e-09,0.001777128279731331,3.23656759524942e-09,0.001777129245461775,3.23656759524942e-09,0.0008023416731058614,3.23656759524942e-09,0.6869819973607889
3.246216707914714e-09,0.00177712831208989,3.246216707914714e-09,0.001777128278236706,3.246216707914714e-09,0.001777127615671147,3.246216707914714e-09,0.0008023964413861126,3.246216707914714e-09,0.6923426155081747
3.255371833941218e-09,0.001777128236308589,3.255371833941218e-09,0.00177712827993716,3.255371833941218e-09,0.001777126393901057,3.255371833941218e-09,0.0008023942574209439,3.255371833941218e-09,0.69742879663401
3.263131771859861e-09,0.001777128235703516,3.263131771859861e-09,0.00177712827946616,3.263131771859861e-09,0.001777126830907784,3.263131771859861e-09,0.0008023992541902558,3.263131771859861e-09,0.7017398732554785
3.270976725507077e-09,0.001777128262217759,3.270976725507077e-09,0.001777128279156094,3.270976725507077e-09,0.001777126380800687,3.270976725507077e-09,0.0008023811070721737,3.270976725507077e-09,0.7060981808372647
3.277368998862768e-09,0.001777128243408669,3.277368998862768e-09,0.001777128279391554,3.277368998862768e-09,0.001777126358721772,3.277368998862768e-09,0.0008023338636131493,3.277368998862768e-09,0.7096494438126487
3.282894589219372e-09,0.001777127912065651,3.282894589219372e-09,0.001777128277719383,3.282894589219372e-09,0.001777126749170097,3.282894589219372e-09,0.0008022442376900115,3.282894589219372e-09,0.7127192162329843
3.287271257615684e-09,0.001777127946639579,3.287271257615684e-09,0.001777128280222585,3.287271257615684e-09,0.001777129634303656,3.287271257615684e-09,0.0008022375270626258,3.287271257615684e-09,0.7151506986753799
3.291586176279317e-09,0.001777144397927241,3.291586176279317e-09,0.001777128364969782,3.291586176279317e-09,0.001777132025674965,3.291586176279317e-09,0.0008030282232430819,3.291586176279317e-09,0.7175478757107316
3.295299385982222e-09,0.001777217039889118,3.295299385982222e-09,0.001777128686891052,3.295299385982222e-09,0.001777130081294943,3.295299385982222e-09,0.0008067635613387529,3.295299385982222e-09,0.7196107699901231
3.299102337945239e-09,0.001777295569706651,3.299102337945239e-09,0.001777128672169215,3.299102337945239e-09,0.001777124312732271,3.299102337945239e-09,0.0008148110678152865,3.299102337945239e-09,0.7217235210806884
3.302931141742499e-09,0.001777092718488378,3.302931141742499e-09,0.001777126836447082,3.302931141742499e-09,0.001777117520015331,3.302931141742499e-09,0.0008117680857023799,3.302931141742499e-09,0.7238506343013883
3.305779088501732e-09,0.001776707217719562,3.305779088501732e-09,0.001777125809775473,3.305779088501732e-09,0.001777115563004788,3.305779088501732e-09,0.0007777504599386665,3.305779088501732e-09,0.7254328269454068
3.308402798631342e-09,0.001776511598104778,3.308402798631342e-09,0.001777127380673551,3.308402798631342e-09,0.001777117782292935,3.308402798631342e-09,0.0006932731948299247,3.308402798631342e-09,0.7268904436840786
3.31155374830734e-09,0.001776327097250202,3.31155374830734e-09,0.001777130460203638,3.31155374830734e-09,0.001777116122766163,3.31155374830734e-09,0.0004772373296072686,3.31155374830734e-09,0.7286409712818556
3.315168172790778e-09,0.001775281707166425,3.315168172790778e-09,0.001777132395092118,3.315168172790778e-09,0.001777119211020085,3.315168172790778e-09,0.0001456028877979652,3.315168172790778e-09,0.7306489848837654
3.318855030265274e-09,0.001774992610497244,3.318855030265274e-09,0.00177712980706898,3.318855030265274e-09,0.00177713253963674,3.318855030265274e-09,1.078827538062845e-05,3.318855030265274e-09,0.7326972390362634
3.321889019331135e-09,0.001778263973957076,3.321889019331135e-09,0.001777122221749917,3.321889019331135e-09,0.001777138354931743,3.321889019331135e-09,0.0001178670966307918,3.321889019331135e-09,0.7343827885172973
3.324785186460027e-09,0.001785130157507444,3.324785186460027e-09,0.001777122145941133,3.324785186460027e-09,0.001777140172761045,3.324785186460027e-09,0.0003206833938930242,3.324785186460027e-09,0.7359917702555704
3.327861961061425e-09,0.001794354412835175,3.327861961061425e-09,0.001777128388700711,3.327861961061425e-09,0.001777140527942492,3.327861961061425e-09,0.0005197624823448625,3.327861961061425e-09,0.7377010894785695
3.33120875279703e-09,0.00180156314103814,3.33120875279703e-09,0.001777137072093388,3.33120875279703e-09,0.001777139590231624,3.33120875279703e-09,0.0004886334865016523,3.33120875279703e-09,0.7395604182205722
3.333969939044526e-09,0.001803287648128271,3.333969939044526e-09,0.001777137867648675,3.333969939044526e-09,0.001777139536598647,3.333969939044526e-09,0.0001239415535608246,3.333969939044526e-09,0.741094410580292
3.336806453084975e-09,0.001794457913243766,3.336806453084975e-09,0.001777126432038213,3.336806453084975e-09,0.001777139122111085,3.336806453084975e-09,-0.0005833179649854699,3.336806453084975e-09,0.7426702517138751
3.340644947219176e-09,0.001456144766275212,3.340644947219176e-09,0.001777108707628354,3.340644947219176e-09,0.001777137194920342,3.340644947219176e-09,-0.001589428747075115,3.340644947219176e-09,0.7448027484550975
3.343574803540537e-09,-4.18930995179045e-05,3.343574803540537e-09,0.001777105577327547,3.343574803540537e-09,0.001777129594735161,3.343574803540537e-09,-0.002110414367845339,3.343574803540537e-09,0.7464304464114094
3.346809375780271e-09,-0.002220057227362252,3.346809375780271e-09,0.001777114808108674,3.346809375780271e-09,0.001777119419073739,3.346809375780271e-09,-0.002262597022283595,3.346809375780271e-09,0.7482274309890391
3.350033557955085e-09,0.00659284972235141,3.350033557955085e-09,0.001777137580447579,3.350033557955085e-09,0.001777113901081951,3.350033557955085e-09,-0.001847832420990764,3.350033557955085e-09,0.7500186433083803
3.353010292619909e-09,0.04112330309935515,3.353010292619909e-09,0.001777162798229934,3.353010292619909e-09,0.001777110792924252,3.353010292619909e-09,-0.0009943205536841414,3.353010292619909e-09,0.7516723847888382
3.356114627851951e-09,0.1116147505211057,3.356114627851951e-09,0.001777169830363749,3.356114627851951e-09,0.001777106293234566,3.356114627851951e-09,-0.0003480633369970972,3.356114627851951e-09,0.7533970154733058
3.358455713575688e-09,0.1824063320613926,3.358455713575688e-09,0.001777176361442424,3.358455713575688e-09,0.001777118935141527,3.358455713575688e-09,9.391308606609284e-05,3.358455713575688e-09,0.75469761865316
3.361247978401476e-09,0.2828236495009346,3.361247978401476e-09,0.001777170035059837,3.361247978401476e-09,0.001777131503991935,3.361247978401476e-09,0.0009802797310946489,3.361247978401476e-09,0.7562488768897088
3.364316567717583e-09,0.4092334286936518,3.364316567717583e-09,0.001777135532096339,3.364316567717583e-09,0.001777123421307085,3.364316567717583e-09,0.002007365429428538,3.364316567717583e-09,0.7579536487319904
3.3684221157958e-09,0.5788135572462521,3.3684221157958e-09,0.001777108745735507,3.3684221157958e-09,0.001777125001003443,3.3684221157958e-09,0.002985796807242119,3.3684221157958e-09,0.7602345087754443
3.371426855537314e-09,0.6815875643207274,3.371426855537314e-09,0.001777103544038452,3.371426855537314e-09,0.00177713010924217,3.371426855537314e-09,0.003269622861605556,3.371426855537314e-09,0.7619038086318412
3.374287977325697e-09,0.7549557628934536,3.374287977325697e-09,0.001777104483676032,3.374287977325697e-09,0.001777134924150576,3.374287977325697e-09,0.003267830869752632,3.374287977325697e-09,0.7634933207364983
3.377085733823845e-09,0.8291144512206167,3.377085733823845e-09,0.001777104577256561,3.377085733823845e-09,0.001777134848741078,3.377085733823845e-09,0.003088419023875578,3.377085733823845e-09,0.7650476299021359
3.380752265358976e-09,1.057675371091236,3.380752265358976e-09,0.001777103331406679,3.380752265358976e-09,0.001777131246314523,3.380752265358976e-09,0.002722430725288416,3.380752265358976e-09,0.7670845918660977
3.383468512801063e-09,1.469763059371323,3.383468512801063e-09,0.001777102995859028,3.383468512801063e-09,0.001777127710322307,3.383468512801063e-09,0.002419475070347136,3.383468512801063e-09,0.768593618222813
3.385733590145455e-09,2.064529653305148,3.385733590145455e-09,0.001777103011866906,3.385733590145455e-09,0.001777125097658715,3.385733590145455e-09,0.0021967910738924,3.385733590145455e-09,0.7698519945252529
3.388061267097683e-09,2.838335254494794,3.388061267097683e-09,0.001777103772146639,3.388061267097683e-09,0.001777122625292387,3.388061267097683e-09,0.001991018806867538,3.388061267097683e-09,0.771145148387602
3.39029774833369e-09,3.566385288185,3.39029774833369e-09,0.001777105047400735,3.39029774833369e-09,0.00177712112200967,3.39029774833369e-09,0.00181946408542877,3.39029774833369e-09,0.7723876379631611
3.391997324892201e-09,3.994554481333879,3.391997324892201e-09,0.001777107174222415,3.391997324892201e-09,0.001777120868271089,3.391997324892201e-09,0.001699528771528924,3.391997324892201e-09,0.7733318471623337
3.393636178292209e-09,4.286153638397233,3.393636178292209e-09,0.001777109108074295,3.393636178292209e-09,0.001777120821706358,3.393636178292209e-09,0.001596440715389561,3.393636178292209e-09,0.7742423212734496
3.396134601600287e-09,4.58066161600617,3.396134601600287e-09,0.001777113109970536,3.396134601600287e-09,0.001777121613572275,3.396134601600287e-09,0.001455523431603265,3.396134601600287e-09,0.7756303342223816
3.398201251751021e-09,4.72983751496944,3.398201251751021e-09,0.001777116047394292,3.398201251751021e-09,0.001777122237417229,3.398201251751021e-09,0.001357177000353917,3.398201251751021e-09,0.7767784731950117
3.400738759445317e-09,4.843416647519616,3.400738759445317e-09,0.00177711998925559,3.400738759445317e-09,0.001777123363030398,3.400738759445317e-09,0.001253622501036607,3.400738759445317e-09,0.7781881996918425
3.403477569405028e-09,4.91177885209401,3.403477569405028e-09,0.001777123413509507,3.403477569405028e-09,0.001777124228510012,3.403477569405028e-09,0.001162680208095665,3.403477569405028e-09,0.7797097607805714
3.406881508538588e-09,4.955381892008636,3.406881508538588e-09,0.001777127512338092,3.406881508538588e-09,0.001777125454531893,3.406881508538588e-09,0.001071864071782887,3.406881508538588e-09,0.7816008380769932
3.410723097519163e-09,4.976723325000354,3.410723097519163e-09,0.001777130864116444,3.410723097519163e-09,0.001777126293706602,3.410723097519163e-09,0.00099528857116632,3.410723097519163e-09,0.783735054177313
3.415705365787691e-09,4.987678013427527,3.415705365787691e-09,0.001777134336667337,3.415705365787691e-09,0.0017771272175902,3.415705365787691e-09,0.000924801314155792,3.415705365787691e-09,0.7865029809931618
3.421821075420863e-09,4.991778875544888,3.421821075420863e-09,0.001777136654633437,3.421821075420863e-09,0.001777127585020911,3.421821075420863e-09,0.0008715790408791332,3.421821075420863e-09,0.7899005974560351
3.430844032488388e-09,4.9935860556188,3.430844032488388e-09,0.001777138421567614,3.430844032488388e-09,0.001777127861316605,3.430844032488388e-09,0.000830092641899294,3.430844032488388e-09,0.7949133513824376
3.443385398533667e-09,4.994042189350272,3.443385398533667e-09,0.001777138418820317,3.443385398533667e-09,0.001777127630046055,3.443385398533667e-09,0.0008091166606794639,3.443385398533667e-09,0.8018807769631481
