/net039 X,/net039 Y,/net010 X,/net010 Y,/net09 X,/net09 Y,/net08 X,/net08 Y,/net02 X,/net02 Y
0,0.00278416185664359,0,0.002784161856309187,0,0.002784154400475599,0,0.001141175364397627,0,0
1.5e-11,0.002784161856643821,1.5e-11,0.002784161856309274,1.5e-11,0.00278415440047598,1.5e-11,0.001141175366767034,1.5e-11,0
4.5e-11,0.002784161856643672,4.5e-11,0.002784161856309122,4.5e-11,0.002784154400474278,4.5e-11,0.001141175363487463,4.5e-11,0
1.05e-10,0.00278416185664208,1.05e-10,0.00278416185630738,1.05e-10,0.002784154400475064,1.05e-10,0.001141175364627249,1.05e-10,0
2.25e-10,0.002784161856642782,2.25e-10,0.002784161856309544,2.25e-10,0.00278415440047813,2.25e-10,0.001141175364544851,2.25e-10,0
4.65e-10,0.00278416185664712,4.65e-10,0.002784161856309092,4.65e-10,0.00278415440046877,4.65e-10,0.001141175364118924,4.65e-10,0
7.649999999999999e-10,0.002784161856643361,7.649999999999999e-10,0.002784161856309718,7.649999999999999e-10,0.00278415440048388,7.649999999999999e-10,0.001141175364770786,7.649999999999999e-10,0
1.065e-09,0.00278416185664546,1.065e-09,0.002784161856312718,1.065e-09,0.002784154400470916,1.065e-09,0.001141175363948231,1.065e-09,0
1.365e-09,0.002784161856643416,1.365e-09,0.002784161856304973,1.365e-09,0.002784154400478169,1.365e-09,0.001141175364915524,1.365e-09,0
1.665e-09,0.002784161856645186,1.665e-09,0.002784161856314714,1.665e-09,0.002784154400475199,1.665e-09,0.00114117536382653,1.665e-09,0
1.8325e-09,0.00278416185664209,1.8325e-09,0.002784161856304757,1.8325e-09,0.002784154400473117,1.8325e-09,0.001141175365043326,1.8325e-09,0
2e-09,0.002784161856643593,2e-09,0.002784161856315253,2e-09,0.002784154400481203,2e-09,0.001141175363710031,2e-09,0
2.120144127384571e-09,0.002784161856643796,2.120144127384571e-09,0.002784161856309447,2.120144127384571e-09,0.00278415440045976,2.120144127384571e-09,0.001141175365039039,2.120144127384571e-09,0.06674673743587282
2.261585129605973e-09,0.002784161856643003,2.261585129605973e-09,0.002784161856306022,2.261585129605973e-09,0.002784154400440065,2.261585129605973e-09,0.001141175363830242,2.261585129605973e-09,0.1453250720033182
2.400273538304042e-09,0.002784161856645807,2.400273538304042e-09,0.002784161856309058,2.400273538304042e-09,0.002784154400478648,2.400273538304042e-09,0.001141175364689367,2.400273538304042e-09,0.2223741879466899
2.452461816160942e-09,0.002784161856640586,2.452461816160942e-09,0.002784161856309054,2.452461816160942e-09,0.002784154400516457,2.452461816160942e-09,0.001141175366222673,2.452461816160942e-09,0.2513676756449676
2.478555955089392e-09,0.002784161856647233,2.478555955089392e-09,0.0027841618563064,2.478555955089392e-09,0.002784154400537403,2.478555955089392e-09,0.001141175360425461,2.478555955089392e-09,0.2658644194941065
2.530744232946292e-09,0.002784161856638518,2.530744232946292e-09,0.002784161856311408,2.530744232946292e-09,0.002784154400515029,2.530744232946292e-09,0.001141175368701958,2.530744232946292e-09,0.2948579071923844
2.574972964206902e-09,0.002784161856646354,2.574972964206902e-09,0.002784161856307375,2.574972964206902e-09,0.002784154400537286,2.574972964206902e-09,0.001141175359430775,2.574972964206902e-09,0.3194294245593901
2.617146518029662e-09,0.002784161856641462,2.617146518029662e-09,0.002784161856308825,2.617146518029662e-09,0.002784154400555894,2.617146518029662e-09,0.001141175371107616,2.617146518029662e-09,0.3428591766831457
2.6474981110643e-09,0.002784161856643974,2.6474981110643e-09,0.00278416185630941,2.6474981110643e-09,0.002784154400540065,2.6474981110643e-09,0.001141175355171668,2.6474981110643e-09,0.3597211728134997
2.683613874477394e-09,0.002784161856643643,2.683613874477394e-09,0.002784161856308147,2.683613874477394e-09,0.002784154400593451,2.683613874477394e-09,0.001141175375282398,2.683613874477394e-09,0.3797854858207743
2.715502185015034e-09,0.0027841618566441,2.715502185015034e-09,0.002784161856308977,2.715502185015034e-09,0.002784154400515048,2.715502185015034e-09,0.001141175352959386,2.715502185015034e-09,0.3975012138972409
2.763439813025401e-09,0.002784161856643722,2.763439813025401e-09,0.002784161856306009,2.763439813025401e-09,0.002784154400650097,2.763439813025401e-09,0.00114117537562717,2.763439813025401e-09,0.4241332294585562
2.807954826037379e-09,0.002784161856644895,2.807954826037379e-09,0.002784161856310814,2.807954826037379e-09,0.002784154400494249,2.807954826037379e-09,0.001141175353944104,2.807954826037379e-09,0.4488637922429881
2.844576619730835e-09,0.002784161856643572,2.844576619730835e-09,0.002784161856308112,2.844576619730835e-09,0.002784154400703177,2.844576619730835e-09,0.001141175373551492,2.844576619730835e-09,0.4692092331837969
2.885300998242956e-09,0.00278416185664504,2.885300998242956e-09,0.002784161856307618,2.885300998242956e-09,0.002784154400474033,2.885300998242956e-09,0.001141175356677291,2.885300998242956e-09,0.4918338879127534
2.918337050994104e-09,0.002784161856640671,2.918337050994104e-09,0.002784161856311563,2.918337050994104e-09,0.002784154400734816,2.918337050994104e-09,0.001141175370293312,2.918337050994104e-09,0.5101872505522802
2.949058389224946e-09,0.002784161856646764,2.949058389224946e-09,0.002784161856308111,2.949058389224946e-09,0.002784154400477798,2.949058389224946e-09,0.00114117536038748,2.949058389224946e-09,0.5272546606805257
3.000199318669527e-09,0.002784161856638041,3.000199318669527e-09,0.00278416185630825,3.000199318669527e-09,0.002784154400741954,3.000199318669527e-09,0.001141175367344344,3.000199318669527e-09,0.555666288149737
3.043281851252683e-09,0.002784161856651076,3.043281851252683e-09,0.00278416185630851,3.043281851252683e-09,0.002784154400501344,3.043281851252683e-09,0.001141175362549675,3.043281851252683e-09,0.5796010284737129
3.053177776143448e-09,0.002784161856638618,3.053177776143448e-09,0.002784161856308437,3.053177776143448e-09,0.00278415440070091,3.053177776143448e-09,0.001141175362740481,3.053177776143448e-09,0.5850987645241377
3.072969625924977e-09,0.002784161856644851,3.072969625924977e-09,0.002784161856305536,3.072969625924977e-09,0.002784154400573001,3.072969625924977e-09,0.001141175366952942,3.072969625924977e-09,0.5960942366249873
3.104531353856447e-09,0.002784161856641073,3.104531353856447e-09,0.002784161856310191,3.104531353856447e-09,0.002784154400667449,3.104531353856447e-09,0.001141175361414104,3.104531353856447e-09,0.6136285299202485
3.114045881634556e-09,0.002784161856646647,3.114045881634556e-09,0.002784161856303621,3.114045881634556e-09,0.002784154400623543,3.114045881634556e-09,0.001141175367907541,3.114045881634556e-09,0.6189143786858644
3.133074937190773e-09,0.002784161856640083,3.133074937190773e-09,0.002784161856313632,3.133074937190773e-09,0.002784154400627311,3.133074937190773e-09,0.001141175360966073,3.133074937190773e-09,0.6294860762170961
3.138205075195826e-09,0.002784161856644494,3.138205075195826e-09,0.002784161856304125,3.138205075195826e-09,0.002784154400669825,3.138205075195826e-09,0.00114117536853069,3.138205075195826e-09,0.6323361528865702
3.148465351205934e-09,0.002784161856642672,3.148465351205934e-09,0.002784161856312012,3.148465351205934e-09,0.002784154400601944,3.148465351205934e-09,0.00114117537300144,3.148465351205934e-09,0.6380363062255185
3.164372830754411e-09,0.002784161856644304,3.164372830754411e-09,0.002784161856303991,3.164372830754411e-09,0.002784154400592664,3.164372830754411e-09,0.001141175318886359,3.164372830754411e-09,0.6468737948635618
3.182176550059609e-09,0.002784161856642855,3.182176550059609e-09,0.002784161856310638,3.182176550059609e-09,0.002784154400717363,3.182176550059609e-09,0.001141174772714423,3.182176550059609e-09,0.6567647500331162
3.198964993402746e-09,0.002784161856645121,3.198964993402746e-09,0.002784161856306306,3.198964993402746e-09,0.002784154389762626,3.198964993402746e-09,0.001141176762216667,3.198964993402746e-09,0.6660916630015258
3.215492829566484e-09,0.002784161856688413,3.215492829566484e-09,0.002784161856311306,3.215492829566484e-09,0.002784154331098952,3.215492829566484e-09,0.001141198353419703,3.215492829566484e-09,0.6752737942036022
3.230932267964757e-09,0.002784161856574898,3.230932267964757e-09,0.002784161856320607,3.230932267964757e-09,0.002784154367139796,3.230932267964757e-09,0.001141148868001351,3.230932267964757e-09,0.6838512599804205
3.234646994921046e-09,0.002784161852430848,3.234646994921046e-09,0.002784161856400669,3.234646994921046e-09,0.002784154961820527,3.234646994921046e-09,0.001141125540291941,3.234646994921046e-09,0.6859149971783589
3.242076448833625e-09,0.0027841618677215,3.242076448833625e-09,0.002784161856166134,3.242076448833625e-09,0.00278415614751414,3.242076448833625e-09,0.001141163842699253,3.242076448833625e-09,0.6900424715742359
3.251551741224671e-09,0.002784161838670034,3.251551741224671e-09,0.002784161855947063,3.251551741224671e-09,0.002784153626447309,3.251551741224671e-09,0.001141191129358661,3.251551741224671e-09,0.695306522902595
3.259721727139456e-09,0.002784161828102759,3.259721727139456e-09,0.002784161857125888,3.259721727139456e-09,0.00278415373997241,3.259721727139456e-09,0.001141181417257441,3.259721727139456e-09,0.6998454039663642
3.267679414415088e-09,0.002784161898823626,3.267679414415088e-09,0.002784161856180972,3.267679414415088e-09,0.00278415397719099,3.267679414415088e-09,0.001141182891589274,3.267679414415088e-09,0.7042663413417157
3.275313732107174e-09,0.002784161927356109,3.275313732107174e-09,0.002784161856220194,3.275313732107174e-09,0.002784153781408705,3.275313732107174e-09,0.001141156478900024,3.275313732107174e-09,0.7085076289484301
3.281235237509346e-09,0.00278416190460105,3.281235237509346e-09,0.002784161856282389,3.281235237509346e-09,0.002784154147070927,3.281235237509346e-09,0.001141105597298203,3.281235237509346e-09,0.7117973541718589
3.285947267618929e-09,0.00278416171933375,3.285947267618929e-09,0.002784161855378948,3.285947267618929e-09,0.002784155211366692,3.285947267618929e-09,0.001141063292388558,3.285947267618929e-09,0.7144151486771827
3.289947897471427e-09,0.002784162820876183,3.289947897471427e-09,0.002784161862162708,3.289947897471427e-09,0.002784157242713979,3.289947897471427e-09,0.001141175901517262,3.289947897471427e-09,0.7166377208174592
3.29435572018071e-09,0.002784178871608214,3.29435572018071e-09,0.002784161933288516,3.29435572018071e-09,0.002784155895415522,3.29435572018071e-09,0.001142401058511588,3.29435572018071e-09,0.7190865112115054
3.297904894091253e-09,0.002784221583102329,3.297904894091253e-09,0.002784162087480748,3.297904894091253e-09,0.002784151526621756,3.297904894091253e-09,0.001146273033861325,3.297904894091253e-09,0.7210582744951404
3.301802307975054e-09,0.002784191209900366,3.301802307975054e-09,0.002784161651370639,3.301802307975054e-09,0.002784145750219314,3.301802307975054e-09,0.001151713186696154,3.301802307975054e-09,0.7232235044305856
3.30430292624925e-09,0.00278404250885355,3.30430292624925e-09,0.002784160588820255,3.30430292624925e-09,0.002784141269987584,3.30430292624925e-09,0.001148429675848764,3.30430292624925e-09,0.724612736805139
3.306943832894886e-09,0.002783817892894062,3.306943832894886e-09,0.002784160513851673,3.306943832894886e-09,0.002784144754466371,3.306943832894886e-09,0.001124702464507124,3.306943832894886e-09,0.7260799071638256
3.309369893877895e-09,0.002783767570921598,3.309369893877895e-09,0.002784161869183164,3.309369893877895e-09,0.002784151191469849,3.309369893877895e-09,0.001070166767150388,3.309369893877895e-09,0.7274277188210527
3.312745045207526e-09,0.002783817834771187,3.312745045207526e-09,0.002784163832963355,3.312745045207526e-09,0.002784150852006861,3.312745045207526e-09,0.0009009689437450436,3.312745045207526e-09,0.7293028028930699
3.316371522312431e-09,0.00278346760762528,3.316371522312431e-09,0.00278416426014547,3.316371522312431e-09,0.002784155901506769,3.316371522312431e-09,0.0006035305870209769,3.316371522312431e-09,0.7313175123957949
3.319939230055439e-09,0.002783594246711474,3.319939230055439e-09,0.002784162392087654,3.319939230055439e-09,0.002784168999600991,3.319939230055439e-09,0.0004229395876169898,3.319939230055439e-09,0.7332995722530218
3.322898530822204e-09,0.002785896407486709,3.322898530822204e-09,0.002784157833474707,3.322898530822204e-09,0.002784174589640098,3.322898530822204e-09,0.0004725084850662047,3.322898530822204e-09,0.7349436282345577
3.325747290141765e-09,0.002790569789722854,3.325747290141765e-09,0.002784157428372222,3.325747290141765e-09,0.002784173675570329,3.325747290141765e-09,0.0006374754039345601,3.325747290141765e-09,0.7365262723009804
3.328835049257368e-09,0.002795396736039671,3.328835049257368e-09,0.002784162791934284,3.328835049257368e-09,0.002784171206765211,3.328835049257368e-09,0.000822230226636203,3.328835049257368e-09,0.7382416940318712
3.332221036358986e-09,0.002795967934873501,3.332221036358986e-09,0.002784168512849387,3.332221036358986e-09,0.002784167370003393,3.332221036358986e-09,0.0008066907828553377,3.332221036358986e-09,0.7401227979772146
3.335015030267212e-09,0.002791370928673226,3.335015030267212e-09,0.002784167852943517,3.335015030267212e-09,0.002784164810452428,3.335015030267212e-09,0.0004706790362966925,3.335015030267212e-09,0.7416750168151179
3.337785245749498e-09,0.002780205696600071,3.337785245749498e-09,0.002784157974619601,3.337785245749498e-09,0.002784161509569873,3.337785245749498e-09,-0.0001705431089279546,3.337785245749498e-09,0.7432140254163876
3.34151232314134e-09,0.002589495312894256,3.34151232314134e-09,0.002784146618072545,3.34151232314134e-09,0.002784155352995847,3.34151232314134e-09,-0.001122228218874782,3.34151232314134e-09,0.7452846239674111
3.344375330617949e-09,0.00166093398554572,3.344375330617949e-09,0.002784150723166499,3.344375330617949e-09,0.002784146683723023,3.344375330617949e-09,-0.001626087309452282,3.344375330617949e-09,0.7468751836766383
3.347558099765429e-09,0.0002198737176688262,3.347558099765429e-09,0.002784164097426268,3.347558099765429e-09,0.002784136481427576,3.347558099765429e-09,-0.001794433364984329,3.347558099765429e-09,0.7486433887585717
3.350765223812702e-09,0.006326166993376555,3.350765223812702e-09,0.00278418469687793,3.350765223812702e-09,0.002784132946354179,3.350765223812702e-09,-0.001427323493496296,3.350765223812702e-09,0.7504251243403901
3.353711156995328e-09,0.0326704613697337,3.353711156995328e-09,0.002784202626835349,3.353711156995328e-09,0.002784133508615789,3.353711156995328e-09,-0.0005939438074643735,3.353711156995328e-09,0.7520617538862935
3.356049747626292e-09,0.07344136501912109,3.356049747626292e-09,0.002784200204092369,3.356049747626292e-09,0.00278413158475739,3.356049747626292e-09,-5.189022372516089e-05,3.356049747626292e-09,0.7533609709034955
3.358416616486117e-09,0.1305171268259989,3.358416616486117e-09,0.002784196328863076,3.358416616486117e-09,0.00278414229448392,3.358416616486117e-09,0.0002671655176696348,3.358416616486117e-09,0.7546758980478426
3.360777839009095e-09,0.2018692869130097,3.360777839009095e-09,0.002784191526105899,3.360777839009095e-09,0.002784159630337279,3.360777839009095e-09,0.0008413640885063016,3.360777839009095e-09,0.7559876883383863
3.363752761558102e-09,0.3118286974411571,3.363752761558102e-09,0.002784157123476922,3.363752761558102e-09,0.00278415587859171,3.363752761558102e-09,0.001839541956875022,3.363752761558102e-09,0.7576404230878343
3.367204060338659e-09,0.4560703539806142,3.367204060338659e-09,0.002784122404947775,3.367204060338659e-09,0.002784149805976935,3.367204060338659e-09,0.002857977691439161,3.367204060338659e-09,0.7595578112992551
3.370712587851388e-09,0.5946942239156215,3.370712587851388e-09,0.00278411478811789,3.370712587851388e-09,0.002784156811486876,3.370712587851388e-09,0.003442349040794268,3.370712587851388e-09,0.7615069932507711
3.373528794578085e-09,0.6839791570200892,3.373528794578085e-09,0.002784117035297743,3.373528794578085e-09,0.002784161491760378,3.373528794578085e-09,0.003555330794609379,3.373528794578085e-09,0.7630715525433803
3.376297483388612e-09,0.7556316031497923,3.376297483388612e-09,0.002784120370283321,3.376297483388612e-09,0.002784162365541433,3.376297483388612e-09,0.003457045399895999,3.376297483388612e-09,0.764609712993673
3.379214154400998e-09,0.8582678239174235,3.379214154400998e-09,0.00278412140082583,3.379214154400998e-09,0.002784158227204266,3.379214154400998e-09,0.003210124281865901,3.379214154400998e-09,0.766230085778332
3.382572300478127e-09,1.145783549781185,3.382572300478127e-09,0.002784123605302729,3.382572300478127e-09,0.002784152628760034,3.382572300478127e-09,0.002845862816115103,3.382572300478127e-09,0.7680957224878486
3.385070278803766e-09,1.612112950514263,3.385070278803766e-09,0.002784126290308772,3.385070278803766e-09,0.002784149083426148,3.385070278803766e-09,0.002581300930364358,3.385070278803766e-09,0.7694834882243146
3.387254560133235e-09,2.251744000851716,3.387254560133235e-09,0.002784129637938112,3.387254560133235e-09,0.002784146734533164,3.387254560133235e-09,0.002379191219321008,3.387254560133235e-09,0.7706969778517972
3.389837563439468e-09,3.13506178567841,3.389837563439468e-09,0.002784134485189823,3.389837563439468e-09,0.002784145148173095,3.389837563439468e-09,0.002171591808418204,3.389837563439468e-09,0.7721319796885934
3.391723239002808e-09,3.722385604361821,3.391723239002808e-09,0.002784139202984137,3.391723239002808e-09,0.002784145170487913,3.391723239002808e-09,0.002037578125279142,3.391723239002808e-09,0.7731795772237821
3.393397869921639e-09,4.105595171695976,3.393397869921639e-09,0.002784143708228943,3.393397869921639e-09,0.002784145818833758,3.393397869921639e-09,0.001929280227796924,3.393397869921639e-09,0.7741099277342438
3.3950504389659e-09,4.370974028833777,3.3950504389659e-09,0.002784148508803466,3.3950504389659e-09,0.002784146819440041,3.3950504389659e-09,0.001832582664136836,3.3950504389659e-09,0.775028021647722
3.39740414546333e-09,4.622963686195635,3.39740414546333e-09,0.002784155012341662,3.39740414546333e-09,0.00278414843501769,3.39740414546333e-09,0.001711163389410975,3.39740414546333e-09,0.7763356363685164
3.399468358850512e-09,4.757892999894303,3.399468358850512e-09,0.002784160475353382,3.399468358850512e-09,0.002784149843976209,3.399468358850512e-09,0.001620897098389462,3.399468358850512e-09,0.777482421583618
3.402011413985733e-09,4.85995379580755,3.402011413985733e-09,0.002784166378809739,3.402011413985733e-09,0.002784151388538762,3.402011413985733e-09,0.001527293879249507,3.402011413985733e-09,0.7788952299920737
3.404730349790652e-09,4.919861023987956,3.404730349790652e-09,0.002784171934000564,3.404730349790652e-09,0.002784152770173719,3.404730349790652e-09,0.001446128387376198,3.404730349790652e-09,0.7804057498836953
3.408148965002213e-09,4.958596110651623,3.408148965002213e-09,0.002784177597974544,3.408148965002213e-09,0.002784154159220975,3.408148965002213e-09,0.001365835858086487,3.408148965002213e-09,0.7823049805567852
3.412024422088416e-09,4.977359542432183,3.412024422088416e-09,0.002784182551008443,3.412024422088416e-09,0.002784155217320302,3.412024422088416e-09,0.001298629410390032,3.412024422088416e-09,0.7844580122713424
3.417149949755332e-09,4.98728519445765,3.417149949755332e-09,0.002784186900070113,3.417149949755332e-09,0.002784156000895812,3.417149949755332e-09,0.001238017584606088,3.417149949755332e-09,0.787305527641851
3.423443427439124e-09,4.990827575666803,3.423443427439124e-09,0.002784189812823759,3.423443427439124e-09,0.00278415628003819,3.423443427439124e-09,0.001193562813057019,3.423443427439124e-09,0.7908019041328468
3.4328613974237e-09,4.992578688386693,3.4328613974237e-09,0.002784190950957687,3.4328613974237e-09,0.002784156187952596,3.4328613974237e-09,0.001160451509729624,3.4328613974237e-09,0.7960341096798331
3.445502738625112e-09,4.992952947123363,3.445502738625112e-09,0.00278418944910883,3.445502738625112e-09,0.00278415579056829,3.445502738625112e-09,0.001145366383204645,3.445502738625112e-09,0.8030570770139509
