/net039 X,/net039 Y,/net010 X,/net010 Y,/net09 X,/net09 Y,/net08 X,/net08 Y,/net02 X,/net02 Y
0,0.003737355193330833,0,0.003737355438090208,0,0.003737332648218216,0,0.001432433685981807,0,0
1.5e-11,0.003737355206917749,1.5e-11,0.00373735543808978,1.5e-11,0.0037373326616943,1.5e-11,0.001432444583242639,1.5e-11,0
4.5e-11,0.003737355454694859,4.5e-11,0.003737355438085499,4.5e-11,0.003737332918659331,4.5e-11,0.001432435392505,4.5e-11,0
1.05e-10,0.003737355925039792,1.05e-10,0.003737355438091799,1.05e-10,0.003737333412803384,1.05e-10,0.001432428833255699,1.05e-10,0
2.25e-10,0.00373735560043358,2.25e-10,0.003737355438093617,2.25e-10,0.003737333090443161,2.25e-10,0.001432435900562857,2.25e-10,0
4.65e-10,0.003737355270219632,4.65e-10,0.003737355438082084,4.65e-10,0.003737332736969832,4.65e-10,0.001432432029156102,4.65e-10,0
7.649999999999999e-10,0.003737355596034574,7.649999999999999e-10,0.003737355438100096,7.649999999999999e-10,0.003737333078086579,7.649999999999999e-10,0.001432434998852327,7.649999999999999e-10,0
1.065e-09,0.003737355297981189,1.065e-09,0.003737355438082358,1.065e-09,0.003737332769042884,1.065e-09,0.001432432656130888,1.065e-09,0
1.365e-09,0.003737355561946337,1.365e-09,0.003737355438097797,1.365e-09,0.003737333041142548,1.365e-09,0.001432434481875441,1.365e-09,0
1.665e-09,0.00373735533226562,1.665e-09,0.003737355438084418,1.665e-09,0.003737332805250696,1.665e-09,0.001432433088138905,1.665e-09,0
1.8325e-09,0.003737355519060819,1.8325e-09,0.003737355438096852,1.8325e-09,0.003737332996554154,1.8325e-09,0.001432434004275752,1.8325e-09,0
2e-09,0.00373735537950195,2e-09,0.003737355438085891,2e-09,0.003737332853980061,2e-09,0.001432433573707767,2e-09,0
2.120144127384571e-09,0.003737355432741259,2.120144127384571e-09,0.0037373554380895,2.120144127384571e-09,0.003737332908266561,2.120144127384571e-09,0.00143243363307607,2.120144127384571e-09,0.06674673743587282
2.261585129605973e-09,0.003737355443255248,2.261585129605973e-09,0.003737355438091253,2.261585129605973e-09,0.003737332919040817,2.261585129605973e-09,0.001432433721221039,2.261585129605973e-09,0.1453250720033182
2.400273538304042e-09,0.003737355435368917,2.400273538304042e-09,0.003737355438085842,2.400273538304042e-09,0.003737332911151667,2.400273538304042e-09,0.001432433665011792,2.400273538304042e-09,0.2223741879466899
2.452627009520785e-09,0.003737355440177058,2.452627009520785e-09,0.003737355438090702,2.452627009520785e-09,0.003737332916181009,2.452627009520785e-09,0.001432433689426357,2.452627009520785e-09,0.2514594497337697
2.501597771656463e-09,0.003737355438279868,2.501597771656463e-09,0.003737355438084453,2.501597771656463e-09,0.003737332914263544,2.501597771656463e-09,0.001432433688469396,2.501597771656463e-09,0.2786654286980347
2.546514820009066e-09,0.003737355438736819,2.546514820009066e-09,0.003737355438089877,2.546514820009066e-09,0.003737332914724503,2.546514820009066e-09,0.001432433684206541,2.546514820009066e-09,0.3036193444494808
2.592096885624614e-09,0.003737355438900988,2.592096885624614e-09,0.003737355438081564,2.592096885624614e-09,0.003737332914974987,2.592096885624614e-09,0.001432433686523218,2.592096885624614e-09,0.3289427142358968
2.641264466311315e-09,0.00373735543854225,2.641264466311315e-09,0.003737355438087406,2.641264466311315e-09,0.003737332914621761,2.641264466311315e-09,0.001432433688866193,2.641264466311315e-09,0.3562580368396194
2.6884746191873e-09,0.003737355438923477,2.6884746191873e-09,0.003737355438081397,2.6884746191873e-09,0.003737332915053265,2.6884746191873e-09,0.001432433680518997,2.6884746191873e-09,0.3824858995485001
2.72438980196574e-09,0.003737355438589259,2.72438980196574e-09,0.003737355438087952,2.72438980196574e-09,0.003737332914727395,2.72438980196574e-09,0.001432433695851776,2.72438980196574e-09,0.4024387788698555
2.768993539840649e-09,0.003737355438853519,2.768993539840649e-09,0.003737355438078907,2.768993539840649e-09,0.003737332915019151,2.768993539840649e-09,0.001432433674380774,2.768993539840649e-09,0.4272186332448047
2.814513948287859e-09,0.003737355438648664,2.814513948287859e-09,0.003737355438087856,2.814513948287859e-09,0.003737332914864618,2.814513948287859e-09,0.001432433699427031,2.814513948287859e-09,0.4525077490488106
2.851012602223872e-09,0.003737355438794512,2.851012602223872e-09,0.003737355438074694,2.851012602223872e-09,0.003737332914960153,2.851012602223872e-09,0.001432433672504504,2.851012602223872e-09,0.4727847790132623
2.881969073655072e-09,0.003737355438702041,2.881969073655072e-09,0.003737355438087024,2.881969073655072e-09,0.003737332915008587,2.881969073655072e-09,0.001432433699134173,2.881969073655072e-09,0.4899828186972619
2.914538289884783e-09,0.003737355438754767,2.914538289884783e-09,0.003737355438076803,2.914538289884783e-09,0.003737332914884691,2.914538289884783e-09,0.001432433674852441,2.914538289884783e-09,0.5080768277137681
2.94381948627886e-09,0.003737355438725445,2.94381948627886e-09,0.003737355438080081,2.94381948627886e-09,0.003737332915112722,2.94381948627886e-09,0.001432433695160258,2.94381948627886e-09,0.5243441590438108
3.001974941026157e-09,0.003737355438745466,3.001974941026157e-09,0.003737355438079559,3.001974941026157e-09,0.003737332914865835,3.001974941026157e-09,0.001432433678382382,3.001974941026157e-09,0.5566527450145319
3.048555386204954e-09,0.003737355438728507,3.048555386204954e-09,0.00373735543807894,3.048555386204954e-09,0.003737332915171041,3.048555386204954e-09,0.001432433692320041,3.048555386204954e-09,0.5825307701138636
3.05860545235344e-09,0.003737355438737424,3.05860545235344e-09,0.003737355438079869,3.05860545235344e-09,0.003737332914877713,3.05860545235344e-09,0.001432433685754006,3.05860545235344e-09,0.5881141401963552
3.07870558465041e-09,0.003737355438735003,3.07870558465041e-09,0.003737355438079046,3.07870558465041e-09,0.003737332915149183,3.07870558465041e-09,0.001432433684484956,3.07870558465041e-09,0.5992808803613386
3.112942324715072e-09,0.003737355438736308,3.112942324715072e-09,0.003737355438078447,3.112942324715072e-09,0.003737332914934658,3.112942324715072e-09,0.001432433688667162,3.112942324715072e-09,0.6183012915083735
3.120886860475379e-09,0.003737355438735275,3.120886860475379e-09,0.003737355438078366,3.120886860475379e-09,0.003737332915079522,3.120886860475379e-09,0.001432433682068254,3.120886860475379e-09,0.6227149224863217
3.136775931995992e-09,0.003737355438736386,3.136775931995992e-09,0.003737355438077463,3.136775931995992e-09,0.003737332915031721,3.136775931995992e-09,0.001432433691137031,3.136775931995992e-09,0.631542184442218
3.16041561087671e-09,0.003737355438734874,3.16041561087671e-09,0.003737355438077997,3.16041561087671e-09,0.003737332915002752,3.16041561087671e-09,0.001432433691562964,3.16041561087671e-09,0.6446753393759502
3.182277622704073e-09,0.003737355438737167,3.182277622704073e-09,0.003737355438076557,3.182277622704073e-09,0.003737332913256541,3.182277622704073e-09,0.001432433961523353,3.182277622704073e-09,0.6568209015022629
3.202389581435247e-09,0.003737355438721193,3.202389581435247e-09,0.003737355438079801,3.202389581435247e-09,0.003737332914385823,3.202389581435247e-09,0.001432437325957609,3.202389581435247e-09,0.6679942119084706
3.223453152202248e-09,0.003737355438869804,3.223453152202248e-09,0.003737355438075976,3.223453152202248e-09,0.003737333025848259,3.223453152202248e-09,0.001432441748033762,3.223453152202248e-09,0.6796961956679154
3.227836721953176e-09,0.003737355439196887,3.227836721953176e-09,0.003737355438052252,3.227836721953176e-09,0.003737332865788587,3.227836721953176e-09,0.001432424460994199,3.227836721953176e-09,0.6821315121962087
3.236603861455032e-09,0.003737355438521673,3.236603861455032e-09,0.003737355438150728,3.236603861455032e-09,0.003737333808403247,3.236603861455032e-09,0.001432398247162601,3.236603861455032e-09,0.6870021452527955
3.247950394760599e-09,0.003737355442893863,3.247950394760599e-09,0.003737355437829423,3.247950394760599e-09,0.003737333276148994,3.247950394760599e-09,0.001432441201547369,3.247950394760599e-09,0.6933057748669996
3.258128285834157e-09,0.003737355435004006,3.258128285834157e-09,0.003737355438364583,3.258128285834157e-09,0.003737331545630766,3.258128285834157e-09,0.001432444282714272,3.258128285834157e-09,0.6989601587967538
3.266036682819843e-09,0.00373735548104232,3.266036682819843e-09,0.003737355438512458,3.266036682819843e-09,0.003737332372898269,3.266036682819843e-09,0.001432436296319009,3.266036682819843e-09,0.7033537126776903
3.273874227109413e-09,0.003737355510900637,3.273874227109413e-09,0.003737355437613838,3.273874227109413e-09,0.003737332352738046,3.273874227109413e-09,0.001432426126640366,3.273874227109413e-09,0.707707903949674
3.280229598059784e-09,0.00373735545918972,3.280229598059784e-09,0.003737355437932826,3.280229598059784e-09,0.003737332591034404,3.280229598059784e-09,0.001432387801152326,3.280229598059784e-09,0.7112386655887691
3.285445770411378e-09,0.003737355376195114,3.285445770411378e-09,0.003737355437765197,3.285445770411378e-09,0.00373733333156487,3.285445770411378e-09,0.001432355103988799,3.285445770411378e-09,0.7141365391174325
3.289612389010823e-09,0.003737355478641364,3.289612389010823e-09,0.003737355438497464,3.289612389010823e-09,0.00373733434595211,3.289612389010823e-09,0.001432410956498913,3.289612389010823e-09,0.7164513272282349
3.293771312958483e-09,0.003737360438928624,3.293771312958483e-09,0.003737355461544164,3.293771312958483e-09,0.003737333342895435,3.293771312958483e-09,0.001432959585581096,3.293771312958483e-09,0.7187618405324906
3.29727937572817e-09,0.003737378448181337,3.29727937572817e-09,0.003737355532145669,3.29727937572817e-09,0.003737329368767539,3.29727937572817e-09,0.001435016308173414,3.29727937572817e-09,0.7207107642934278
3.30097828353387e-09,0.003737373277341163,3.30097828353387e-09,0.003737355401570165,3.30097828353387e-09,0.003737324668917952,3.30097828353387e-09,0.001439467062792107,3.30097828353387e-09,0.7227657130743722
3.304708719858002e-09,0.003737254559468168,3.304708719858002e-09,0.003737354750579932,3.304708719858002e-09,0.003737322639625987,3.304708719858002e-09,0.001438413385629461,3.304708719858002e-09,0.7248381776988901
3.307577707201548e-09,0.003737121616549089,3.307577707201548e-09,0.003737354636690837,3.307577707201548e-09,0.003737325384681483,3.307577707201548e-09,0.001420312210019142,3.307577707201548e-09,0.7264320595564153
3.310105047034327e-09,0.003737110810980364,3.310105047034327e-09,0.003737355787701258,3.310105047034327e-09,0.003737335043040049,3.310105047034327e-09,0.001375187199382916,3.310105047034327e-09,0.7278361372412926
3.313125575527379e-09,0.003737236940059809,3.313125575527379e-09,0.003737357094505331,3.313125575527379e-09,0.003737338908882326,3.313125575527379e-09,0.001254692641232879,3.313125575527379e-09,0.7295142086263218
3.316579102096778e-09,0.003737220605411835,3.316579102096778e-09,0.003737357252437012,3.316579102096778e-09,0.003737341272849144,3.316579102096778e-09,0.001009293634483298,3.316579102096778e-09,0.7314328344982101
3.320022190526571e-09,0.003737410228681463,3.320022190526571e-09,0.00373735578151561,3.320022190526571e-09,0.003737353976914682,3.320022190526571e-09,0.000796553402645744,3.320022190526571e-09,0.7333456614036505
3.322900699220469e-09,0.003738892218395276,3.322900699220469e-09,0.003737353033095495,3.322900699220469e-09,0.003737357997160694,3.322900699220469e-09,0.0007828351190731819,3.322900699220469e-09,0.7349448329002604
3.325698091312676e-09,0.00374198127432849,3.325698091312676e-09,0.003737351717209864,3.325698091312676e-09,0.00373735599339528,3.325698091312676e-09,0.0009023165234270436,3.325698091312676e-09,0.7364989396181533
3.32869465386934e-09,0.003744697270324287,3.32869465386934e-09,0.003737355995097162,3.32869465386934e-09,0.003737349982300301,3.32869465386934e-09,0.001071082400661622,3.32869465386934e-09,0.7381636965940779
3.332227902431176e-09,0.00374280528145625,3.332227902431176e-09,0.00373736036497661,3.332227902431176e-09,0.003737343412877896,3.332227902431176e-09,0.001096909728432006,3.332227902431176e-09,0.7401266124617646
3.335154863064143e-09,0.003736090822779827,3.335154863064143e-09,0.003737359794335323,3.335154863064143e-09,0.003737337788315686,3.335154863064143e-09,0.0008010396078729299,3.335154863064143e-09,0.7417527017023015
3.337820202351396e-09,0.003726561876708887,3.337820202351396e-09,0.003737351948954006,3.337820202351396e-09,0.003737332667995643,3.337820202351396e-09,0.0002328179391611061,3.337820202351396e-09,0.7432334457507755
3.341315727535029e-09,0.003643614291698176,3.341315727535029e-09,0.003737344163416317,3.341315727535029e-09,0.003737324553557728,3.341315727535029e-09,-0.0006507385689543433,3.341315727535029e-09,0.7451754041861273
3.344108834343817e-09,0.003147323549036901,3.344108834343817e-09,0.003737351298489225,3.344108834343817e-09,0.003737315926045143,3.344108834343817e-09,-0.001168975131213814,3.344108834343817e-09,0.7467271301910096
3.347193037322615e-09,0.001976853099663709,3.347193037322615e-09,0.003737365146156901,3.347193037322615e-09,0.0037373061509894,3.347193037322615e-09,-0.001402273734988225,3.347193037322615e-09,0.7484405762903416
3.350359680820513e-09,0.005056256710137725,3.350359680820513e-09,0.00373738141639664,3.350359680820513e-09,0.003737304403400298,3.350359680820513e-09,-0.001139504232104082,3.350359680820513e-09,0.7501998226780627
3.353293608380491e-09,0.02280719376278231,3.353293608380491e-09,0.003737392820233443,3.353293608380491e-09,0.00373730754798427,3.353293608380491e-09,-0.0003884731733100502,3.353293608380491e-09,0.7518297824336061
3.356682429777036e-09,0.07294566347749598,3.356682429777036e-09,0.003737381723813201,3.356682429777036e-09,0.003737312212725527,3.356682429777036e-09,0.0004250724017313716,3.356682429777036e-09,0.7537124609872423
3.359148237905246e-09,0.1297009186651649,3.359148237905246e-09,0.003737367350372132,3.359148237905246e-09,0.003737325411028939,3.359148237905246e-09,0.0007632316484689095,3.359148237905246e-09,0.7550823543918032
3.361600740526672e-09,0.202387439374632,3.361600740526672e-09,0.003737352167497871,3.361600740526672e-09,0.003737340269073713,3.361600740526672e-09,0.001350569379128965,3.361600740526672e-09,0.7564448558481511
3.364411518439975e-09,0.3057379396744344,3.364411518439975e-09,0.00373731519775362,3.364411518439975e-09,0.003737334593656815,3.364411518439975e-09,0.002294595584139543,3.364411518439975e-09,0.7580063991333196
3.367557243128214e-09,0.4365399354833395,3.367557243128214e-09,0.003737286871543585,3.367557243128214e-09,0.003737327827186467,3.367557243128214e-09,0.003179232973210158,3.367557243128214e-09,0.759754023960119
3.370701992645749e-09,0.5622432010330296,3.370701992645749e-09,0.003737287387250859,3.370701992645749e-09,0.003737336188658846,3.370701992645749e-09,0.003681170009271109,3.370701992645749e-09,0.761501107025416
3.373423277412181e-09,0.6529339453593372,3.373423277412181e-09,0.003737293837725718,3.373423277412181e-09,0.003737339570818414,3.373423277412181e-09,0.003781691366361985,3.373423277412181e-09,0.7630129318956563
3.376135078500721e-09,0.7280635934200084,3.376135078500721e-09,0.003737300305703904,3.376135078500721e-09,0.003737339291536265,3.376135078500721e-09,0.003684753712156488,3.376135078500721e-09,0.764519488055956
3.379028736731792e-09,0.830141055157298,3.379028736731792e-09,0.003737304814888389,3.379028736731792e-09,0.003737333268295178,3.379028736731792e-09,0.003433751736265903,3.379028736731792e-09,0.7661270759621066
3.382492385514803e-09,1.121322755021861,3.382492385514803e-09,0.003737311839478337,3.382492385514803e-09,0.003737326796717262,3.382492385514803e-09,0.003056348977849075,3.382492385514803e-09,0.7680513252860014
3.38501299730074e-09,1.589842927999575,3.38501299730074e-09,0.003737318908933145,3.38501299730074e-09,0.003737323259094701,3.38501299730074e-09,0.002788794812921531,3.38501299730074e-09,0.769451665167078
3.387186684479993e-09,2.233169125431587,3.387186684479993e-09,0.003737325859431719,3.387186684479993e-09,0.003737321568639417,3.387186684479993e-09,0.002592724496270628,3.387186684479993e-09,0.7706592691555517
3.389641762293641e-09,3.089705197609679,3.389641762293641e-09,0.003737335115831713,3.389641762293641e-09,0.003737321092603637,3.389641762293641e-09,0.002399875819667074,3.389641762293641e-09,0.7720232012742451
3.391531924666271e-09,3.696444768355176,3.391531924666271e-09,0.003737342957749161,3.391531924666271e-09,0.00373732201879282,3.391531924666271e-09,0.002270137992427573,3.391531924666271e-09,0.7730732914812615
3.393171623288629e-09,4.086764230201553,3.393171623288629e-09,0.003737350285648513,3.393171623288629e-09,0.003737323483781146,3.393171623288629e-09,0.00216652614497866,3.393171623288629e-09,0.7739842351603491
3.394787954365198e-09,4.35769094011705,3.394787954365198e-09,0.003737357257466543,3.394787954365198e-09,0.003737325105919399,3.394787954365198e-09,0.002075111538998393,3.394787954365198e-09,0.7748821968695545
3.397245857757181e-09,4.628603690259884,3.397245857757181e-09,0.003737367402068707,3.397245857757181e-09,0.003737327657558813,3.397245857757181e-09,0.001952303223869402,3.397245857757181e-09,0.7762476987539895
3.399280190017731e-09,4.761911656608736,3.399280190017731e-09,0.003737374844037781,3.399280190017731e-09,0.003737329475914383,3.399280190017731e-09,0.001867581828924864,3.399280190017731e-09,0.7773778833431837
3.401799472878734e-09,4.862487485454017,3.401799472878734e-09,0.003737383017727347,3.401799472878734e-09,0.00373733143944059,3.401799472878734e-09,0.001779364868677757,3.401799472878734e-09,0.7787774849326302
3.404450531861581e-09,4.920283921157125,3.404450531861581e-09,0.003737390172847101,3.404450531861581e-09,0.003737332989548971,3.404450531861581e-09,0.00170512983114944,3.404450531861581e-09,0.7802502954786563
3.407813908836365e-09,4.958110047936181,3.407813908836365e-09,0.003737397556971226,3.407813908836365e-09,0.003737334535691316,3.407813908836365e-09,0.001631220258365579,3.407813908836365e-09,0.7821188382424251
3.411630065600796e-09,4.976509640986118,3.411630065600796e-09,0.003737403643635641,3.411630065600796e-09,0.003737335549930749,3.411630065600796e-09,0.001570509635888114,3.411630065600796e-09,0.7842389253337756
3.416719967128609e-09,4.986342486736865,3.416719967128609e-09,0.003737408869502728,3.416719967128609e-09,0.003737336228631609,3.416719967128609e-09,0.001515910251840989,3.416719967128609e-09,0.7870666484047829
3.422978257306882e-09,4.989885023500917,3.422978257306882e-09,0.003737411765833261,3.422978257306882e-09,0.003737336251594556,3.422978257306882e-09,0.001476753870819309,3.422978257306882e-09,0.7905434762816008
3.432380073757251e-09,4.991659167338174,3.432380073757251e-09,0.003737411777419909,3.432380073757251e-09,0.003737335890009377,3.432380073757251e-09,0.001448045949922951,3.432380073757251e-09,0.7957667076429172
3.444805156577031e-09,4.99208156648948,3.444805156577031e-09,0.003737407452462672,3.444805156577031e-09,0.003737335233113189,3.444805156577031e-09,0.001435763571381585,3.444805156577031e-09,0.8026695314316838
3.460705895342745e-09,4.992513929381425,3.460705895342745e-09,0.003737399443448154,3.460705895342745e-09,0.003737334803433235,3.460705895342745e-09,0.001432421379847471,3.460705895342745e-09,0.8115032751904141
3.481099008456099e-09,4.992501851411441,3.481099008456099e-09,0.0037373887965598,3.481099008456099e-09,0.003737334363728459,3.481099008456099e-09,0.001432476284249865,3.481099008456099e-09,0.8228327824756104
3.506291654507941e-09,4.992717949884232,3.506291654507941e-09,0.003737377830940071,3.506291654507941e-09,0.003737333990261133,3.506291654507941e-09,0.00143231422999006,3.506291654507941e-09,0.836828696948856
3.537789258905615e-09,4.992614868733564,3.537789258905615e-09,0.003737368223976341,3.537789258905615e-09,0.003737333521206792,3.537789258905615e-09,0.001432519291456358,3.537789258905615e-09,0.8543273660586751
