/net039 X,/net039 Y,/net010 X,/net010 Y,/net09 X,/net09 Y,/net08 X,/net08 Y,/net02 X,/net02 Y
0,7.369521627070208e-05,0,7.369521627089936e-05,0,7.369521627107103e-05,0,6.437806357516203e-05,0,0
1.5e-11,7.369521627067039e-05,1.5e-11,7.369521627109696e-05,1.5e-11,7.369521627110835e-05,1.5e-11,6.437806357501286e-05,1.5e-11,0
4.5e-11,7.369521627102876e-05,4.5e-11,7.369521627102895e-05,4.5e-11,7.369521627096437e-05,4.5e-11,6.437806357507917e-05,4.5e-11,0
1.05e-10,7.369521626920153e-05,1.05e-10,7.369521626937977e-05,1.05e-10,7.369521627267337e-05,1.05e-10,6.437806357470939e-05,1.05e-10,0
2.25e-10,7.369521627298871e-05,2.25e-10,7.369521627260444e-05,2.25e-10,7.369521626958359e-05,2.25e-10,6.437806357520486e-05,2.25e-10,0
4.65e-10,7.369521627202716e-05,4.65e-10,7.36952162692021e-05,4.65e-10,7.369521627246874e-05,4.65e-10,6.437806357456064e-05,4.65e-10,0
7.649999999999999e-10,7.369521626680098e-05,7.649999999999999e-10,7.369521627270426e-05,7.649999999999999e-10,7.369521627280682e-05,7.649999999999999e-10,6.43780635754424e-05,7.649999999999999e-10,0
1.065e-09,7.369521627814952e-05,1.065e-09,7.369521626947655e-05,1.065e-09,7.369521626644779e-05,1.065e-09,6.43780635744521e-05,1.065e-09,0
1.365e-09,7.369521626081106e-05,1.365e-09,7.369521627240124e-05,1.365e-09,7.3695216272708e-05,1.365e-09,6.43780635755588e-05,1.365e-09,0
1.665e-09,7.369521628095244e-05,1.665e-09,7.369521626909441e-05,1.665e-09,7.369521626946558e-05,1.665e-09,6.437806357416689e-05,1.665e-09,0
1.8325e-09,7.369521626111331e-05,1.8325e-09,7.369521627242719e-05,1.8325e-09,7.369521627566427e-05,1.8325e-09,6.437806357540313e-05,1.8325e-09,0
2e-09,7.369521628103741e-05,2e-09,7.369521626935863e-05,2e-09,7.369521626630138e-05,2e-09,6.437806357464061e-05,2e-09,0
2.120144127384571e-09,7.369521627105435e-05,2.120144127384571e-09,7.369521627108115e-05,2.120144127384571e-09,7.369521627106428e-05,2.120144127384571e-09,6.43780635753188e-05,2.120144127384571e-09,0.06674673743587282
2.261585129605973e-09,7.369521626939445e-05,2.261585129605973e-09,7.369521626940655e-05,2.261585129605973e-09,7.369521626950323e-05,2.261585129605973e-09,6.437806354952049e-05,2.261585129605973e-09,0.1453250720033182
2.400273538304042e-09,7.369521627271524e-05,2.400273538304042e-09,7.369521627268735e-05,2.400273538304042e-09,7.369521627554995e-05,2.400273538304042e-09,6.437806369152064e-05,2.400273538304042e-09,0.2223741879466899
2.455450261564971e-09,7.3695216269418e-05,2.455450261564971e-09,7.369521626660764e-05,2.455450261564971e-09,7.369521626629198e-05,2.455450261564971e-09,6.437806291629489e-05,2.455450261564971e-09,0.2530279230916507
2.483038623195436e-09,7.369521627265985e-05,2.483038623195436e-09,7.369521627461366e-05,2.483038623195436e-09,7.369521628138964e-05,2.483038623195436e-09,6.437806574341918e-05,2.483038623195436e-09,0.2683547906641311
2.538215346456366e-09,7.369521626948575e-05,2.538215346456366e-09,7.36952162675572e-05,2.538215346456366e-09,7.369521625316456e-05,2.538215346456366e-09,6.437806084744163e-05,2.538215346456366e-09,0.2990085258090921
2.560737121398777e-09,7.369521626943374e-05,2.560737121398777e-09,7.369521627375206e-05,2.560737121398777e-09,7.369521629852193e-05,2.560737121398777e-09,6.437806609808929e-05,2.560737121398777e-09,0.3115206229993207
2.571998008869983e-09,7.36952162722369e-05,2.571998008869983e-09,7.369521626891637e-05,2.571998008869983e-09,7.369521624865068e-05,2.571998008869983e-09,6.437806418624543e-05,2.571998008869983e-09,0.317776671594435
2.594519783812394e-09,7.369521626970534e-05,2.594519783812394e-09,7.369521627319455e-05,2.594519783812394e-09,7.369521627718207e-05,2.594519783812394e-09,6.437806165622928e-05,2.594519783812394e-09,0.3302887687846636
2.619292015544406e-09,7.369521627211577e-05,2.619292015544406e-09,7.369521626889397e-05,2.619292015544406e-09,7.369521627929937e-05,2.619292015544406e-09,6.437806587970633e-05,2.619292015544406e-09,0.3440511197468922
2.640503769765495e-09,7.369521627242787e-05,2.640503769765495e-09,7.369521627274877e-05,2.640503769765495e-09,7.369521625425327e-05,2.640503769765495e-09,6.437806141046233e-05,2.640503769765495e-09,0.3558354276474971
2.660686031888202e-09,7.369521626709606e-05,2.660686031888202e-09,7.369521626936973e-05,2.660686031888202e-09,7.369521629179335e-05,2.660686031888202e-09,6.437806530581424e-05,2.660686031888202e-09,0.3670477954934457
2.682055619276794e-09,7.369521627410947e-05,2.682055619276794e-09,7.369521627223656e-05,2.682055619276794e-09,7.369521624780562e-05,2.682055619276794e-09,6.437806229454165e-05,2.682055619276794e-09,0.3789197884871075
2.701703988604425e-09,7.369521626590147e-05,2.701703988604425e-09,7.369521627258408e-05,2.701703988604425e-09,7.369521629162052e-05,2.701703988604425e-09,6.437806442873807e-05,2.701703988604425e-09,0.3898355492246806
2.725079201383611e-09,7.369521627551522e-05,2.725079201383611e-09,7.36952162699206e-05,2.725079201383611e-09,7.369521625319042e-05,2.725079201383611e-09,6.437806300787978e-05,2.725079201383611e-09,0.4028217785464505
2.753399842659954e-09,7.369521626683385e-05,2.753399842659954e-09,7.369521627220338e-05,2.753399842659954e-09,7.369521628417524e-05,2.753399842659954e-09,6.437806395389207e-05,2.753399842659954e-09,0.4185554681444191
2.784176825806473e-09,7.369521627186234e-05,2.784176825806473e-09,7.369521627292163e-05,2.784176825806473e-09,7.36952162598027e-05,2.784176825806473e-09,6.437806333408204e-05,2.784176825806473e-09,0.4356537921147074
2.812895477102861e-09,7.369521627015899e-05,2.812895477102861e-09,7.369521626941415e-05,2.812895477102861e-09,7.369521628044992e-05,2.812895477102861e-09,6.437806369940984e-05,2.812895477102861e-09,0.4516085983904785
2.842817606891016e-09,7.36952162717552e-05,2.842817606891016e-09,7.36952162719831e-05,2.842817606891016e-09,7.369521626329817e-05,2.842817606891016e-09,6.437806353697547e-05,2.842817606891016e-09,0.4682320038283423
2.86713958582421e-09,7.369521627029192e-05,2.86713958582421e-09,7.369521626729519e-05,2.86713958582421e-09,7.369521627643875e-05,2.86713958582421e-09,6.437806353333454e-05,2.86713958582421e-09,0.481744214346783
2.895104265130541e-09,7.36952162719097e-05,2.895104265130541e-09,7.369521627436394e-05,2.895104265130541e-09,7.369521626702742e-05,2.895104265130541e-09,6.437806366621935e-05,2.895104265130541e-09,0.4972801472947447
2.921090929981881e-09,7.369521627036395e-05,2.921090929981881e-09,7.369521627077965e-05,2.921090929981881e-09,7.369521627401224e-05,2.921090929981881e-09,6.437806344528978e-05,2.921090929981881e-09,0.511717183323267
2.973064259684561e-09,7.369521627154568e-05,2.973064259684561e-09,7.369521626851433e-05,2.973064259684561e-09,7.369521627161999e-05,2.973064259684561e-09,6.43780637191524e-05,2.973064259684561e-09,0.5405912553803116
3.015890532229319e-09,7.369521627043065e-05,3.015890532229319e-09,7.369521627293156e-05,3.015890532229319e-09,7.369521627039792e-05,3.015890532229319e-09,6.437806341589188e-05,3.015890532229319e-09,0.5643836290162885
3.059187524506081e-09,7.36952162714103e-05,3.059187524506081e-09,7.369521626946114e-05,3.059187524506081e-09,7.369521627205515e-05,3.059187524506081e-09,6.4378063745896e-05,3.059187524506081e-09,0.5884375136144895
3.070300109813145e-09,7.369521627114408e-05,3.070300109813145e-09,7.369521627459023e-05,3.070300109813145e-09,7.369521626904986e-05,3.070300109813145e-09,6.437806337791942e-05,3.070300109813145e-09,0.5946111721184137
3.092525280427272e-09,7.369521627113703e-05,3.092525280427272e-09,7.369521626806141e-05,3.092525280427272e-09,7.369521627336778e-05,3.092525280427272e-09,6.437806377410058e-05,3.092525280427272e-09,0.6069584891262623
3.099684254192635e-09,7.369521626881558e-05,3.099684254192635e-09,7.369521627200263e-05,3.099684254192635e-09,7.369521626844386e-05,3.099684254192635e-09,6.437806338449629e-05,3.099684254192635e-09,0.6109356967736862
3.114002201723361e-09,7.369521627280197e-05,3.114002201723361e-09,7.369521626750228e-05,3.114002201723361e-09,7.369521627396833e-05,3.114002201723361e-09,6.437806375308751e-05,3.114002201723361e-09,0.6188901120685338
3.124927069161155e-09,7.369521626957498e-05,3.124927069161155e-09,7.369521627335845e-05,3.124927069161155e-09,7.369521626732404e-05,3.124927069161155e-09,6.437806336958866e-05,3.124927069161155e-09,0.6249594828673082
3.135313259469604e-09,7.369521627223067e-05,3.135313259469604e-09,7.369521627152706e-05,3.135313259469604e-09,7.369521627847017e-05,3.135313259469604e-09,6.437806385850519e-05,3.135313259469604e-09,0.6307295885942243
3.147649716046192e-09,7.369521626985438e-05,3.147649716046192e-09,7.369521627079079e-05,3.147649716046192e-09,7.369521626856406e-05,3.147649716046192e-09,6.437806360216181e-05,3.147649716046192e-09,0.6375831755812178
3.157684697106839e-09,7.369521627201961e-05,3.157684697106839e-09,7.369521627107636e-05,3.157684697106839e-09,7.369521629710394e-05,3.157684697106839e-09,6.43780646289116e-05,3.157684697106839e-09,0.6431581650593553
3.160409149076916e-09,7.369521626141845e-05,3.160409149076916e-09,7.369521627340056e-05,3.160409149076916e-09,7.369521609534314e-05,3.160409149076916e-09,6.437806124170915e-05,3.160409149076916e-09,0.6446717494871759
3.16585805301707e-09,7.369521623204437e-05,3.16585805301707e-09,7.369521626920696e-05,3.16585805301707e-09,7.369521494359753e-05,3.16585805301707e-09,6.437802977459739e-05,3.16585805301707e-09,0.6476989183428169
3.176755860897378e-09,7.369521629326516e-05,3.176755860897378e-09,7.369521627309992e-05,3.176755860897378e-09,7.369521568115122e-05,3.176755860897378e-09,6.437799148991496e-05,3.176755860897378e-09,0.6537532560540991
3.184473711924341e-09,7.369521744095252e-05,3.184473711924341e-09,7.369521628535831e-05,3.184473711924341e-09,7.36952579530335e-05,3.184473711924341e-09,6.437918363182356e-05,3.184473711924341e-09,0.6580409510690783
3.195005775383876e-09,7.369521617644319e-05,3.195005775383876e-09,7.369521624307154e-05,3.195005775383876e-09,7.369522795688509e-05,3.195005775383876e-09,6.438012020145804e-05,3.195005775383876e-09,0.6638920974354868
3.202561376941221e-09,7.369520192464727e-05,3.202561376941221e-09,7.369521595398716e-05,3.202561376941221e-09,7.369364835470372e-05,3.202561376941221e-09,6.433661053609977e-05,3.202561376941221e-09,0.6680896538562336
3.210983694079574e-09,7.369520933431543e-05,3.210983694079574e-09,7.369521693286178e-05,3.210983694079574e-09,7.36945804343051e-05,3.210983694079574e-09,6.430529562680085e-05,3.210983694079574e-09,0.6727687189330965
3.218019528244585e-09,7.369526226238961e-05,3.218019528244585e-09,7.369521771226779e-05,3.218019528244585e-09,7.370461912933718e-05,3.218019528244585e-09,6.455097279055077e-05,3.218019528244585e-09,0.676677515691436
3.224396208400979e-09,7.36953018507889e-05,3.224396208400979e-09,7.369521178260635e-05,3.224396208400979e-09,7.369255496812961e-05,3.224396208400979e-09,6.451360065657181e-05,3.224396208400979e-09,0.6802201157783218
3.23179219008946e-09,7.369518730365924e-05,3.23179219008946e-09,7.369521849735121e-05,3.23179219008946e-09,7.368657667784793e-05,3.23179219008946e-09,6.426009022178832e-05,3.23179219008946e-09,0.6843289944941442
3.2394500595258e-09,7.369516684304913e-05,3.2394500595258e-09,7.369521853402412e-05,3.2394500595258e-09,7.369869478023783e-05,3.2394500595258e-09,6.431898242737994e-05,3.2394500595258e-09,0.6885833664032224
3.246950616285818e-09,7.369519940288248e-05,3.246950616285818e-09,7.369521319972974e-05,3.246950616285818e-09,7.369634154012548e-05,3.246950616285818e-09,6.436736796289979e-05,3.246950616285818e-09,0.6927503423810099
3.254159825933186e-09,7.369497835514934e-05,3.254159825933186e-09,7.369521660141444e-05,3.254159825933186e-09,7.369573431852197e-05,3.254159825933186e-09,6.438093738715708e-05,3.254159825933186e-09,0.6967554588517698
3.261467823362931e-09,7.36948894265685e-05,3.261467823362931e-09,7.369521533666705e-05,3.261467823362931e-09,7.369348007146529e-05,3.261467823362931e-09,6.432065036699147e-05,3.261467823362931e-09,0.7008154574238505
3.267074250682604e-09,7.369293695857694e-05,3.267074250682604e-09,7.369520696270317e-05,3.267074250682604e-09,7.369034614111472e-05,3.267074250682604e-09,6.414802058523593e-05,3.267074250682604e-09,0.703930139268113
3.271528925759863e-09,7.36773757194087e-05,3.271528925759863e-09,7.369512654437928e-05,3.271528925759863e-09,7.369031408921036e-05,3.271528925759863e-09,6.367924494108698e-05,3.271528925759863e-09,0.7064049587554794
3.275483845883057e-09,7.364932725260551e-05,3.275483845883057e-09,7.369505103499625e-05,3.275483845883057e-09,7.369861099678435e-05,3.275483845883057e-09,6.288196986678531e-05,3.275483845883057e-09,0.7086021366016981
3.279521485697271e-09,7.371669143034367e-05,3.279521485697271e-09,7.369567571101639e-05,3.279521485697271e-09,7.37089338876157e-05,3.279521485697271e-09,6.368516241153931e-05,3.279521485697271e-09,0.7108452698318171
3.282944075257339e-09,7.426954288703862e-05,3.282944075257339e-09,7.369903253721163e-05,3.282944075257339e-09,7.371330184221037e-05,3.282944075257339e-09,7.466401875074686e-05,3.282944075257339e-09,0.7127467084762995
3.28637648933596e-09,7.522479292208605e-05,3.28637648933596e-09,7.370140850910967e-05,3.28637648933596e-09,7.371066231033579e-05,3.28637648933596e-09,0.0001002211721515546,3.28637648933596e-09,0.7146536051866446
3.289553102811856e-09,7.496007556307144e-05,3.289553102811856e-09,7.369237252777471e-05,3.289553102811856e-09,7.370665698782421e-05,3.289553102811856e-09,0.0001082827789237909,3.289553102811856e-09,0.7164183904510311
3.291928258117701e-09,7.379941780706317e-05,3.291928258117701e-09,7.368406641264267e-05,3.291928258117701e-09,7.37029539937709e-05,3.291928258117701e-09,6.13709916263844e-05,3.291928258117701e-09,0.7177379211765005
3.294779353608339e-09,7.265550398774335e-05,3.294779353608339e-09,7.368524481055695e-05,3.294779353608339e-09,7.368065366019837e-05,3.294779353608339e-09,-0.0001621473077511807,3.294779353608339e-09,0.719321863115744
3.298097002144798e-09,6.869786258789493e-05,3.298097002144798e-09,7.369739840388013e-05,3.298097002144798e-09,7.365641504638994e-05,3.298097002144798e-09,-0.0007926982906687101,3.298097002144798e-09,0.7211650011915542
3.302129563236242e-09,5.730946352911169e-05,3.302129563236242e-09,7.371537823285122e-05,3.302129563236242e-09,7.367961482617345e-05,3.302129563236242e-09,-0.001211919610663219,3.302129563236242e-09,0.7234053129090234
3.305053047010506e-09,5.461391809591753e-05,3.305053047010506e-09,7.370558265961816e-05,3.305053047010506e-09,7.369425746427142e-05,3.305053047010506e-09,-0.0009754762287105124,3.305053047010506e-09,0.7250294705613922
3.307772064397392e-09,6.304930863070246e-05,3.307772064397392e-09,7.368624832646371e-05,3.307772064397392e-09,7.369006604155304e-05,3.307772064397392e-09,-0.000599837642401112,3.307772064397392e-09,0.7265400357763288
3.310486936925685e-09,8.25752885136608e-05,3.310486936925685e-09,7.369036739414939e-05,3.310486936925685e-09,7.368759391813615e-05,3.310486936925685e-09,-0.0002771883005370287,3.310486936925685e-09,0.7280482982920472
3.313380916774339e-09,0.0001226736373958716,3.313380916774339e-09,7.371069851881512e-05,3.313380916774339e-09,7.368699246865224e-05,3.313380916774339e-09,-0.0002643995495103255,3.313380916774339e-09,0.7296560648746329
3.315831367946534e-09,0.0001831626495777822,3.315831367946534e-09,7.372858375853269e-05,3.315831367946534e-09,7.369083293847436e-05,3.315831367946534e-09,-0.0006746338703491546,3.315831367946534e-09,0.7310174266369635
3.318484385631506e-09,0.0003207756270929944,3.318484385631506e-09,7.372082097845225e-05,3.318484385631506e-09,7.369960625207031e-05,3.318484385631506e-09,-0.001509945317108006,3.318484385631506e-09,0.7324913253508369
3.322077769212439e-09,0.0003703803593866919,3.322077769212439e-09,7.36759427843988e-05,3.322077769212439e-09,7.371482976520833e-05,3.322077769212439e-09,-0.002698520902729331,3.322077769212439e-09,0.7344876495624661
3.324817852880281e-09,-0.002652705499370757,3.324817852880281e-09,7.363929681859617e-05,3.324817852880281e-09,7.371815835660832e-05,3.324817852880281e-09,-0.003346610866607151,3.324817852880281e-09,0.7360099182668228
3.327786240323968e-09,-0.01053237969081733,3.327786240323968e-09,7.361818991001772e-05,3.327786240323968e-09,7.371421021279602e-05,3.327786240323968e-09,-0.003581801704312501,3.327786240323968e-09,0.7376590224022045
3.330762451278016e-09,-0.01111074291379431,3.330762451278016e-09,7.363141145321636e-05,3.330762451278016e-09,7.370892126481672e-05,3.330762451278016e-09,-0.003168618578631759,3.330762451278016e-09,0.7393124729322311
3.333407553790904e-09,0.02210542683802297,3.333407553790904e-09,7.36670518495785e-05,3.333407553790904e-09,7.369869546915133e-05,3.333407553790904e-09,-0.002362568778422485,3.333407553790904e-09,0.7407819743282799
3.335932455420551e-09,0.1004257177689788,3.335932455420551e-09,7.370000716088768e-05,3.335932455420551e-09,7.368239421148614e-05,3.335932455420551e-09,-0.00165461205139667,3.335932455420551e-09,0.7421846974558617
3.338072533464495e-09,0.1939474317758315,3.338072533464495e-09,7.3734693448259e-05,3.338072533464495e-09,7.368548669453948e-05,3.338072533464495e-09,-0.000953234664467605,3.338072533464495e-09,0.7433736297024973
3.340638044183806e-09,0.3214973944958426,3.340638044183806e-09,7.376179633634539e-05,3.340638044183806e-09,7.369466930573024e-05,3.340638044183806e-09,0.0002032232303703739,3.340638044183806e-09,0.7447989134354478
3.343453803951767e-09,0.4719671725203243,3.343453803951767e-09,7.374478397816181e-05,3.343453803951767e-09,7.368552220574328e-05,3.343453803951767e-09,0.001427141161316349,3.343453803951767e-09,0.7463632244176482
3.34618969735611e-09,0.6120190855415097,3.34618969735611e-09,7.372225610623692e-05,3.34618969735611e-09,7.368265502091518e-05,3.34618969735611e-09,0.002370081246050122,3.34618969735611e-09,0.7478831651978387
3.349080149239826e-09,0.7320919256836645,3.349080149239826e-09,7.370318185864313e-05,3.349080149239826e-09,7.368278815054231e-05,3.349080149239826e-09,0.002921030917269299,3.349080149239826e-09,0.7494889717999034
3.351618239980355e-09,0.8042392281613343,3.351618239980355e-09,7.369807385992193e-05,3.351618239980355e-09,7.36883270092441e-05,3.351618239980355e-09,0.003049353645888165,3.351618239980355e-09,0.7508990222113086
3.354233821342399e-09,0.8678644382021578,3.354233821342399e-09,7.369864994072376e-05,3.354233821342399e-09,7.369573650292219e-05,3.354233821342399e-09,0.002934561805693201,3.354233821342399e-09,0.7523521229679995
3.357088987044114e-09,1.00510016768045,3.357088987044114e-09,7.369972130272954e-05,3.357088987044114e-09,7.370044320776346e-05,3.357088987044114e-09,0.002625862804507745,3.357088987044114e-09,0.7539383261356187
3.359734589974859e-09,1.33504757860376,3.359734589974859e-09,7.369978847892927e-05,3.359734589974859e-09,7.370280739544834e-05,3.359734589974859e-09,0.002258499560429419,3.359734589974859e-09,0.7554081055415883
3.36181558422662e-09,1.841632839879538,3.36181558422662e-09,7.369939924583992e-05,3.36181558422662e-09,7.370308920604038e-05,3.36181558422662e-09,0.001976541401714295,3.36181558422662e-09,0.7565642134592331
3.363800636160187e-09,2.523145058774271,3.363800636160187e-09,7.36978919787617e-05,3.363800636160187e-09,7.370241407492819e-05,3.363800636160187e-09,0.001733509548309823,3.363800636160187e-09,0.7576670200889929
3.365051950056676e-09,3.00122782079156,3.365051950056676e-09,7.369638215380787e-05,3.365051950056676e-09,7.37009450007442e-05,3.365051950056676e-09,0.001593336057168558,3.365051950056676e-09,0.7583621944759309
3.366762987634611e-09,3.608799965922561,3.366762987634611e-09,7.369433876707086e-05,3.366762987634611e-09,7.369936744307374e-05,3.366762987634611e-09,0.001416599921350587,3.366762987634611e-09,0.7593127709081171
3.368170822614205e-09,3.997680983213273,3.368170822614205e-09,7.369273454084757e-05,3.368170822614205e-09,7.36977374706637e-05,3.368170822614205e-09,0.001281902134276194,3.368170822614205e-09,0.7600949014523364
