/net039 X,/net039 Y,/net010 X,/net010 Y,/net09 X,/net09 Y,/net08 X,/net08 Y,/net02 X,/net02 Y
0,8.480369173723103e-05,0,8.480369173734544e-05,0,8.480369173722384e-05,0,7.094942250181994e-05,0,0
1.5e-11,8.480369173684335e-05,1.5e-11,8.480369173707471e-05,1.5e-11,8.480369173725663e-05,1.5e-11,7.094942531819036e-05,1.5e-11,0
4.5e-11,8.480369173758322e-05,4.5e-11,8.480369173712115e-05,4.5e-11,8.480369173736279e-05,4.5e-11,7.094942703114877e-05,4.5e-11,0
1.05e-10,8.480369173639259e-05,1.05e-10,8.480369173678391e-05,1.05e-10,8.48036917369916e-05,1.05e-10,7.094942780139437e-05,1.05e-10,0
2.25e-10,8.480369173695985e-05,2.25e-10,8.480369173642166e-05,2.25e-10,8.480369174002174e-05,2.25e-10,7.094942728590418e-05,2.25e-10,0
4.65e-10,8.480369173975813e-05,4.65e-10,8.480369173701001e-05,4.65e-10,8.48036917371001e-05,4.65e-10,7.094942769656413e-05,4.65e-10,0
7.649999999999999e-10,8.480369173376709e-05,7.649999999999999e-10,8.480369173645088e-05,7.649999999999999e-10,8.480369173688966e-05,7.649999999999999e-10,7.094942731527221e-05,7.649999999999999e-10,0
1.065e-09,8.48036917397089e-05,1.065e-09,8.48036917398778e-05,1.065e-09,8.480369173393986e-05,1.065e-09,7.09494276396777e-05,1.065e-09,0
1.365e-09,8.48036917371329e-05,1.365e-09,8.480369173345437e-05,1.365e-09,8.480369174033509e-05,1.365e-09,7.09494273300053e-05,1.365e-09,0
1.665e-09,8.480369173644641e-05,1.665e-09,8.480369174277788e-05,1.665e-09,8.480369173378547e-05,1.665e-09,7.094942758954498e-05,1.665e-09,0
1.8325e-09,8.48036917400658e-05,1.8325e-09,8.480369173091462e-05,1.8325e-09,8.480369174019866e-05,1.8325e-09,7.094942735260278e-05,1.8325e-09,0
2e-09,8.480369173653578e-05,2e-09,8.48036917424376e-05,2e-09,8.480369173091851e-05,2e-09,7.094942753655159e-05,2e-09,0
2.120144127384571e-09,8.480369173735698e-05,2.120144127384571e-09,8.480369173742961e-05,2.120144127384571e-09,8.480369173714323e-05,2.120144127384571e-09,7.09494274532822e-05,2.120144127384571e-09,0.06674673743587282
2.261585129605973e-09,8.480369173629934e-05,2.261585129605973e-09,8.480369173665458e-05,2.261585129605973e-09,8.48036917399335e-05,2.261585129605973e-09,7.094942741813153e-05,2.261585129605973e-09,0.1453250720033182
2.400273538304042e-09,8.480369173742161e-05,2.400273538304042e-09,8.480369173687242e-05,2.400273538304042e-09,8.480369173432074e-05,2.400273538304042e-09,7.094942754871403e-05,2.400273538304042e-09,0.2223741879466899
2.455074087064093e-09,8.480369173618681e-05,2.455074087064093e-09,8.480369173644343e-05,2.455074087064093e-09,8.480369174208375e-05,2.455074087064093e-09,7.094942679157028e-05,2.455074087064093e-09,0.2528189372578291
2.482474361444118e-09,8.480369173747688e-05,2.482474361444118e-09,8.480369173698858e-05,2.482474361444118e-09,8.480369173920557e-05,2.482474361444118e-09,7.094942957980483e-05,2.482474361444118e-09,0.2680413119133986
2.537274910204168e-09,8.480369173297032e-05,2.537274910204168e-09,8.480369173635902e-05,2.537274910204168e-09,8.480369173066345e-05,2.537274910204168e-09,7.094942475138752e-05,2.537274910204168e-09,0.2984860612245375
2.559922583782316e-09,8.480369173994304e-05,2.559922583782316e-09,8.480369173999342e-05,2.559922583782316e-09,8.48036917550252e-05,2.559922583782316e-09,7.094942983787221e-05,2.559922583782316e-09,0.3110681021012865
2.57124642057139e-09,8.480369173449844e-05,2.57124642057139e-09,8.480369173719616e-05,2.57124642057139e-09,8.480369172430284e-05,2.57124642057139e-09,7.094942819555038e-05,2.57124642057139e-09,0.317359122539661
2.593894094149538e-09,8.480369173911073e-05,2.593894094149538e-09,8.480369173706041e-05,2.593894094149538e-09,8.480369173604074e-05,2.593894094149538e-09,7.09494254079652e-05,2.593894094149538e-09,0.3299411634164098
2.617949661820845e-09,8.480369173495036e-05,2.617949661820845e-09,8.480369173695851e-05,2.617949661820845e-09,8.480369175473414e-05,2.617949661820845e-09,7.094942979869512e-05,2.617949661820845e-09,0.3433053676782473
2.639680339001263e-09,8.480369173851363e-05,2.639680339001263e-09,8.480369173937527e-05,2.639680339001263e-09,8.480369171246799e-05,2.639680339001263e-09,7.094942525401299e-05,2.639680339001263e-09,0.3553779661118125
2.658883063252117e-09,8.4803691737734e-05,2.658883063252117e-09,8.480369173451957e-05,2.658883063252117e-09,8.480369176394595e-05,2.658883063252117e-09,7.094942911721594e-05,2.658883063252117e-09,0.3660461462511763
2.680392327343413e-09,8.480369173587607e-05,2.680392327343413e-09,8.48036917388823e-05,2.680392327343413e-09,8.480369171099608e-05,2.680392327343413e-09,7.094942620619343e-05,2.680392327343413e-09,0.377995737413007
2.700174442717201e-09,8.48036917374452e-05,2.700174442717201e-09,8.480369173754068e-05,2.700174442717201e-09,8.480369175718568e-05,2.700174442717201e-09,7.094942822520648e-05,2.700174442717201e-09,0.3889858015095559
2.724021634666431e-09,8.480369173627057e-05,2.724021634666431e-09,8.480369173357527e-05,2.724021634666431e-09,8.480369172190853e-05,2.724021634666431e-09,7.094942691235082e-05,2.724021634666431e-09,0.4022342414813507
2.752526753824226e-09,8.480369174010867e-05,2.752526753824226e-09,8.480369173937883e-05,2.752526753824226e-09,8.480369175027548e-05,2.752526753824226e-09,7.094942775854365e-05,2.752526753824226e-09,0.4180704187912364
2.783696801384449e-09,8.480369173355666e-05,2.783696801384449e-09,8.480369173430598e-05,2.783696801384449e-09,8.480369172853263e-05,2.783696801384449e-09,7.094942722950355e-05,2.783696801384449e-09,0.4353871118802494
2.812666018288891e-09,8.480369174261175e-05,2.812666018288891e-09,8.480369174164956e-05,2.812666018288891e-09,8.480369174680102e-05,2.812666018288891e-09,7.094942750931755e-05,2.812666018288891e-09,0.4514811212716059
2.842808008917095e-09,8.480369173159415e-05,2.842808008917095e-09,8.480369173246167e-05,2.842808008917095e-09,8.48036917315469e-05,2.842808008917095e-09,7.094942742413389e-05,2.842808008917095e-09,0.4682266716206082
2.867053244819386e-09,8.480369174382231e-05,2.867053244819386e-09,8.480369174023839e-05,2.867053244819386e-09,8.480369174089588e-05,2.867053244819386e-09,7.094942734719461e-05,2.867053244819386e-09,0.481696247121881
2.895094068949543e-09,8.480369172741434e-05,2.895094068949543e-09,8.480369173370656e-05,2.895094068949543e-09,8.480369173443295e-05,2.895094068949543e-09,7.094942754673525e-05,2.895094068949543e-09,0.4972744827497458
2.921155561808722e-09,8.480369174519659e-05,2.921155561808722e-09,8.480369173955845e-05,2.921155561808722e-09,8.480369173849868e-05,2.921155561808722e-09,7.094942726173744e-05,2.921155561808722e-09,0.5117530898937342
2.97327854752708e-09,8.480369172833791e-05,2.97327854752708e-09,8.480369173359454e-05,2.97327854752708e-09,8.480369173600828e-05,2.97327854752708e-09,7.094942759413695e-05,2.97327854752708e-09,0.5407103041817112
3.016560158523322e-09,8.480369174706529e-05,3.016560158523322e-09,8.480369174252186e-05,3.016560158523322e-09,8.480369173764401e-05,3.016560158523322e-09,7.094942723153773e-05,3.016560158523322e-09,0.5647556436240678
3.059650554028234e-09,8.480369173021644e-05,3.059650554028234e-09,8.480369173123434e-05,3.059650554028234e-09,8.480369173957368e-05,3.059650554028234e-09,7.094942761610754e-05,3.059650554028234e-09,0.5886947522379079
3.070753980370104e-09,8.480369174124441e-05,3.070753980370104e-09,8.480369174215944e-05,3.070753980370104e-09,8.480369173421245e-05,3.070753980370104e-09,7.094942719712585e-05,3.070753980370104e-09,0.5948633224278354
3.092960833053842e-09,8.48036917317565e-05,3.092960833053842e-09,8.480369173422339e-05,3.092960833053842e-09,8.480369173981668e-05,3.092960833053842e-09,7.094942763774229e-05,3.092960833053842e-09,0.6072004628076901
3.099843339370564e-09,8.480369173916999e-05,3.099843339370564e-09,8.480369173754702e-05,3.099843339370564e-09,8.480369173456268e-05,3.099843339370564e-09,7.09494272084889e-05,3.099843339370564e-09,0.6110240774280912
3.113608352004008e-09,8.48036917361958e-05,3.113608352004008e-09,8.48036917378411e-05,3.113608352004008e-09,8.480369173966771e-05,3.113608352004008e-09,7.094942760930085e-05,3.113608352004008e-09,0.6186713066688935
3.128941669366509e-09,8.480369174045423e-05,3.128941669366509e-09,8.480369173853664e-05,3.128941669366509e-09,8.480369173692788e-05,3.128941669366509e-09,7.09494272159237e-05,3.128941669366509e-09,0.6271898163147271
3.140375872897032e-09,8.480369173411238e-05,3.140375872897032e-09,8.480369173586068e-05,3.140375872897032e-09,8.4803691745627e-05,3.140375872897032e-09,7.094942776248548e-05,3.140375872897032e-09,0.633542151609462
3.154198057083955e-09,8.480369173944542e-05,3.154198057083955e-09,8.480369173764329e-05,3.154198057083955e-09,8.480369173531223e-05,3.154198057083955e-09,7.09494275548696e-05,3.154198057083955e-09,0.6412211428244196
3.157142899918834e-09,8.480369173825745e-05,3.157142899918834e-09,8.480369173705042e-05,3.157142899918834e-09,8.480369179905972e-05,3.157142899918834e-09,7.094942893811066e-05,3.157142899918834e-09,0.6428571666215747
3.163032585588593e-09,8.480369171580921e-05,3.163032585588593e-09,8.480369173815747e-05,3.163032585588593e-09,8.480369111919313e-05,3.163032585588593e-09,7.094941356242136e-05,3.163032585588593e-09,0.6461292142158847
3.17254882856915e-09,8.480369169931326e-05,3.17254882856915e-09,8.480369173496962e-05,3.17254882856915e-09,8.480368953167042e-05,3.17254882856915e-09,7.094933442140105e-05,3.17254882856915e-09,0.6514160158717498
3.180332856253811e-09,8.480369217741652e-05,3.180332856253811e-09,8.480369174399303e-05,3.180332856253811e-09,8.48037057843901e-05,3.180332856253811e-09,7.094972928477889e-05,3.180332856253811e-09,0.6557404756965614
3.190040382106046e-09,8.480369328992774e-05,3.190040382106046e-09,8.480369174044325e-05,3.190040382106046e-09,8.48037647295719e-05,3.190040382106046e-09,7.095232239954954e-05,3.190040382106046e-09,0.6611335456144698
3.198241135750853e-09,8.480368436823653e-05,3.198241135750853e-09,8.480369158795018e-05,3.198241135750853e-09,8.480323591053039e-05,3.198241135750853e-09,7.093935429116018e-05,3.198241135750853e-09,0.6656895198615848
3.200594826193578e-09,8.480367870378382e-05,3.200594826193578e-09,8.480369131577917e-05,3.200594826193578e-09,8.480233592096915e-05,3.200594826193578e-09,7.091992677143176e-05,3.200594826193578e-09,0.6669971256630987
3.205302207079028e-09,8.480368809808564e-05,3.205302207079028e-09,8.480369177720545e-05,3.205302207079028e-09,8.480045016954227e-05,3.205302207079028e-09,7.08506012836704e-05,3.205302207079028e-09,0.6696123372661265
3.210476149129888e-09,8.480367006248024e-05,3.210476149129888e-09,8.480369348603819e-05,3.210476149129888e-09,8.480600733052651e-05,3.210476149129888e-09,7.090053763058187e-05,3.210476149129888e-09,0.6724867495166044
3.215579124371998e-09,8.480373659624206e-05,3.215579124371998e-09,8.480369252484199e-05,3.215579124371998e-09,8.48145981423827e-05,3.215579124371998e-09,7.114580873464566e-05,3.215579124371998e-09,0.6753217357622212
3.220720440668891e-09,8.480380420013366e-05,3.220720440668891e-09,8.480368681882166e-05,3.220720440668891e-09,8.480184445870818e-05,3.220720440668891e-09,7.110752462233129e-05,3.220720440668891e-09,0.6781780225938282
3.229395367277553e-09,8.480364277265127e-05,3.229395367277553e-09,8.480369468063563e-05,3.229395367277553e-09,8.479609273641975e-05,3.229395367277553e-09,7.085863883422954e-05,3.229395367277553e-09,0.6829974262653074
3.236451653584545e-09,8.480365316065746e-05,3.236451653584545e-09,8.480369322258985e-05,3.236451653584545e-09,8.480536152949886e-05,3.236451653584545e-09,7.088067497110804e-05,3.236451653584545e-09,0.686917585324747
3.244906187410249e-09,8.480369694330002e-05,3.244906187410249e-09,8.480368970416105e-05,3.244906187410249e-09,8.480479413710149e-05,3.244906187410249e-09,7.092526545715515e-05,3.244906187410249e-09,0.6916145485612493
3.251844147346097e-09,8.480348468096455e-05,3.251844147346097e-09,8.480369173216303e-05,3.251844147346097e-09,8.480479910319332e-05,3.251844147346097e-09,7.095675180149664e-05,3.251844147346097e-09,0.6954689707478318
3.259223072802941e-09,8.480344436281481e-05,3.259223072802941e-09,8.480369091297926e-05,3.259223072802941e-09,8.480281937890413e-05,3.259223072802941e-09,7.092275324893141e-05,3.259223072802941e-09,0.6995683737794118
3.265174347625777e-09,8.48028957736586e-05,3.265174347625777e-09,8.480368986969644e-05,3.265174347625777e-09,8.480061493623725e-05,3.265174347625777e-09,7.082523078005215e-05,3.265174347625777e-09,0.702874637569876
3.270406221577373e-09,8.479588697934723e-05,3.270406221577373e-09,8.480365455069619e-05,3.270406221577373e-09,8.479817729460747e-05,3.270406221577373e-09,7.051616226001556e-05,3.270406221577373e-09,0.7057812342096518
3.274534427024539e-09,8.477113117425618e-05,3.274534427024539e-09,8.480354653835169e-05,3.274534427024539e-09,8.480283217088334e-05,3.274534427024539e-09,6.985533571898495e-05,3.274534427024539e-09,0.7080746816802996
3.278636960830531e-09,8.477411800541535e-05,3.278636960830531e-09,8.480373393248749e-05,3.278636960830531e-09,8.481263365828841e-05,3.278636960830531e-09,6.949658279877053e-05,3.278636960830531e-09,0.7103538671280726
3.282177796275903e-09,8.503740459368526e-05,3.282177796275903e-09,8.480548780083953e-05,3.282177796275903e-09,8.48202570755435e-05,3.282177796275903e-09,7.436033716636983e-05,3.282177796275903e-09,0.7123209979310575
3.285784447353708e-09,8.593656091342855e-05,3.285784447353708e-09,8.480947540145981e-05,3.285784447353708e-09,8.482028506371287e-05,3.285784447353708e-09,9.521107810040084e-05,3.285784447353708e-09,0.7143246929742822
3.288269026997167e-09,8.636480411551529e-05,3.288269026997167e-09,8.480758564837715e-05,3.288269026997167e-09,8.481631303282275e-05,3.288269026997167e-09,0.0001132805704760854,3.288269026997167e-09,0.7157050149984262
3.290816473215166e-09,8.570095792226755e-05,3.290816473215166e-09,8.479784989502386e-05,3.290816473215166e-09,8.481604302641961e-05,3.290816473215166e-09,0.0001090702817325163,3.290816473215166e-09,0.7171202628973145
3.293118424201885e-09,8.467792529927336e-05,3.293118424201885e-09,8.479277534138538e-05,3.293118424201885e-09,8.481086908546513e-05,3.293118424201885e-09,5.054574119116332e-05,3.293118424201885e-09,0.718399124556603
3.29622839151044e-09,8.358456728502327e-05,3.29622839151044e-09,8.479672526617766e-05,3.29622839151044e-09,8.478345701009622e-05,3.29622839151044e-09,-0.0002297440675294217,3.29622839151044e-09,0.7201268841724666
3.299592020069184e-09,7.861322879579447e-05,3.299592020069184e-09,8.480838335860146e-05,3.299592020069184e-09,8.476602723997569e-05,3.299592020069184e-09,-0.0008792639997665619,3.299592020069184e-09,0.7219955667051021
3.302377602922233e-09,7.013016280062349e-05,3.302377602922233e-09,8.482354562464944e-05,3.302377602922233e-09,8.478524005060023e-05,3.302377602922233e-09,-0.001169623735441459,3.302377602922233e-09,0.7235431127345736
3.305394069599189e-09,6.620647042282292e-05,3.305394069599189e-09,8.481501397201267e-05,3.305394069599189e-09,8.480090411050094e-05,3.305394069599189e-09,-0.001013844192181817,3.305394069599189e-09,0.7252189275551051
3.308019051700702e-09,7.186325118680642e-05,3.308019051700702e-09,8.479611735355093e-05,3.308019051700702e-09,8.479857581106172e-05,3.308019051700702e-09,-0.0006854830591627195,3.308019051700702e-09,0.7266772509448342
3.310756930163547e-09,8.805991616031802e-05,3.310756930163547e-09,8.479570547633569e-05,3.310756930163547e-09,8.479786869090715e-05,3.310756930163547e-09,-0.0003276303802549623,3.310756930163547e-09,0.728198294535304
3.314151346250787e-09,0.0001300665507708443,3.314151346250787e-09,8.481490090933011e-05,3.314151346250787e-09,8.479571919061637e-05,3.314151346250787e-09,-0.0002233537994503914,3.314151346250787e-09,0.730084081250437
3.316610582570383e-09,0.0001845909551003385,3.316610582570383e-09,8.483458620968872e-05,3.316610582570383e-09,8.479932194597934e-05,3.316610582570383e-09,-0.0005538017035102423,3.316610582570383e-09,0.7314503236502127
3.319250543926289e-09,0.0003026305942578922,3.319250543926289e-09,8.483300492849635e-05,3.319250543926289e-09,8.480626728368217e-05,3.319250543926289e-09,-0.001318267543563796,3.319250543926289e-09,0.7329169688479384
3.322670296019981e-09,0.0004442715897219206,3.322670296019981e-09,8.479447626941665e-05,3.322670296019981e-09,8.482061524229125e-05,3.322670296019981e-09,-0.002470529688381996,3.322670296019981e-09,0.7348168311222119
3.325439697626562e-09,-0.001571752277146375,3.325439697626562e-09,8.475670479180658e-05,3.325439697626562e-09,8.48262796453432e-05,3.325439697626562e-09,-0.00319081342043962,3.325439697626562e-09,0.7363553875703119
3.328392219913685e-09,-0.008638914196683996,3.328392219913685e-09,8.473151194084432e-05,3.328392219913685e-09,8.482319198352205e-05,3.328392219913685e-09,-0.003546306811227654,3.328392219913685e-09,0.7379956777298249
3.331369239054445e-09,-0.01259333911482396,3.331369239054445e-09,8.473442564375237e-05,3.331369239054445e-09,8.481793868265253e-05,3.331369239054445e-09,-0.00331001166034284,3.331369239054445e-09,0.7396495772524693
3.334014225615089e-09,0.01015350694036703,3.334014225615089e-09,8.476731376220945e-05,3.334014225615089e-09,8.481147458315897e-05,3.334014225615089e-09,-0.002558801376229878,3.334014225615089e-09,0.7411190142306051
3.336930396842786e-09,0.08931587215131896,3.336930396842786e-09,8.480258956891367e-05,3.336930396842786e-09,8.479207096387438e-05,3.336930396842786e-09,-0.001737921574092885,3.336930396842786e-09,0.7427391093571033
3.33908527610127e-09,0.1801939335425327,3.33908527610127e-09,8.483595703495469e-05,3.33908527610127e-09,8.479213528113277e-05,3.33908527610127e-09,-0.001085777171159329,3.33908527610127e-09,0.7439362645007057
3.341656183440688e-09,0.3039721780298121,3.341656183440688e-09,8.486828414564323e-05,3.341656183440688e-09,8.480287961875548e-05,3.341656183440688e-09,2.052643246655299e-05,3.341656183440688e-09,0.7453645463559375
3.344399000457954e-09,0.4472285036981136,3.344399000457954e-09,8.485678254188783e-05,3.344399000457954e-09,8.479564486747697e-05,3.344399000457954e-09,0.00121811097363311,3.344399000457954e-09,0.7468883335877522
3.348064348652933e-09,0.6308216478734979,3.348064348652933e-09,8.482798329201059e-05,3.348064348652933e-09,8.47912586388209e-05,3.348064348652933e-09,0.002453147179337417,3.348064348652933e-09,0.7489246381405182
3.351010245304558e-09,0.7461036358435582,3.351010245304558e-09,8.48101581336269e-05,3.351010245304558e-09,8.479231593694446e-05,3.351010245304558e-09,0.002953040812567628,3.351010245304558e-09,0.7505612473914209
3.353664195763001e-09,0.8153567509883622,3.353664195763001e-09,8.480586772462051e-05,3.353664195763001e-09,8.47982017828052e-05,3.353664195763001e-09,0.003033229940693556,3.353664195763001e-09,0.7520356643127782
3.356266685748677e-09,0.8816923082002753,3.356266685748677e-09,8.480712001678075e-05,3.356266685748677e-09,8.480539886936841e-05,3.356266685748677e-09,0.002885693517998591,3.356266685748677e-09,0.7534814920825984
3.359299842615834e-09,1.056857033726949,3.359299842615834e-09,8.480795685460582e-05,3.359299842615834e-09,8.480964297357736e-05,3.359299842615834e-09,0.002534727065335037,3.359299842615834e-09,0.7551665792310187
3.361832413283319e-09,1.426920458553122,3.361832413283319e-09,8.480798389051896e-05,3.361832413283319e-09,8.48114383592272e-05,3.361832413283319e-09,0.002184229423035788,3.361832413283319e-09,0.7565735629351771
3.363882570689967e-09,1.973292465349604,3.363882570689967e-09,8.480733731754952e-05,3.363882570689967e-09,8.481146444762841e-05,3.363882570689967e-09,0.001914088803297684,3.363882570689967e-09,0.7577125392722041
3.365945413306914e-09,2.703224934392764,3.365945413306914e-09,8.480555403014956e-05,3.365945413306914e-09,8.48102742172308e-05,3.365945413306914e-09,0.001671795465723964,3.365945413306914e-09,0.7588585629482854
3.367476368984912e-09,3.275493375599757,3.367476368984912e-09,8.480365405321385e-05,3.367476368984912e-09,8.480857855072459e-05,3.367476368984912e-09,0.001507107495440842,3.367476368984912e-09,0.7597090938805066
