/net039 X,/net039 Y,/net010 X,/net010 Y,/net09 X,/net09 Y,/net08 X,/net08 Y,/net02 X,/net02 Y
0,9.812480464519711e-05,0,9.812480464509664e-05,0,9.812480464551798e-05,0,7.871745189942441e-05,0,0
1.5e-11,9.812480464533089e-05,1.5e-11,9.812480464500483e-05,1.5e-11,9.812480464538672e-05,1.5e-11,7.871745190164943e-05,1.5e-11,0
4.5e-11,9.812480464527771e-05,4.5e-11,9.812480464498718e-05,4.5e-11,9.812480464518098e-05,4.5e-11,7.871745189857474e-05,4.5e-11,0
1.05e-10,9.812480464680318e-05,1.05e-10,9.812480464408418e-05,1.05e-10,9.81248046479924e-05,1.05e-10,7.871745189954704e-05,1.05e-10,0
2.25e-10,9.812480464136803e-05,2.25e-10,9.81248046472712e-05,2.25e-10,9.812480464099717e-05,2.25e-10,7.871745189934852e-05,2.25e-10,0
4.65e-10,9.812480464671587e-05,4.65e-10,9.812480464388865e-05,4.65e-10,9.812480465094079e-05,4.65e-10,7.871745189914466e-05,4.65e-10,0
7.649999999999999e-10,9.81248046442619e-05,7.649999999999999e-10,9.812480464715251e-05,7.649999999999999e-10,9.812480463809996e-05,7.649999999999999e-10,7.871745189938086e-05,7.649999999999999e-10,0
1.065e-09,9.812480464687692e-05,1.065e-09,9.812480464110452e-05,1.065e-09,9.81248046538244e-05,1.065e-09,7.871745189921678e-05,1.065e-09,0
1.365e-09,9.812480464127925e-05,1.365e-09,9.812480465028509e-05,1.365e-09,9.812480463832291e-05,1.365e-09,7.871745189965989e-05,1.365e-09,0
1.665e-09,9.812480464988966e-05,1.665e-09,9.812480464109067e-05,1.665e-09,9.812480465043837e-05,1.665e-09,7.871745189866877e-05,1.665e-09,0
1.8325e-09,9.812480464155439e-05,1.8325e-09,9.812480464696276e-05,1.8325e-09,9.81248046383863e-05,1.8325e-09,7.871745189978986e-05,1.8325e-09,0
2e-09,9.812480464962046e-05,2e-09,9.81248046408012e-05,2e-09,9.812480465341566e-05,2e-09,7.871745189863296e-05,2e-09,0
2.120144127384571e-09,9.812480464520899e-05,2.120144127384571e-09,9.812480464492588e-05,2.120144127384571e-09,9.812480464526587e-05,2.120144127384571e-09,7.871745189841502e-05,2.120144127384571e-09,0.06674673743587282
2.261585129605973e-09,9.812480464719551e-05,2.261585129605973e-09,9.812480464417446e-05,2.261585129605973e-09,9.812480464479789e-05,2.261585129605973e-09,7.87174518848556e-05,2.261585129605973e-09,0.1453250720033182
2.400273538304042e-09,9.812480464432686e-05,2.400273538304042e-09,9.812480464695436e-05,2.400273538304042e-09,9.812480464714165e-05,2.400273538304042e-09,7.871745199288608e-05,2.400273538304042e-09,0.2223741879466899
2.454732696734206e-09,9.812480464669648e-05,2.454732696734206e-09,9.812480464429044e-05,2.454732696734206e-09,9.812480464468518e-05,2.454732696734206e-09,7.871745127792247e-05,2.454732696734206e-09,0.252629275963448
2.481962275949288e-09,9.812480464205147e-05,2.481962275949288e-09,9.812480464359071e-05,2.481962275949288e-09,9.812480464986297e-05,2.481962275949288e-09,7.871745400416117e-05,2.481962275949288e-09,0.2677568199718269
2.536421434379453e-09,9.812480464587262e-05,2.536421434379453e-09,9.812480464455761e-05,2.536421434379453e-09,9.812480463738892e-05,2.536421434379453e-09,7.871744927608385e-05,2.536421434379453e-09,0.2980119079885847
2.559203152356582e-09,9.81248046453425e-05,2.559203152356582e-09,9.812480464656862e-05,2.559203152356582e-09,9.812480466195245e-05,2.559203152356582e-09,7.871745417241041e-05,2.559203152356582e-09,0.310668417975879
2.570594011345147e-09,9.81248046436798e-05,2.570594011345147e-09,9.812480464468195e-05,2.570594011345147e-09,9.812480463364676e-05,2.570594011345147e-09,7.871745281873224e-05,2.570594011345147e-09,0.3169966729695262
2.593375729322277e-09,9.812480464695743e-05,2.593375729322277e-09,9.812480464693168e-05,2.593375729322277e-09,9.812480464485557e-05,2.593375729322277e-09,7.871744976324383e-05,2.593375729322277e-09,0.3296531829568206
2.61690931603815e-09,9.812480464446187e-05,2.61690931603815e-09,9.812480464427371e-05,2.61690931603815e-09,9.812480466133822e-05,2.61690931603815e-09,7.871745433102882e-05,2.61690931603815e-09,0.3427273977989721
2.639245456213126e-09,9.812480464408325e-05,2.639245456213126e-09,9.812480464673342e-05,2.639245456213126e-09,9.812480462116893e-05,2.639245456213126e-09,7.871744970254981e-05,2.639245456213126e-09,0.3551363645628476
2.656927393303191e-09,9.812480464662334e-05,2.656927393303191e-09,9.812480464479776e-05,2.656927393303191e-09,9.812480467268692e-05,2.656927393303191e-09,7.871745352635288e-05,2.656927393303191e-09,0.364959662946217
2.678661884739159e-09,9.812480464484146e-05,2.678661884739159e-09,9.812480464369794e-05,2.678661884739159e-09,9.8124804618049e-05,2.678661884739159e-09,7.871745074514807e-05,2.678661884739159e-09,0.3770343804106438
2.69850909428086e-09,9.812480464931351e-05,2.69850909428086e-09,9.812480464448941e-05,2.69850909428086e-09,9.812480466677825e-05,2.69850909428086e-09,7.87174526259808e-05,2.69850909428086e-09,0.3880606079338111
2.722927559934865e-09,9.812480464529152e-05,2.722927559934865e-09,9.812480464379692e-05,2.722927559934865e-09,9.812480462766437e-05,2.722927559934865e-09,7.871745144377219e-05,2.722927559934865e-09,0.4016264221860358
2.751605072067326e-09,9.812480464330004e-05,2.751605072067326e-09,9.812480464685769e-05,2.751605072067326e-09,9.812480465906572e-05,2.751605072067326e-09,7.871745217375831e-05,2.751605072067326e-09,0.4175583733707366
2.783225723154418e-09,9.81248046473439e-05,2.783225723154418e-09,9.812480464452809e-05,2.783225723154418e-09,9.81248046349168e-05,2.783225723154418e-09,7.871745175378569e-05,2.783225723154418e-09,0.4351254017524543
2.812445371685748e-09,9.812480464117454e-05,2.812445371685748e-09,9.81248046467529e-05,2.812445371685748e-09,9.812480465193247e-05,2.812445371685748e-09,7.871745193526971e-05,2.812445371685748e-09,0.4513585398254154
2.842810073693089e-09,9.81248046465446e-05,2.842810073693089e-09,9.812480464455823e-05,2.842810073693089e-09,9.812480463826807e-05,2.842810073693089e-09,7.871745194246851e-05,2.842810073693089e-09,0.468227818718383
2.867054752273533e-09,9.812480464187122e-05,2.867054752273533e-09,9.812480464674696e-05,2.867054752273533e-09,9.812480464889497e-05,2.867054752273533e-09,7.871745178226763e-05,2.867054752273533e-09,0.4816970845964074
2.895182592747358e-09,9.81248046460867e-05,2.895182592747358e-09,9.812480464466752e-05,2.895182592747358e-09,9.812480464388571e-05,2.895182592747358e-09,7.871745206131034e-05,2.895182592747358e-09,0.4973236626374209
2.92132521718101e-09,9.812480464253595e-05,2.92132521718101e-09,9.812480464354015e-05,2.92132521718101e-09,9.81248046441426e-05,2.92132521718101e-09,7.871745170373182e-05,2.92132521718101e-09,0.5118473428783386
2.973610466048313e-09,9.812480464573459e-05,2.973610466048313e-09,9.812480464413429e-05,2.973610466048313e-09,9.812480464780929e-05,2.973610466048313e-09,7.871745210769155e-05,2.973610466048313e-09,0.540894703360174
3.017358190507602e-09,9.812480464555322e-05,3.017358190507602e-09,9.812480464682601e-05,3.017358190507602e-09,9.812480464400926e-05,3.017358190507602e-09,7.871745167888273e-05,3.017358190507602e-09,0.5651989947264454
3.060246108675957e-09,9.812480464589679e-05,3.060246108675957e-09,9.812480464418887e-05,3.060246108675957e-09,9.8124804648681e-05,3.060246108675957e-09,7.871745212940744e-05,3.060246108675957e-09,0.5890256159310872
3.071319651640925e-09,9.812480464545935e-05,3.071319651640925e-09,9.81248046463558e-05,3.071319651640925e-09,9.812480464293075e-05,3.071319651640925e-09,7.871745165156922e-05,3.071319651640925e-09,0.5951775842449583
3.09346673757086e-09,9.81248046459066e-05,3.09346673757086e-09,9.812480464476499e-05,3.09346673757086e-09,9.812480464632906e-05,3.09346673757086e-09,7.871745214624247e-05,3.09346673757086e-09,0.6074815208727002
3.100077279260161e-09,9.812480464746572e-05,3.100077279260161e-09,9.812480464389955e-05,3.100077279260161e-09,9.812480464202647e-05,3.100077279260161e-09,7.871745166892954e-05,3.100077279260161e-09,0.6111540440334229
3.113298362638763e-09,9.812480464415468e-05,3.113298362638763e-09,9.812480464712716e-05,3.113298362638763e-09,9.81248046470096e-05,3.113298362638763e-09,7.871745211206271e-05,3.113298362638763e-09,0.6184990903548679
3.12709510795417e-09,9.812480464660713e-05,3.12709510795417e-09,9.812480464214864e-05,3.12709510795417e-09,9.812480464405944e-05,3.12709510795417e-09,7.871745168104487e-05,3.12709510795417e-09,0.6261639488634276
3.139012000634165e-09,9.812480464475246e-05,3.139012000634165e-09,9.812480464844229e-05,3.139012000634165e-09,9.812480465050433e-05,3.139012000634165e-09,7.871745226826331e-05,3.139012000634165e-09,0.6327844447967583
3.151847016637309e-09,9.812480464621755e-05,3.151847016637309e-09,9.812480464302144e-05,3.151847016637309e-09,9.812480464268588e-05,3.151847016637309e-09,7.871745194902483e-05,3.151847016637309e-09,0.6399150092429495
3.154933086669344e-09,9.812480464741601e-05,3.154933086669344e-09,9.81248046459696e-05,3.154933086669344e-09,9.812480471857731e-05,3.154933086669344e-09,7.871745358227237e-05,3.154933086669344e-09,0.6416294925940801
3.161105226733414e-09,9.812480462951824e-05,3.161105226733414e-09,9.812480464511199e-05,3.161105226733414e-09,9.812480422248846e-05,3.161105226733414e-09,7.871744272672222e-05,3.161105226733414e-09,0.6450584592963412
3.170268292533124e-09,9.812480460763841e-05,3.170268292533124e-09,9.812480464554775e-05,3.170268292533124e-09,9.812480264292678e-05,3.170268292533124e-09,7.871737335969976e-05,3.170268292533124e-09,0.6501490514072914
3.178538664274808e-09,9.812480491560827e-05,3.178538664274808e-09,9.812480464927508e-05,3.178538664274808e-09,9.812481287992724e-05,3.178538664274808e-09,7.871760900997636e-05,3.178538664274808e-09,0.6547437023748931
3.187949111054086e-09,9.8124806123132e-05,3.187949111054086e-09,9.812480465448967e-05,3.187949111054086e-09,9.81248708160783e-05,3.187949111054086e-09,7.871988985710462e-05,3.187949111054086e-09,0.6599717283633814
3.196899590982792e-09,9.81247998615616e-05,3.196899590982792e-09,9.812480454783219e-05,3.196899590982792e-09,9.81245271855899e-05,3.196899590982792e-09,7.871172886781297e-05,3.196899590982792e-09,0.6649442172126623
3.199181145489333e-09,9.812479234873037e-05,3.199181145489333e-09,9.812480425185814e-05,3.199181145489333e-09,9.812382768204195e-05,3.199181145489333e-09,7.869749062342266e-05,3.199181145489333e-09,0.6662117474940739
3.203744254502414e-09,9.812479887373081e-05,3.203744254502414e-09,9.812480452069704e-05,3.203744254502414e-09,9.812189212375828e-05,3.203744254502414e-09,7.86356020410259e-05,3.203744254502414e-09,0.6687468080568967
3.208808097885977e-09,9.812478971590656e-05,3.208808097885977e-09,9.81248059025614e-05,3.208808097885977e-09,9.812468479184883e-05,3.208808097885977e-09,7.863132743974378e-05,3.208808097885977e-09,0.6715600543810981
3.214591487695486e-09,9.812482927320062e-05,3.214591487695486e-09,9.812480602367903e-05,3.214591487695486e-09,9.813523364709185e-05,3.214591487695486e-09,7.88819132297535e-05,3.214591487695486e-09,0.6747730487197141
3.219661726319936e-09,9.812491009405476e-05,3.219661726319936e-09,9.812480021764631e-05,3.219661726319936e-09,9.812549168049943e-05,3.219661726319936e-09,7.890082921481786e-05,3.219661726319936e-09,0.6775898479555201
3.227459466057514e-09,9.81247911298368e-05,3.227459466057514e-09,9.812480607447149e-05,3.227459466057514e-09,9.811620401379753e-05,3.227459466057514e-09,7.865518736968522e-05,3.227459466057514e-09,0.6819219255875077
3.234535229543488e-09,9.812474120596413e-05,3.234535229543488e-09,9.812480714790312e-05,3.234535229543488e-09,9.812527301884137e-05,3.234535229543488e-09,7.863893675470302e-05,3.234535229543488e-09,0.685852905301938
3.243441634846235e-09,9.812481056333638e-05,3.243441634846235e-09,9.812480245909377e-05,3.243441634846235e-09,9.812622769668594e-05,3.243441634846235e-09,7.868702299507885e-05,3.243441634846235e-09,0.6908009082479086
3.250625327395572e-09,9.812464287704588e-05,3.250625327395572e-09,9.812480474918965e-05,3.250625327395572e-09,9.812589067465774e-05,3.250625327395572e-09,7.872112429655538e-05,3.250625327395572e-09,0.6947918485530955
3.258152130016458e-09,9.812457412940897e-05,3.258152130016458e-09,9.812480377304577e-05,3.258152130016458e-09,9.812448183992825e-05,3.258152130016458e-09,7.870417463645392e-05,3.258152130016458e-09,0.6989734055646989
3.264837327054947e-09,9.812419560819868e-05,3.264837327054947e-09,9.812480366105559e-05,3.264837327054947e-09,9.812246923986567e-05,3.264837327054947e-09,7.862205078901822e-05,3.264837327054947e-09,0.7026874039194152
3.270665235100417e-09,9.811846735465198e-05,3.270665235100417e-09,9.812477631064269e-05,3.270665235100417e-09,9.811954888388904e-05,3.270665235100417e-09,7.833087372001281e-05,3.270665235100417e-09,0.7059251306113431
3.274922039045159e-09,9.80970939912451e-05,3.274922039045159e-09,9.812468194819558e-05,3.274922039045159e-09,9.812301788058134e-05,3.274922039045159e-09,7.772725246787027e-05,3.274922039045159e-09,0.7082900216917547
3.279091382042252e-09,9.809756035659337e-05,3.279091382042252e-09,9.812482826484078e-05,3.279091382042252e-09,9.813241951812334e-05,3.279091382042252e-09,7.736567299138121e-05,3.279091382042252e-09,0.7106063233568067
3.282780661444649e-09,9.834081647789678e-05,3.282780661444649e-09,9.81264228806748e-05,3.282780661444649e-09,9.814059306592064e-05,3.282780661444649e-09,8.197726742995934e-05,3.282780661444649e-09,0.7126559230248051
3.28636978967718e-09,9.917360415492865e-05,3.28636978967718e-09,9.813016834499635e-05,3.28636978967718e-09,9.814129582982848e-05,3.28636978967718e-09,0.0001014409971152851,3.28636978967718e-09,0.7146498831539889
3.289918832155189e-09,9.955033657548894e-05,3.289918832155189e-09,9.812664983142153e-05,3.289918832155189e-09,9.813655918021824e-05,3.289918832155189e-09,0.0001212755547590937,3.289918832155189e-09,0.7166215734195497
3.292489898972282e-09,9.866484152654912e-05,3.292489898972282e-09,9.811692966249235e-05,3.292489898972282e-09,9.813521036332055e-05,3.292489898972282e-09,0.0001011411604815999,3.292489898972282e-09,0.7180499438734902
3.295008770923925e-09,9.757712719097011e-05,3.295008770923925e-09,9.811383856018313e-05,3.295008770923925e-09,9.812508353847616e-05,3.295008770923925e-09,-8.661214023918495e-06,3.295008770923925e-09,0.7194493171799584
3.298039378847198e-09,9.625293604208545e-05,3.298039378847198e-09,9.812057536085847e-05,3.298039378847198e-09,9.809757559726955e-05,3.298039378847198e-09,-0.0003938019898876127,3.298039378847198e-09,0.7211329882484431
3.301574116030715e-09,8.891678702145682e-05,3.301574116030715e-09,9.813549034595786e-05,3.301574116030715e-09,9.809258759535467e-05,3.301574116030715e-09,-0.001021905880868554,3.301574116030715e-09,0.723096731128175
3.305239511598147e-09,8.089499445869176e-05,3.305239511598147e-09,9.814399986996223e-05,3.305239511598147e-09,9.811790047234115e-05,3.305239511598147e-09,-0.001093947468213004,3.305239511598147e-09,0.7251330619989705
3.308090860071466e-09,8.292791166710043e-05,3.308090860071466e-09,9.812198276550209e-05,3.308090860071466e-09,9.812184763115269e-05,3.308090860071466e-09,-0.0007876491550160487,3.308090860071466e-09,0.7267171444841479
3.310821385732018e-09,9.512630485205008e-05,3.310821385732018e-09,9.811462106608006e-05,3.310821385732018e-09,9.811861723217111e-05,3.310821385732018e-09,-0.0004309853893013573,3.310821385732018e-09,0.7282341031844546
3.313770815312198e-09,0.0001233925889061928,3.313770815312198e-09,9.812488628050077e-05,3.313770815312198e-09,9.811853078323874e-05,3.313770815312198e-09,-0.0001766490085119683,3.313770815312198e-09,0.7298726751734433
3.31639455268943e-09,0.0001662849813120338,3.31639455268943e-09,9.814585899955438e-05,3.31639455268943e-09,9.811808993710484e-05,3.31639455268943e-09,-0.0002951567077149698,3.31639455268943e-09,0.7313303070496834
3.31887563523246e-09,0.0002379124749531157,3.31887563523246e-09,9.815886835157213e-05,3.31887563523246e-09,9.812361831862886e-05,3.31887563523246e-09,-0.0008073053308849368,3.31887563523246e-09,0.7327086862402556
3.321767462288881e-09,0.0003936751255680214,3.321767462288881e-09,9.814088918037888e-05,3.321767462288881e-09,9.813275483338249e-05,3.321767462288881e-09,-0.001766023046867502,3.321767462288881e-09,0.734315256827156
3.324855832566038e-09,0.0001941597320492431,3.324855832566038e-09,9.81020077871058e-05,3.324855832566038e-09,9.814540421768396e-05,3.324855832566038e-09,-0.002741785594458084,3.324855832566038e-09,0.7360310180922431
3.327711926595077e-09,-0.003651577762225094,3.327711926595077e-09,9.806793696973474e-05,3.327711926595077e-09,9.814616430052664e-05,3.327711926595077e-09,-0.003357062318940964,3.327711926595077e-09,0.737617736997265
3.330670999280655e-09,-0.01109167386349903,3.330670999280655e-09,9.805176559723878e-05,3.330670999280655e-09,9.814209971881343e-05,3.330670999280655e-09,-0.003516310463141276,3.330670999280655e-09,0.7392616662670306
3.333624080190222e-09,-0.00777455066258423,3.333624080190222e-09,9.806667054009325e-05,3.333624080190222e-09,9.813673842370246e-05,3.333624080190222e-09,-0.003045567710980429,3.333624080190222e-09,0.7409022667723457
3.336351040214773e-09,0.03329047045988839,3.336351040214773e-09,9.810224947809366e-05,3.336351040214773e-09,9.812534398486038e-05,3.336351040214773e-09,-0.002225483552603065,3.336351040214773e-09,0.7424172445637625
3.338830445791934e-09,0.1145688490613359,3.338830445791934e-09,9.81323788142767e-05,3.338830445791934e-09,9.811133830312275e-05,3.338830445791934e-09,-0.001555108048797463,3.338830445791934e-09,0.74379469210663
3.341018696781254e-09,0.2088984534614598,3.341018696781254e-09,9.816715117094699e-05,3.341018696781254e-09,9.811582143265705e-05,3.341018696781254e-09,-0.000842623402828175,3.341018696781254e-09,0.7450103871006966
3.343631262465288e-09,0.3354959046456296,3.343631262465288e-09,9.81885766944629e-05,3.343631262465288e-09,9.812386753765018e-05,3.343631262465288e-09,0.0002997493654976854,3.343631262465288e-09,0.7464618124807157
3.346547598419251e-09,0.4863003516834815,3.346547598419251e-09,9.817152030116857e-05,3.346547598419251e-09,9.811499464287578e-05,3.346547598419251e-09,0.001508732524051096,3.346547598419251e-09,0.7480819991218062
3.349271412697744e-09,0.6203258533922882,3.349271412697744e-09,9.814936182003087e-05,3.349271412697744e-09,9.81130512924262e-05,3.349271412697744e-09,0.002388247158328064,3.349271412697744e-09,0.7495952292765241
3.352178678021135e-09,0.735566990178159,3.352178678021135e-09,9.813293390155616e-05,3.352178678021135e-09,9.811358499394215e-05,3.352178678021135e-09,0.002898619732419795,3.352178678021135e-09,0.7512103766784082
3.354755447093317e-09,0.8055766691833696,3.354755447093317e-09,9.812742128486628e-05,3.354755447093317e-09,9.811932843792372e-05,3.354755447093317e-09,0.003010637786253433,3.354755447093317e-09,0.7526419150518427
3.357419582703436e-09,0.8691952302349979,3.357419582703436e-09,9.812868209158142e-05,3.357419582703436e-09,9.812603905585537e-05,3.357419582703436e-09,0.002889659196928059,3.357419582703436e-09,0.754121990390798
3.3603610291323e-09,1.013663964839478,3.3603610291323e-09,9.812854091303814e-05,3.3603610291323e-09,9.813041115078098e-05,3.3603610291323e-09,0.002577649246318973,3.3603610291323e-09,0.7557561272957219
3.363018854112561e-09,1.352162561486876,3.363018854112561e-09,9.812906635500856e-05,3.363018854112561e-09,9.813214676808677e-05,3.363018854112561e-09,0.00222092141775753,3.363018854112561e-09,0.7572326967292006
3.365124179919776e-09,1.866909749058141,3.365124179919776e-09,9.812781795825113e-05,3.365124179919776e-09,9.813236618298482e-05,3.365124179919776e-09,0.001946371334821041,3.365124179919776e-09,0.7584023221776534
3.367159825316315e-09,2.558564298247266,3.367159825316315e-09,9.812684256302915e-05,3.367159825316315e-09,9.813138592049348e-05,3.367159825316315e-09,0.001706536416505601,3.367159825316315e-09,0.7595332362868418
3.368520895284456e-09,3.067630629507207,3.368520895284456e-09,9.81247542709485e-05,3.368520895284456e-09,9.812998497084341e-05,3.368520895284456e-09,0.001559886610981482,3.368520895284456e-09,0.760289386269142
