/net039 X,/net039 Y,/net010 X,/net010 Y,/net09 X,/net09 Y,/net08 X,/net08 Y,/net02 X,/net02 Y
0,0.000212300613832478,0,0.0002123006138325642,0,0.0002123006137838065,0,0.0001420278460696562,0,0
1.5e-11,0.0002123006138325831,1.5e-11,0.0002123006138325655,1.5e-11,0.0002123006137835266,1.5e-11,0.0001420278460754532,1.5e-11,0
4.5e-11,0.0002123006138328535,4.5e-11,0.0002123006138326175,4.5e-11,0.0002123006137837306,4.5e-11,0.0001420278460679086,4.5e-11,0
1.05e-10,0.0002123006138307608,1.05e-10,0.0002123006138340186,1.05e-10,0.0002123006137847284,1.05e-10,0.0001420278460695907,1.05e-10,0
2.25e-10,0.0002123006138376274,2.25e-10,0.0002123006138308533,2.25e-10,0.0002123006137812476,2.25e-10,0.000142027846071142,2.25e-10,0
4.65e-10,0.0002123006138273622,4.65e-10,0.0002123006138370348,4.65e-10,0.0002123006137843953,4.65e-10,0.0001420278460681714,4.65e-10,0
7.649999999999999e-10,0.0002123006138374271,7.649999999999999e-10,0.0002123006138280222,7.649999999999999e-10,0.0002123006137815041,7.649999999999999e-10,0.0001420278460713847,7.649999999999999e-10,0
1.065e-09,0.0002123006138246677,1.065e-09,0.0002123006138366779,1.065e-09,0.0002123006137844975,1.065e-09,0.0001420278460679014,1.065e-09,0
1.365e-09,0.000212300613840035,1.365e-09,0.0002123006138246988,1.365e-09,0.0002123006137879616,1.365e-09,0.0001420278460716786,1.365e-09,0
1.665e-09,0.0002123006138252345,1.665e-09,0.0002123006138400633,1.665e-09,0.0002123006137781326,1.665e-09,0.0001420278460679802,1.665e-09,0
1.8325e-09,0.0002123006138397041,1.8325e-09,0.0002123006138250514,1.8325e-09,0.0002123006137873744,1.8325e-09,0.0001420278460716138,1.8325e-09,0
2e-09,0.000212300613828565,2e-09,0.0002123006138397603,2e-09,0.0002123006137785691,2e-09,0.0001420278460681268,2e-09,0
2.120144127384571e-09,0.0002123006138325863,2.120144127384571e-09,0.0002123006138327446,2.120144127384571e-09,0.00021230061378357,2.120144127384571e-09,0.0001420278460675926,2.120144127384571e-09,0.06674673743587282
2.261585129605973e-09,0.0002123006138341618,2.261585129605973e-09,0.0002123006138307939,2.261585129605973e-09,0.0002123006137844021,2.261585129605973e-09,0.0001420278461002396,2.261585129605973e-09,0.1453250720033182
2.400273538304042e-09,0.0002123006138341105,2.400273538304042e-09,0.0002123006138369781,2.400273538304042e-09,0.0002123006137780948,2.400273538304042e-09,0.0001420278460511322,2.400273538304042e-09,0.2223741879466899
2.453463300349017e-09,0.0002123006138310125,2.453463300349017e-09,0.0002123006138281915,2.453463300349017e-09,0.0002123006137902427,2.453463300349017e-09,0.0001420278457039128,2.453463300349017e-09,0.2519240557494536
2.480058181371504e-09,0.0002123006138338894,2.480058181371504e-09,0.0002123006138356538,2.480058181371504e-09,0.0002123006137801786,2.480058181371504e-09,0.0001420278477152075,2.480058181371504e-09,0.2666989896508354
2.533247943416478e-09,0.0002123006138281513,2.533247943416478e-09,0.0002123006138291442,2.533247943416478e-09,0.0002123006137848095,2.533247943416478e-09,0.0001420278440216641,2.533247943416478e-09,0.2962488574535991
2.554663671169691e-09,0.0002123006138357013,2.554663671169691e-09,0.0002123006138348252,2.554663671169691e-09,0.0002123006137922559,2.554663671169691e-09,0.0001420278473328795,2.554663671169691e-09,0.3081464839831617
2.582024960817689e-09,0.000212300613829692,2.582024960817689e-09,0.0002123006138329229,2.582024960817689e-09,0.0002123006137764267,2.582024960817689e-09,0.0001420278464411723,2.582024960817689e-09,0.3233472004542714
2.612116340161683e-09,0.0002123006138351921,2.612116340161683e-09,0.0002123006138317389,2.612116340161683e-09,0.0002123006137870315,2.612116340161683e-09,0.000142027844361959,2.612116340161683e-09,0.3400646334231573
2.637363130041748e-09,0.0002123006138300599,2.637363130041748e-09,0.0002123006138329028,2.637363130041748e-09,0.0002123006137943097,2.637363130041748e-09,0.0001420278486703957,2.637363130041748e-09,0.3540906278009713
2.649986524981781e-09,0.0002123006138340287,2.649986524981781e-09,0.0002123006138322298,2.649986524981781e-09,0.0002123006137548018,2.649986524981781e-09,0.000142027843446603,2.649986524981781e-09,0.3611036249898782
2.673424719986052e-09,0.0002123006138333643,2.673424719986052e-09,0.0002123006138325055,2.673424719986052e-09,0.0002123006138155788,2.673424719986052e-09,0.000142027848133835,2.673424719986052e-09,0.3741248444366953
2.694406342672017e-09,0.0002123006138323556,2.694406342672017e-09,0.0002123006138320732,2.694406342672017e-09,0.0002123006137553161,2.694406342672017e-09,0.0001420278446651039,2.694406342672017e-09,0.3857813014844541
2.722078974997991e-09,0.0002123006138299565,2.722078974997991e-09,0.0002123006138329569,2.722078974997991e-09,0.0002123006138111134,2.722078974997991e-09,0.0001420278470334173,2.722078974997991e-09,0.4011549861099952
2.751024321147999e-09,0.000212300613837536,2.751024321147999e-09,0.000212300613831827,2.751024321147999e-09,0.0002123006137612778,2.751024321147999e-09,0.0001420278454535541,2.751024321147999e-09,0.4172357339711108
2.784609072733076e-09,0.0002123006138279946,2.784609072733076e-09,0.000212300613832944,2.784609072733076e-09,0.0002123006138019379,2.784609072733076e-09,0.000142027846439971,2.784609072733076e-09,0.4358939292961535
2.814953918956442e-09,0.0002123006138366268,2.814953918956442e-09,0.000212300613831871,2.814953918956442e-09,0.0002123006137671545,2.814953918956442e-09,0.0001420278459171071,2.814953918956442e-09,0.4527521771980232
2.846783281631814e-09,0.0002123006138289248,2.846783281631814e-09,0.0002123006138328661,2.846783281631814e-09,0.0002123006137960033,2.846783281631814e-09,0.0001420278460593838,2.846783281631814e-09,0.470435156462119
2.862697962969501e-09,0.0002123006138376879,2.862697962969501e-09,0.0002123006138348311,2.862697962969501e-09,0.000212300613778211,2.862697962969501e-09,0.0001420278463044863,2.862697962969501e-09,0.479276646094167
2.891504374970906e-09,0.0002123006138275923,2.891504374970906e-09,0.0002123006138273316,2.891504374970906e-09,0.0002123006137895185,2.891504374970906e-09,0.0001420278457555204,2.891504374970906e-09,0.4952802083171699
2.916617373585455e-09,0.0002123006138367988,2.916617373585455e-09,0.0002123006138366852,2.916617373585455e-09,0.0002123006137816089,2.916617373585455e-09,0.0001420278464461294,2.916617373585455e-09,0.5092318742141414
2.966843370814552e-09,0.0002123006138282403,2.966843370814552e-09,0.0002123006138283952,2.966843370814552e-09,0.0002123006137806477,2.966843370814552e-09,0.000142027845670667,2.966843370814552e-09,0.5371352060080847
3.012660784492293e-09,0.0002123006138366418,3.012660784492293e-09,0.000212300613836004,3.012660784492293e-09,0.0002123006137856136,3.012660784492293e-09,0.0001420278464870961,3.012660784492293e-09,0.5625893247179403
3.055423607556769e-09,0.0002123006138289714,3.055423607556769e-09,0.0002123006138319261,3.055423607556769e-09,0.0002123006137797346,3.055423607556769e-09,0.0001420278456363194,3.055423607556769e-09,0.5863464486426492
3.066168766880152e-09,0.0002123006138344216,3.066168766880152e-09,0.0002123006138327147,3.066168766880152e-09,0.0002123006137874111,3.066168766880152e-09,0.0001420278465292261,3.066168766880152e-09,0.5923159816000844
3.087659085526919e-09,0.0002123006138302272,3.087659085526919e-09,0.0002123006138347721,3.087659085526919e-09,0.0002123006137809113,3.087659085526919e-09,0.0001420278456107254,3.087659085526919e-09,0.6042550475149547
3.09417573376951e-09,0.0002123006138333734,3.09417573376951e-09,0.0002123006138315614,3.09417573376951e-09,0.0002123006137891903,3.09417573376951e-09,0.0001420278464938739,3.09417573376951e-09,0.6078754076497275
3.107209030254691e-09,0.0002123006138335675,3.107209030254691e-09,0.0002123006138334215,3.107209030254691e-09,0.0002123006137791147,3.107209030254691e-09,0.0001420278456687483,3.107209030254691e-09,0.6151161279192731
3.119749867958728e-09,0.0002123006138349862,3.119749867958728e-09,0.0002123006138316719,3.119749867958728e-09,0.0002123006137897181,3.119749867958728e-09,0.0001420278464414831,3.119749867958728e-09,0.6220832599770709
3.123694700792201e-09,0.0002123006138319377,3.123694700792201e-09,0.0002123006138328901,3.123694700792201e-09,0.0002123006137848769,3.123694700792201e-09,0.0001420278459690647,3.123694700792201e-09,0.6242748337734447
3.131584366459147e-09,0.0002123006138342149,3.131584366459147e-09,0.0002123006138341026,3.131584366459147e-09,0.0002123006137783662,3.131584366459147e-09,0.0001420278462834267,3.131584366459147e-09,0.6286579813661924
3.142459943312909e-09,0.0002123006138331988,3.142459943312909e-09,0.0002123006138312322,3.142459943312909e-09,0.000212300613783518,3.142459943312909e-09,0.0001420278457597783,3.142459943312909e-09,0.6346999685071718
3.146177368437372e-09,0.0002123006138327462,3.146177368437372e-09,0.0002123006138328457,3.146177368437372e-09,0.0002123006138381201,3.146177368437372e-09,0.0001420278472936438,3.146177368437372e-09,0.6367652046874288
3.153612218686297e-09,0.0002123006138284796,3.153612218686297e-09,0.0002123006138314014,3.153612218686297e-09,0.000212300613625517,3.153612218686297e-09,0.0001420278424984428,3.153612218686297e-09,0.6408956770479428
3.163200487457957e-09,0.0002123006138210181,3.163200487457957e-09,0.0002123006138332486,3.163200487457957e-09,0.0002123006130732806,3.163200487457957e-09,0.0001420278139766392,3.163200487457957e-09,0.6462224930321985
3.166274511451158e-09,0.0002123006137847501,3.166274511451158e-09,0.0002123006138314735,3.166274511451158e-09,0.0002123006118390792,3.166274511451158e-09,0.0001420277776597895,3.166274511451158e-09,0.647930284139532
3.172422559437559e-09,0.0002123006140693111,3.172422559437559e-09,0.0002123006138375468,3.172422559437559e-09,0.0002123006206879495,3.172422559437559e-09,0.0001420279582984693,3.172422559437559e-09,0.6513458663541993
3.181171871668685e-09,0.0002123006143007918,3.181171871668685e-09,0.0002123006138337417,3.181171871668685e-09,0.0002123006411177653,3.181171871668685e-09,0.0001420289894805686,3.181171871668685e-09,0.6562065953714918
3.190977044600969e-09,0.0002123006129110549,3.190977044600969e-09,0.0002123006138112561,3.190977044600969e-09,0.0002123005614585595,3.190977044600969e-09,0.000142027533543554,3.190977044600969e-09,0.6616539136672046
3.199385911689316e-09,0.0002123006074116238,3.199385911689316e-09,0.0002123006137160964,3.199385911689316e-09,0.0002122996077187056,3.199385911689316e-09,0.0001419934845993973,3.199385911689316e-09,0.6663255064940646
3.208120409368709e-09,0.0002123006125909593,3.208120409368709e-09,0.0002123006142308914,3.208120409368709e-09,0.0002123006954524368,3.208120409368709e-09,0.0001419819163110067,3.208120409368709e-09,0.6711780052048384
3.216054423945814e-09,0.0002123006467943456,3.216054423945814e-09,0.0002123006143737019,3.216054423945814e-09,0.0002123069494440353,3.216054423945814e-09,0.0001421789986963671,3.216054423945814e-09,0.6755857910810078
3.223059474369703e-09,0.0002123006614957741,3.223059474369703e-09,0.0002123006109713124,3.223059474369703e-09,0.0002122966050138387,3.223059474369703e-09,0.0001421080503858544,3.223059474369703e-09,0.6794774857609458
3.231635967850818e-09,0.0002123005573835876,3.231635967850818e-09,0.0002123006163650238,3.231635967850818e-09,0.0002122957296770619,3.231635967850818e-09,0.0001419168867176593,3.231635967850818e-09,0.6842422043615658
3.240297330693131e-09,0.0002123005459756133,3.240297330693131e-09,0.0002123006139569465,3.240297330693131e-09,0.0002123042112217641,3.240297330693131e-09,0.000141990818164638,3.240297330693131e-09,0.6890540726072948
3.248947485196261e-09,0.0002123005549898696,3.248947485196261e-09,0.0002123006119914419,3.248947485196261e-09,0.0002123009047414732,3.248947485196261e-09,0.0001420193963477277,3.248947485196261e-09,0.6938597139979228
3.256366733714252e-09,0.0002123005006981665,3.256366733714252e-09,0.0002123006148854159,3.256366733714252e-09,0.0002123011564651511,3.256366733714252e-09,0.0001420323362131995,3.256366733714252e-09,0.6979815187301397
3.263981075629367e-09,0.0002123004123315193,3.263981075629367e-09,0.000212300612750732,3.263981075629367e-09,0.0002122997378296414,3.263981075629367e-09,0.000141995804772863,3.263981075629367e-09,0.702211708682982
3.270060116620728e-09,0.0002122993735137114,3.270060116620728e-09,0.0002123006095415422,3.270060116620728e-09,0.0002122978118452283,3.270060116620728e-09,0.0001418800335914559,3.270060116620728e-09,0.7055889536781825
3.275259043967669e-09,0.0002122931634505986,3.275259043967669e-09,0.0002123005823499062,3.275259043967669e-09,0.000212296592653433,3.275259043967669e-09,0.0001415813376880444,3.275259043967669e-09,0.7084772466487047
3.279570336063506e-09,0.0002122808475998066,3.279570336063506e-09,0.000212300548269115,3.279570336063506e-09,0.0002123017583089632,3.279570336063506e-09,0.0001411488043856512,3.279570336063506e-09,0.7108724089241698
3.283876467081151e-09,0.0002123253035902016,3.283876467081151e-09,0.0002123008913472238,3.283876467081151e-09,0.0002123101967924911,3.283876467081151e-09,0.0001418999209342461,3.283876467081151e-09,0.7132647039339726
3.287518552203439e-09,0.0002126698261446592,3.287518552203439e-09,0.0002123028453263235,3.287518552203439e-09,0.0002123149160185876,3.287518552203439e-09,0.0001497890152967304,3.287518552203439e-09,0.7152880845574657
3.291301139039015e-09,0.0002133363412130074,3.291301139039015e-09,0.0002123045057779665,3.291301139039015e-09,0.0002123128044063389,3.291301139039015e-09,0.0001698126807904035,3.291301139039015e-09,0.7173895216883418
3.293771096442586e-09,0.0002132830528555921,3.293771096442586e-09,0.0002123002900502634,3.293771096442586e-09,0.0002123075777633136,3.293771096442586e-09,0.0001773970065865219,3.293771096442586e-09,0.718761720245881
3.296373705411951e-09,0.0002124667243258795,3.296373705411951e-09,0.0002122936021334956,3.296373705411951e-09,0.0002123058628494089,3.296373705411951e-09,0.000149641377445901,3.296373705411951e-09,0.7202076141177507
3.298796742414795e-09,0.0002117024181779288,3.298796742414795e-09,0.0002122927223541044,3.298796742414795e-09,0.0002123012580093603,3.298796742414795e-09,5.45174399512887e-05,3.298796742414795e-09,0.7215537457859972
3.302109846638275e-09,0.0002106026809625059,3.302109846638275e-09,0.0002122990520985511,3.302109846638275e-09,0.0002122795295114028,3.302109846638275e-09,-0.0002978205933334075,3.302109846638275e-09,0.7233943592434861
3.305652668416778e-09,0.0002052189618481734,3.305652668416778e-09,0.000212309553523112,3.305652668416778e-09,0.0002122718914092289,3.305652668416778e-09,-0.0008424199758465129,3.305652668416778e-09,0.7253625935648768
3.308649412826885e-09,0.0001996377360673457,3.308649412826885e-09,0.000212316480248785,3.308649412826885e-09,0.0002122882781424454,3.308649412826885e-09,-0.0009645318388684876,3.308649412826885e-09,0.7270274515704919
3.311764160216895e-09,0.0002000047890777654,3.311764160216895e-09,0.0002122996675643512,3.311764160216895e-09,0.0002122963887424148,3.311764160216895e-09,-0.000755201418793077,3.311764160216895e-09,0.7287578667871637
3.314514010828693e-09,0.0002088605159939487,3.314514010828693e-09,0.0002122897867706282,3.314514010828693e-09,0.0002122966307290674,3.314514010828693e-09,-0.0004494593380731915,3.314514010828693e-09,0.7302855615714964
3.31740003512659e-09,0.000230066004020465,3.31740003512659e-09,0.0002122937863576957,3.31740003512659e-09,0.0002122982251661037,3.31740003512659e-09,-0.0001456380320264396,3.31740003512659e-09,0.7318889084036612
3.320783705197583e-09,0.0002727773702050042,3.320783705197583e-09,0.0002123134324326425,3.320783705197583e-09,0.0002122977636528367,3.320783705197583e-09,-0.0001195597391073011,3.320783705197583e-09,0.7337687251097684
3.323399019501675e-09,0.0003244390749949399,3.323399019501675e-09,0.0002123280200911347,3.323399019501675e-09,0.0002123011855308024,3.323399019501675e-09,-0.0005008418699660229,3.323399019501675e-09,0.7352216775009303
3.326172079150949e-09,0.0004099050187055463,3.326172079150949e-09,0.0002123215971477647,3.326172079150949e-09,0.0002123070261338018,3.326172079150949e-09,-0.001292352255103292,3.326172079150949e-09,0.7367622661949718
3.329847816921257e-09,0.0001794867693619818,3.329847816921257e-09,0.0002122860522503607,3.329847816921257e-09,0.0002123184413120548,3.329847816921257e-09,-0.002434682654788345,3.329847816921257e-09,0.7388043427340315
3.332740387233957e-09,-0.002702835776152177,3.332740387233957e-09,0.000212255645973345,3.332740387233957e-09,0.0002123203334501256,3.332740387233957e-09,-0.00309011041667171,3.332740387233957e-09,0.7404113262410874
3.33585070439231e-09,-0.008992336805295932,3.33585070439231e-09,0.000212238845167218,3.33585070439231e-09,0.000212315406355578,3.33585070439231e-09,-0.003349423716511513,3.33585070439231e-09,0.7421392802179503
3.338962869304647e-09,-0.005482100675147281,3.338962869304647e-09,0.0002122480318747572,3.338962869304647e-09,0.0002123094140956628,3.338962869304647e-09,-0.002996084526828473,3.338962869304647e-09,0.7438682607248037
3.341772513909111e-09,0.03197862845226784,3.341772513909111e-09,0.0002122809837312793,3.341772513909111e-09,0.0002123015040357017,3.341772513909111e-09,-0.002192324495174218,3.341772513909111e-09,0.7454291743939504
3.344597363911973e-09,0.1161513995246487,3.344597363911973e-09,0.000212309475837707,3.344597363911973e-09,0.0002122861067218057,3.344597363911973e-09,-0.001464650279391287,3.344597363911973e-09,0.7469985355066519
3.346859688075498e-09,0.2056740563034684,3.346859688075498e-09,0.0002123388313084422,3.346859688075498e-09,0.000212289222325344,3.346859688075498e-09,-0.0008371994450766638,3.346859688075498e-09,0.7482553822641652
3.349551011731722e-09,0.3248698249872055,3.349551011731722e-09,0.0002123611396875812,3.349551011731722e-09,0.0002122996466170917,3.349551011731722e-09,0.0002250168915329919,3.349551011731722e-09,0.7497505620731787
3.352493523885435e-09,0.4654711577831302,3.352493523885435e-09,0.0002123462494984802,3.352493523885435e-09,0.0002122927396630561,3.352493523885435e-09,0.001373325318567201,3.352493523885435e-09,0.7513852910474641
3.356631728757424e-09,0.6518549676766555,3.356631728757424e-09,0.0002123177603746551,3.356631728757424e-09,0.0002122908940715519,3.356631728757424e-09,0.00254888535628316,3.356631728757424e-09,0.7536842937541246
3.359625793667671e-09,0.7540891481386075,3.359625793667671e-09,0.0002123051397692363,3.359625793667671e-09,0.0002122934181770961,3.359625793667671e-09,0.002921071597844661,3.359625793667671e-09,0.755347663148706
3.362416265240189e-09,0.8185502853225463,3.362416265240189e-09,0.0002123021094770337,3.362416265240189e-09,0.0002122995828963854,3.362416265240189e-09,0.002943218109455793,3.362416265240189e-09,0.7568979251334381
3.365136720650492e-09,0.8905637681506051,3.365136720650492e-09,0.0002123033605322029,3.365136720650492e-09,0.0002123049473253233,3.365136720650492e-09,0.002765541400604442,3.365136720650492e-09,0.7584092892502736
3.368556858158944e-09,1.128417002415627,3.368556858158944e-09,0.0002123024289118553,3.368556858158944e-09,0.0002123074641971318,3.368556858158944e-09,0.002383614563865637,3.368556858158944e-09,0.7603093656438578
3.371057473020543e-09,1.54823741361045,3.371057473020543e-09,0.0002123021931117068,3.371057473020543e-09,0.0002123077917298152,3.371057473020543e-09,0.002066997949961309,3.371057473020543e-09,0.761698596122524
3.37319586834676e-09,2.149583346640946,3.37319586834676e-09,0.0002123004442896536,3.37319586834676e-09,0.0002123069348414021,3.37319586834676e-09,0.001817224053414528,3.37319586834676e-09,0.762886593525978
3.37550305739232e-09,2.950866896702934,3.37550305739232e-09,0.0002122988492479186,3.37550305739232e-09,0.0002123051378154315,3.37550305739232e-09,0.001577343070001413,3.37550305739232e-09,0.7641683652179554
3.377506614394727e-09,3.619197995528743,3.377506614394727e-09,0.0002122963600745266,3.377506614394727e-09,0.0002123030504353691,3.377506614394727e-09,0.001390705512554605,3.377506614394727e-09,0.7652814524415151
