/net039 X,/net039 Y,/net010 X,/net010 Y,/net09 X,/net09 Y,/net08 X,/net08 Y,/net02 X,/net02 Y
0,0.0004580382184677756,0,0.0004580382184657528,0,0.0004580382151144237,0,0.0002660005032016951,0,0
1.5e-11,0.0004580382184676843,1.5e-11,0.0004580382184658625,1.5e-11,0.0004580382151144587,1.5e-11,0.0002660005031859994,1.5e-11,0
4.5e-11,0.0004580382184678362,4.5e-11,0.0004580382184657665,4.5e-11,0.0004580382151145847,4.5e-11,0.0002660005032093938,4.5e-11,0
1.05e-10,0.0004580382184639792,1.05e-10,0.0004580382184669931,1.05e-10,0.0004580382151131324,1.05e-10,0.0002660005032003714,1.05e-10,0
2.25e-10,0.0004580382184707476,2.25e-10,0.0004580382184670644,2.25e-10,0.0004580382151131922,2.25e-10,0.000266000503201243,2.25e-10,0
4.65e-10,0.0004580382184638677,4.65e-10,0.0004580382184639574,4.65e-10,0.0004580382151163498,4.65e-10,0.0002660005032029173,4.65e-10,0
7.649999999999999e-10,0.000458038218470491,7.649999999999999e-10,0.0004580382184672674,7.649999999999999e-10,0.0004580382151134282,7.649999999999999e-10,0.0002660005032000172,7.649999999999999e-10,0
1.065e-09,0.0004580382184643642,1.065e-09,0.0004580382184636748,1.065e-09,0.0004580382151164586,1.065e-09,0.0002660005032040853,1.065e-09,0
1.365e-09,0.0004580382184699059,1.365e-09,0.0004580382184703206,1.365e-09,0.0004580382151101235,1.365e-09,0.0002660005031992814,1.365e-09,0
1.665e-09,0.0004580382184678876,1.665e-09,0.0004580382184609944,1.665e-09,0.0004580382151199677,1.665e-09,0.0002660005032049385,1.665e-09,0
1.8325e-09,0.0004580382184668787,1.8325e-09,0.0004580382184695119,1.8325e-09,0.0004580382151098522,1.8325e-09,0.0002660005031979798,1.8325e-09,0
2e-09,0.0004580382184680025,2e-09,0.0004580382184611853,2e-09,0.000458038215119507,2e-09,0.0002660005032056697,2e-09,0
2.120144127384571e-09,0.0004580382184675542,2.120144127384571e-09,0.0004580382184659182,2.120144127384571e-09,0.0004580382151148856,2.120144127384571e-09,0.0002660005032206119,2.120144127384571e-09,0.06674673743587282
2.261585129605973e-09,0.0004580382184670554,2.261585129605973e-09,0.0004580382184672132,2.261585129605973e-09,0.0004580382151162861,2.261585129605973e-09,0.0002660005032769933,2.261585129605973e-09,0.1453250720033182
2.400273538304042e-09,0.0004580382184708995,2.400273538304042e-09,0.0004580382184638056,2.400273538304042e-09,0.0004580382151141355,2.400273538304042e-09,0.0002660005030061117,2.400273538304042e-09,0.2223741879466899
2.452747490812783e-09,0.0004580382184645334,2.452747490812783e-09,0.0004580382184665421,2.452747490812783e-09,0.0004580382151123754,2.452747490812783e-09,0.0002660005033614961,2.452747490812783e-09,0.2515263837848795
2.478984467067154e-09,0.0004580382184698961,2.478984467067154e-09,0.0004580382184645734,2.478984467067154e-09,0.0004580382151153326,2.478984467067154e-09,0.0002660005038845363,2.478984467067154e-09,0.2661024817039742
2.531458419575895e-09,0.0004580382184647027,2.531458419575895e-09,0.0004580382184695879,2.531458419575895e-09,0.0004580382151160029,2.531458419575895e-09,0.0002660005022371189,2.531458419575895e-09,0.2952546775421637
2.561074543798065e-09,0.0004580382184692215,2.561074543798065e-09,0.0004580382184622697,2.561074543798065e-09,0.0004580382151131554,2.561074543798065e-09,0.0002660005035032705,2.561074543798065e-09,0.311708079887814
2.589021812321223e-09,0.0004580382184656364,2.589021812321223e-09,0.0004580382184681077,2.589021812321223e-09,0.0004580382151161241,2.589021812321223e-09,0.0002660005045424378,2.589021812321223e-09,0.3272343401784571
2.617440704443985e-09,0.0004580382184690636,2.617440704443985e-09,0.0004580382184627544,2.617440704443985e-09,0.0004580382151038764,2.617440704443985e-09,0.0002660005003444852,2.617440704443985e-09,0.3430226135799914
2.651180841674534e-09,0.0004580382184660281,2.651180841674534e-09,0.0004580382184679676,2.651180841674534e-09,0.0004580382151361707,2.651180841674534e-09,0.0002660005068003288,2.651180841674534e-09,0.3617671342636298
2.679149837236823e-09,0.0004580382184711265,2.679149837236823e-09,0.0004580382184662113,2.679149837236823e-09,0.0004580382150794524,2.679149837236823e-09,0.0002660004993829229,2.679149837236823e-09,0.377305465131568
2.703864819273232e-09,0.0004580382184639052,2.703864819273232e-09,0.0004580382184680378,2.703864819273232e-09,0.000458038215157509,2.703864819273232e-09,0.0002660005066370935,2.703864819273232e-09,0.3910360107073512
2.73285955072831e-09,0.0004580382184674528,2.73285955072831e-09,0.0004580382184661545,2.73285955072831e-09,0.0004580382150700941,2.73285955072831e-09,0.0002660005003691249,2.73285955072831e-09,0.4071441948490613
2.778393837046842e-09,0.0004580382184669943,2.778393837046842e-09,0.0004580382184653156,2.778393837046842e-09,0.0004580382151597153,2.778393837046842e-09,0.0002660005055984643,2.778393837046842e-09,0.4324410205815791
2.810927863247089e-09,0.0004580382184675723,2.810927863247089e-09,0.0004580382184654011,2.810927863247089e-09,0.0004580382150724007,2.810927863247089e-09,0.0002660005013978687,2.810927863247089e-09,0.4505154795817158
2.84398906288917e-09,0.0004580382184700831,2.84398906288917e-09,0.0004580382184683816,2.84398906288917e-09,0.0004580382151534283,2.84398906288917e-09,0.0002660005044657833,2.84398906288917e-09,0.4688828127162055
2.871755676623324e-09,0.000458038218464738,2.871755676623324e-09,0.0004580382184658621,2.871755676623324e-09,0.0004580382150812594,2.871755676623324e-09,0.0002660005024844122,2.871755676623324e-09,0.4843087092351802
2.900953146755291e-09,0.0004580382184696551,2.900953146755291e-09,0.0004580382184682526,2.900953146755291e-09,0.0004580382151375349,2.900953146755291e-09,0.0002660005034924723,2.900953146755291e-09,0.5005295259751615
2.928737378321231e-09,0.0004580382184652173,2.928737378321231e-09,0.0004580382184629254,2.928737378321231e-09,0.0004580382150967244,2.928737378321231e-09,0.0002660005032573918,2.928737378321231e-09,0.5159652101784614
2.98430584145311e-09,0.0004580382184660536,2.98430584145311e-09,0.0004580382184684804,2.98430584145311e-09,0.0004580382151282748,2.98430584145311e-09,0.0002660005030030677,2.98430584145311e-09,0.5468365785850612
3.031527983969112e-09,0.000458038218468197,3.031527983969112e-09,0.0004580382184626725,3.031527983969112e-09,0.0004580382151037879,3.031527983969112e-09,0.0002660005035388144,3.031527983969112e-09,0.5730711022050621
3.041767109117482e-09,0.0004580382184692591,3.041767109117482e-09,0.0004580382184673013,3.041767109117482e-09,0.0004580382151173177,3.041767109117482e-09,0.0002660005024613667,3.041767109117482e-09,0.5787595050652674
3.062245359414221e-09,0.0004580382184686447,3.062245359414221e-09,0.0004580382184634215,3.062245359414221e-09,0.0004580382151173686,3.062245359414221e-09,0.0002660005040203179,3.062245359414221e-09,0.5901363107856782
3.07117183854209e-09,0.0004580382184670402,3.07117183854209e-09,0.0004580382184648275,3.07117183854209e-09,0.0004580382151076987,3.07117183854209e-09,0.0002660005023270763,3.07117183854209e-09,0.5950954658567166
3.089024796797828e-09,0.0004580382184652749,3.089024796797828e-09,0.0004580382184685454,3.089024796797828e-09,0.000458038215123372,3.089024796797828e-09,0.0002660005040568298,3.089024796797828e-09,0.6050137759987932
3.108924455824556e-09,0.0004580382184689923,3.108924455824556e-09,0.0004580382184633351,3.108924455824556e-09,0.0004580382151054287,3.108924455824556e-09,0.0002660005023715407,3.108924455824556e-09,0.6160691421247534
3.113192401220807e-09,0.0004580382184674787,3.113192401220807e-09,0.0004580382184662435,3.113192401220807e-09,0.0004580382151241341,3.113192401220807e-09,0.0002660005038966691,3.113192401220807e-09,0.618440222900448
3.121728292013307e-09,0.0004580382184672487,3.121728292013307e-09,0.0004580382184675835,3.121728292013307e-09,0.0004580382151078785,3.121728292013307e-09,0.0002660005026583834,3.121728292013307e-09,0.6231823844518374
3.133851729286143e-09,0.0004580382184672376,3.133851729286143e-09,0.000458038218463934,3.133851729286143e-09,0.0004580382151163206,3.133851729286143e-09,0.0002660005036035592,3.133851729286143e-09,0.6299176273811903
3.138058953086108e-09,0.000458038218467837,3.138058953086108e-09,0.0004580382184682487,3.138058953086108e-09,0.0004580382151259443,3.138058953086108e-09,0.0002660005031046805,3.138058953086108e-09,0.6322549739367266
3.146473400686038e-09,0.0004580382184658243,3.146473400686038e-09,0.0004580382184655918,3.146473400686038e-09,0.0004580382150576641,3.146473400686038e-09,0.000266000501600867,3.146473400686038e-09,0.6369296670477989
3.157523677759335e-09,0.0004580382184693173,3.157523677759335e-09,0.000458038218465736,3.157523677759335e-09,0.0004580382149600066,3.157523677759335e-09,0.0002660004908963452,3.157523677759335e-09,0.6430687098662973
3.161237315661796e-09,0.0004580382184509161,3.161237315661796e-09,0.0004580382184664371,3.161237315661796e-09,0.000458038214347338,3.161237315661796e-09,0.0002660004718745084,3.161237315661796e-09,0.6451318420343314
3.168664591466719e-09,0.0004580382185917828,3.168664591466719e-09,0.000458038218466797,3.168664591466719e-09,0.0004580382201480358,3.168664591466719e-09,0.0002660006414057448,3.168664591466719e-09,0.6492581063703995
3.178761048610942e-09,0.0004580382185323678,3.178761048610942e-09,0.0004580382184661019,3.178761048610942e-09,0.0004580382256955027,3.178761048610942e-09,0.0002660012900076548,3.178761048610942e-09,0.654867249228301
3.189265906156434e-09,0.0004580382176365576,3.189265906156434e-09,0.0004580382184524331,3.189265906156434e-09,0.0004580381294728839,3.189265906156434e-09,0.0002659976721722028,3.189265906156434e-09,0.6607032811980189
3.199313598112997e-09,0.0004580382167821239,3.199313598112997e-09,0.0004580382184522567,3.199313598112997e-09,0.0004580376434765375,3.199313598112997e-09,0.0002659682753610102,3.199313598112997e-09,0.6662853322849984
3.208442552743272e-09,0.0004580382202482733,3.208442552743272e-09,0.0004580382187336895,3.208442552743272e-09,0.0004580394947215749,3.208442552743272e-09,0.0002660021473322138,3.208442552743272e-09,0.671356973746262
3.217760458859753e-09,0.0004580382473533666,3.217760458859753e-09,0.0004580382182031297,3.217760458859753e-09,0.000458040876599839,3.217760458859753e-09,0.0002661377018783391,3.217760458859753e-09,0.6765335882554184
3.225482633636689e-09,0.0004580382036951341,3.225482633636689e-09,0.0004580382171502198,3.225482633636689e-09,0.0004580319306156915,3.225482633636689e-09,0.0002659716253831486,3.225482633636689e-09,0.6808236853537163
3.227972676830589e-09,0.0004580381662836774,3.227972676830589e-09,0.0004580382202630342,3.227972676830589e-09,0.000458034016872676,3.227972676830589e-09,0.0002659215546500868,3.227972676830589e-09,0.6822070426836604
3.232952763218387e-09,0.000458038163495416,3.232952763218387e-09,0.0004580382198116264,3.232952763218387e-09,0.0004580392079383942,3.232952763218387e-09,0.0002659402885111603,3.232952763218387e-09,0.6849737573435484
3.241981087184305e-09,0.0004580382073974119,3.241981087184305e-09,0.0004580382168003687,3.241981087184305e-09,0.0004580393403026848,3.241981087184305e-09,0.0002659710211897227,3.241981087184305e-09,0.6899894928801692
3.250615245652918e-09,0.0004580382226336877,3.250615245652918e-09,0.0004580382193351434,3.250615245652918e-09,0.000458039008587817,3.250615245652918e-09,0.0002660044441160123,3.250615245652918e-09,0.6947862475849541
3.258203986725421e-09,0.0004580382189175706,3.258203986725421e-09,0.000458038217789317,3.258203986725421e-09,0.0004580380616933828,3.258203986725421e-09,0.0002660003791473238,3.258203986725421e-09,0.6990022148474563
3.265943986817025e-09,0.0004580381357477906,3.265943986817025e-09,0.0004580382188638992,3.265943986817025e-09,0.0004580380746613401,3.265943986817025e-09,0.0002659895658474825,3.265943986817025e-09,0.7033022148983474
3.272295843600056e-09,0.0004580376697583405,3.272295843600056e-09,0.0004580382158655986,3.272295843600056e-09,0.0004580360211979,3.272295843600056e-09,0.0002658973439045797,3.272295843600056e-09,0.7068310242222535
3.277897088709636e-09,0.0004580346495367493,3.277897088709636e-09,0.0004580382050392221,3.277897088709636e-09,0.0004580358263986151,3.277897088709636e-09,0.0002656893562499301,3.277897088709636e-09,0.7099428270609088
3.282271815549257e-09,0.0004580293520415111,3.282271815549257e-09,0.0004580381916095558,3.282271815549257e-09,0.0004580391036145812,3.282271815549257e-09,0.0002654375194230132,3.282271815549257e-09,0.7123732308606981
3.286605130939345e-09,0.0004580627532125665,3.286605130939345e-09,0.0004580384161366168,3.286605130939345e-09,0.0004580465784470656,3.286605130939345e-09,0.0002661905391631421,3.286605130939345e-09,0.7147806282996362
3.290370449514604e-09,0.0004582850112720179,3.290370449514604e-09,0.0004580395868733453,3.290370449514604e-09,0.0004580492456592167,3.290370449514604e-09,0.0002722388878802748,3.290370449514604e-09,0.7168724719525578
3.294171841849776e-09,0.0004587164637586243,3.294171841849776e-09,0.0004580406536784501,3.294171841849776e-09,0.0004580470836870212,3.294171841849776e-09,0.0002875037834665182,3.294171841849776e-09,0.7189843565832088
3.297982021634958e-09,0.0004585113593505607,3.297982021634958e-09,0.0004580363576049686,3.297982021634958e-09,0.0004580392677707132,3.297982021634958e-09,0.0002874362038987587,3.297982021634958e-09,0.721101123130532
3.300717841800637e-09,0.0004577557483593804,3.300717841800637e-09,0.0004580321603123406,3.300717841800637e-09,0.0004580366290375536,3.300717841800637e-09,0.0002389540810038697,3.300717841800637e-09,0.7226210232225763
3.303375560689455e-09,0.0004571545514228725,3.303375560689455e-09,0.0004580335710237778,3.303375560689455e-09,0.0004580310967020696,3.303375560689455e-09,0.0001043047224207678,3.303375560689455e-09,0.7240975337163637
3.306582616211838e-09,0.000455955016521727,3.306582616211838e-09,0.00045803980992468,3.306582616211838e-09,0.0004580165963892016,3.306582616211838e-09,-0.0002642064860756429,3.306582616211838e-09,0.7258792312287986
3.310277863094167e-09,0.0004513545921657305,3.310277863094167e-09,0.0004580480999954979,3.310277863094167e-09,0.000458017752301737,3.310277863094167e-09,-0.0006845197744566333,3.310277863094167e-09,0.7279321461634258
3.314011879709057e-09,0.0004489234816708625,3.314011879709057e-09,0.000458044929205689,3.314011879709057e-09,0.000458032505973142,3.314011879709057e-09,-0.0006829078089959033,3.314011879709057e-09,0.7300065998383652
3.317056423038702e-09,0.0004538863647098225,3.317056423038702e-09,0.0004580295772722478,3.317056423038702e-09,0.0004580363414177102,3.317056423038702e-09,-0.0004400822393979144,3.317056423038702e-09,0.7316980127992787
3.319940799940797e-09,0.0004671407054689354,3.319940799940797e-09,0.000458028222951081,3.319940799940797e-09,0.0004580386555677187,3.319940799940797e-09,-0.000150393060295916,3.319940799940797e-09,0.7333004444115541
3.323047110042958e-09,0.0004921920222789366,3.323047110042958e-09,0.000458038107226602,3.323047110042958e-09,0.000458040134246586,3.323047110042958e-09,5.825488245994238e-05,3.323047110042958e-09,0.7350261722460879
3.3259872631881e-09,0.0005236084932449129,3.3259872631881e-09,0.0004580543326086171,3.3259872631881e-09,0.0004580412188772408,3.3259872631881e-09,-5.33245748035766e-05,3.3259872631881e-09,0.7366595906600554
3.328616849620631e-09,0.0005601219389113547,3.328616849620631e-09,0.0004580603225465634,3.328616849620631e-09,0.0004580442366872062,3.328616849620631e-09,-0.0005336677447212796,3.328616849620631e-09,0.7381204720114618
3.33158621459101e-09,0.0005974887043467877,3.33158621459101e-09,0.0004580451917504578,3.33158621459101e-09,0.0004580499129197499,3.33158621459101e-09,-0.001410583562328203,3.33158621459101e-09,0.7397701192172276
3.335003209173273e-09,2.499400985439419e-05,3.335003209173273e-09,0.000458015911011699,3.335003209173273e-09,0.0004580565785068039,3.335003209173273e-09,-0.002383657470476668,3.335003209173273e-09,0.7416684495407071
3.338002412411988e-09,-0.003272698690529432,3.338002412411988e-09,0.0004579950475268196,3.338002412411988e-09,0.000458053717806025,3.338002412411988e-09,-0.002951809138754755,3.338002412411988e-09,0.7433346735622156
3.341163186300124e-09,-0.007766027343439276,3.341163186300124e-09,0.0004579887165193077,3.341163186300124e-09,0.0004580468451239475,3.341163186300124e-09,-0.003084784205404257,3.341163186300124e-09,0.7450906590556244
3.344386489923174e-09,0.00401833076008595,3.344386489923174e-09,0.0004580073624093049,3.344386489923174e-09,0.0004580404305074989,3.344386489923174e-09,-0.002586262473325926,3.344386489923174e-09,0.746881383290652
3.347335019060257e-09,0.05278204785881384,3.347335019060257e-09,0.0004580393359808772,3.347335019060257e-09,0.0004580311465601799,3.347335019060257e-09,-0.001745228180702147,3.347335019060257e-09,0.7485194550334763
3.35003915859898e-09,0.135082823597924,3.35003915859898e-09,0.0004580620782004098,3.35003915859898e-09,0.00045802102562369,3.35003915859898e-09,-0.001119987089170824,3.35003915859898e-09,0.7500217547772109
3.352375314014264e-09,0.2222698735398758,3.352375314014264e-09,0.0004580860899769799,3.352375314014264e-09,0.000458028711435575,3.352375314014264e-09,-0.0004980361924907645,3.352375314014264e-09,0.7513196188968134
3.355148189203267e-09,0.3384487776474301,3.355148189203267e-09,0.0004580960527146176,3.355148189203267e-09,0.0004580376964389424,3.355148189203267e-09,0.000537239720868007,3.355148189203267e-09,0.7528601051129262
3.358279196162122e-09,0.4800118578988536,3.358279196162122e-09,0.0004580739753335734,3.358279196162122e-09,0.0004580306377783157,3.358279196162122e-09,0.001651094318033592,3.358279196162122e-09,0.7545995534234009
3.36123570396919e-09,0.6090822268919339,3.36123570396919e-09,0.0004580540379319017,3.36123570396919e-09,0.0004580307888699862,3.36123570396919e-09,0.002450460609453785,3.36123570396919e-09,0.7562420577606612
3.364302881698545e-09,0.7180339557019242,3.364302881698545e-09,0.0004580413327506817,3.364302881698545e-09,0.0004580333739582295,3.364302881698545e-09,0.002876814921012816,3.364302881698545e-09,0.7579460453880806
3.36704587294106e-09,0.7873985555113963,3.36704587294106e-09,0.0004580380318578428,3.36704587294106e-09,0.0004580391153911843,3.36704587294106e-09,0.002956653384753197,3.36704587294106e-09,0.7594699294117002
3.369857896378021e-09,0.8515074308991192,3.369857896378021e-09,0.0004580379798090578,3.369857896378021e-09,0.0004580435315334772,3.369857896378021e-09,0.002827262974986911,3.369857896378021e-09,0.7610321646544562
3.37302833489654e-09,1.002760557344471,3.37302833489654e-09,0.0004580366816646644,3.37302833489654e-09,0.000458045278937243,3.37302833489654e-09,0.00252813159366663,3.37302833489654e-09,0.7627935193869664
3.375843176324831e-09,1.348370004807768,3.375843176324831e-09,0.0004580355481470355,3.375843176324831e-09,0.0004580447998834238,3.375843176324831e-09,0.002197478669159105,3.375843176324831e-09,0.764357320180462
3.378088136456599e-09,1.870081106476502,3.378088136456599e-09,0.0004580339720522152,3.378088136456599e-09,0.00045804369776675,3.378088136456599e-09,0.001946454373456875,3.378088136456599e-09,0.7656045202536659
3.380280673322449e-09,2.570647905730736,3.380280673322449e-09,0.0004580325549919858,3.380280673322449e-09,0.0004580419156186663,3.380280673322449e-09,0.001722052182417133,3.380280673322449e-09,0.7668225962902495
3.381801052043543e-09,3.100839683826183,3.381801052043543e-09,0.000458030947379789,3.381801052043543e-09,0.0004580403076888295,3.381801052043543e-09,0.00158242850680866,3.381801052043543e-09,0.7676672511353014
3.383624142254926e-09,3.67592281767402,3.383624142254926e-09,0.0004580300349604069,3.383624142254926e-09,0.0004580388935926362,3.383624142254926e-09,0.001426828864727379,3.383624142254926e-09,0.7686800790305144
3.385169774638059e-09,4.045175239535785,3.385169774638059e-09,0.0004580290347691855,3.385169774638059e-09,0.000458037661792094,3.385169774638059e-09,0.001306963284377386,3.385169774638059e-09,0.7695387636878107
