/out0 X,/out0 Y,/out1 X,/out1 Y,/Vin X,/Vin Y,/out2 X,/out2 Y
0,0.1852738841191383,0,0.2476876752369545,0,0.45,0,0.216154556790902
2e-05,0.1852820376118946,2e-05,0.2476877732410343,2e-05,0.4506266661678215,2e-05,0.2161545683229011
4e-05,0.1852902223645493,4e-05,0.2476878717197281,4e-05,0.4512434494358243,4e-05,0.2161545717943736
6.000000000000001e-05,0.1852981940032175,6.000000000000001e-05,0.2476879676466317,6.000000000000001e-05,0.4518406227634234,6.000000000000001e-05,0.2161545751619942
8.000000000000001e-05,0.1853058572428493,8.000000000000001e-05,0.2476880598819739,8.000000000000001e-05,0.4524087683705086,8.000000000000001e-05,0.2161545784025953
0.0001,0.1853130781822025,0.0001,0.2476881468153768,0.0001,0.4529389262614624,0.0001,0.2161545814530431
0.00012,0.1853197284970455,0.00012,0.247688226888458,0.00012,0.4534227355296435,0.00012,0.2161545842685443
0.00014,0.1853256854575569,0.00014,0.2476882986367774,0.00014,0.453852566213879,0.00014,0.2161545867842364
0.00016,0.1853308379722411,0.00016,0.2476883606953627,0.00016,0.4542216396275101,0.00016,0.216154588966801
0.00018,0.1853350865703578,0.00018,0.2476884118857151,0.00018,0.4545241352623301,0.00018,0.2161545907647935
0.0002,0.1853383492054299,0.0002,0.247688451191094,0.0002,0.4547552825814758,0.0002,0.2161545921451163
0.00022,0.1853405606571592,0.00022,0.2476884778508767,0.00022,0.4549114362536434,0.00022,0.2161545930814766
0.00024,0.1853416775733072,0.00024,0.2476884913054203,0.00024,0.4549901336421414,0.00024,0.2161545935542419
0.00026,0.1853416767691493,0.00026,0.247688491316932,0.00026,0.4549901336421414,0.00026,0.2161545935572101
0.00028,0.1853405590173723,0.00028,0.2476884778394246,0.00028,0.4549114362536434,0.00028,0.216154593082673
0.0003,0.1853383459930383,0.0003,0.2476884512038809,0.0003,0.4547552825814758,0.0003,0.2161545921532243
0.00032,0.1853350825968751,0.00032,0.2476884118764763,0.00032,0.4545241352623301,0.00032,0.2161545907659861
0.00034,0.1853308325419996,0.00034,0.2476883607065833,0.00034,0.4542216396275101,0.00034,0.2161545889775121
0.00036,0.1853256794093765,0.00036,0.2476882986304666,0.00036,0.453852566213879,0.00036,0.2161545867898977
0.00038,0.1853197211699725,0.00038,0.247688226898511,0.00038,0.4534227355296435,0.00038,0.2161545842818987
0.0004,0.1853130704473179,0.0004,0.2476881468080982,0.0004,0.4529389262614624,0.0004,0.2161545814579775
0.00042,0.1853058484640217,0.00042,0.2476880598888382,0.00042,0.4524087683705086,0.00042,0.2161545784221877
0.00044,0.1852981850754323,0.00044,0.247687967638124,0.00044,0.4518406227634234,0.00044,0.2161545751650818
0.00046,0.1852902126991988,0.00046,0.2476878717224253,0.00046,0.4512434494358243,0.00046,0.216154571816807
0.00048,0.1852820665711252,0.00048,0.2476877737030642,0.00048,0.4506266661678215,0.00048,0.2161545683560407
0.0005,0.1852738791184249,0.0005,0.2476876752436359,0.0005,0.45,0.0005,0.2161545649190294
0.0005200000000000001,0.185265780696213,0.0005200000000000001,0.247687577837605,0.0005200000000000001,0.4493733338321785,0.0005200000000000001,0.2161545614770566
0.0005400000000000001,0.1852578946552031,0.0005400000000000001,0.2476874830375915,0.0005400000000000001,0.4487565505641757,0.0005400000000000001,0.2161545581700162
0.0005600000000000002,0.1852503387007825,0.0005600000000000002,0.2476873921942602,0.0005600000000000002,0.4481593772365766,0.0005600000000000002,0.2161545549577269
0.0005800000000000002,0.1852432206152901,0.0005800000000000002,0.2476873066665989,0.0005800000000000002,0.4475912316294914,0.0005800000000000002,0.2161545519764802
0.0006000000000000003,0.1852366402744121,0.0006000000000000003,0.2476872275744393,0.0006000000000000003,0.4470610737385377,0.0006000000000000003,0.2161545491795287
0.0006200000000000003,0.1852306858932933,0.0006200000000000003,0.2476871560576855,0.0006200000000000003,0.4465772644703566,0.0006200000000000003,0.2161545466858742
0.0006400000000000004,0.1852254365523749,0.0006400000000000004,0.247687092976649,0.0006400000000000004,0.446147433786121,0.0006400000000000004,0.2161545444536626
0.0006600000000000004,0.1852209588561693,0.0006600000000000004,0.2476870392121839,0.0006600000000000004,0.4457783603724899,0.0006600000000000004,0.2161545425825428
0.0006800000000000005,0.1852173097546379,0.0006800000000000005,0.2476869953649776,0.0006800000000000005,0.4454758647376699,0.0006800000000000005,0.2161545410243603
0.0007000000000000005,0.1852145334583217,0.0007000000000000005,0.2476869620404058,0.0007000000000000005,0.4452447174185242,0.0007000000000000005,0.2161545398717631
0.0007200000000000006,0.185212664409082,0.0007200000000000006,0.2476869395749725,0.0007200000000000006,0.4450885637463566,0.0007200000000000006,0.2161545390653072
0.0007400000000000006,0.1852117243077534,0.0007400000000000006,0.2476869282997136,0.0007400000000000006,0.4450098663578587,0.0007400000000000006,0.216154538684586
0.0007600000000000007,0.1852117251098084,0.0007600000000000007,0.2476869282805834,0.0007600000000000007,0.4450098663578587,0.0007600000000000007,0.216154538666537
0.0007800000000000007,0.1852126660547001,0.0007800000000000007,0.2476869395946397,0.0007800000000000007,0.4450885637463566,0.0007800000000000007,0.2161545390801329
0.0008000000000000008,0.1852145366661166,0.0008000000000000008,0.247686962025763,0.0008000000000000008,0.4452447174185242,0.0008000000000000008,0.2161545398501688
0.0008200000000000008,0.1852173137320258,0.0008200000000000008,0.2476869953903011,0.0008200000000000008,0.4454758647376699,0.0008200000000000008,0.216154541038327
0.0008400000000000009,0.1852209642843599,0.0008400000000000009,0.2476870391979706,0.0008400000000000009,0.44577836037249,0.0008400000000000009,0.2161545425563197
0.000860000000000001,0.1852254426062269,0.000860000000000001,0.2476870930077451,0.000860000000000001,0.4461474337861211,0.000860000000000001,0.2161545444666777
0.000880000000000001,0.1852306932175941,0.000880000000000001,0.2476871560435088,0.000880000000000001,0.4465772644703566,0.000880000000000001,0.2161545466570036
0.0009000000000000011,0.1852366480110567,0.0009000000000000011,0.2476872276023789,0.0009000000000000011,0.4470610737385377,0.0009000000000000011,0.2161545491902757
0.0009200000000000011,0.1852432293917007,0.0009200000000000011,0.2476873066596566,0.0009200000000000011,0.4475912316294915,0.0009200000000000011,0.2161545519464502
0.0009400000000000012,0.1852503476275756,0.0009400000000000012,0.2476873922178395,0.0009400000000000012,0.4481593772365767,0.0009400000000000012,0.2161545549685551
0.0009600000000000012,0.1852579043396325,0.0009600000000000012,0.2476874830342386,0.0009600000000000012,0.4487565505641758,0.0009600000000000012,0.2161545581381315
0.0009800000000000013,0.1852657902369147,0.0009800000000000013,0.2476875778558104,0.0009800000000000013,0.4493733338321785,0.0009800000000000013,0.216154561485273
0.001000000000000001,0.1852738891116284,0.001000000000000001,0.2476876752366601,0.001000000000000001,0.4500000000000001,0.001000000000000001,0.2161545648870286
0.001020000000000001,0.1852820761130969,0.001020000000000001,0.2476877737169116,0.001020000000000001,0.4506266661678216,0.001020000000000001,0.2161545683621017
0.001040000000000001,0.1852902223856047,0.001040000000000001,0.2476878717195644,0.001040000000000001,0.4512434494358243,0.001040000000000001,0.2161545717860822
0.001060000000000001,0.1852981939998952,0.001060000000000001,0.2476879676511001,0.001060000000000001,0.4518406227634235,0.001060000000000001,0.2161545751716474
0.001080000000000002,0.1853058572417387,0.001080000000000002,0.2476880598767483,0.001080000000000002,0.4524087683705086,0.001080000000000002,0.2161545783940897
0.001100000000000002,0.1853130781808292,0.001100000000000002,0.2476881468201014,0.001100000000000002,0.4529389262614624,0.001100000000000002,0.2161545814608999
0.001120000000000002,0.1853197284996316,0.001120000000000002,0.2476882268846314,0.001120000000000002,0.4534227355296435,0.001120000000000002,0.2161545842613242
0.001140000000000002,0.1853256854565745,0.001140000000000002,0.2476882986405241,0.001140000000000002,0.453852566213879,0.001140000000000002,0.2161545867905379
0.001160000000000002,0.1853308379733794,0.001160000000000002,0.247688360692149,0.001160000000000002,0.4542216396275101,0.001160000000000002,0.2161545889614589
0.001180000000000002,0.1853350865685628,0.001180000000000002,0.2476884118890175,0.001180000000000002,0.4545241352623302,0.001180000000000002,0.2161545907684336
0.001200000000000002,0.185338349206643,0.001200000000000002,0.2476884511916463,0.001200000000000002,0.4547552825814758,0.001200000000000002,0.2161545921407253
0.001220000000000002,0.1853405606565913,0.001220000000000002,0.2476884778491508,0.001220000000000002,0.4549114362536434,0.001220000000000002,0.2161545930867946
0.001240000000000002,0.1853416775763921,0.001240000000000002,0.2476884913064447,0.001240000000000002,0.4549901336421414,0.001240000000000002,0.2161545935503733
0.001260000000000002,0.1853416767641,0.001260000000000002,0.247688491315117,0.001260000000000002,0.4549901336421414,0.001260000000000002,0.2161545935606525
0.001280000000000002,0.185340559023607,0.001280000000000002,0.2476884778411037,0.001280000000000002,0.4549114362536434,0.001280000000000002,0.2161545930799707
0.001300000000000002,0.1853383459877363,0.001300000000000002,0.2476884512010311,0.001300000000000002,0.4547552825814757,0.001300000000000002,0.216154592153564
0.001320000000000002,0.1853350826025407,0.001320000000000002,0.2476884118807438,0.001320000000000002,0.4545241352623301,0.001320000000000002,0.2161545907663198
0.001340000000000002,0.185330832538486,0.001340000000000002,0.2476883607022845,0.001340000000000002,0.4542216396275101,0.001340000000000002,0.216154588979386
0.001360000000000002,0.1853256794119309,0.001360000000000002,0.2476882986304174,0.001360000000000002,0.4538525662138789,0.001360000000000002,0.2161545867891679
0.001380000000000002,0.1853197211688918,0.001380000000000002,0.2476882268963842,0.001380000000000002,0.4534227355296434,0.001380000000000002,0.2161545842818396
0.001400000000000002,0.1853130704472211,0.001400000000000002,0.2476881468116525,0.001400000000000002,0.4529389262614623,0.001400000000000002,0.216154581460299
0.001420000000000002,0.1853058484640271,0.001420000000000002,0.2476880598838667,0.001420000000000002,0.4524087683705085,0.001420000000000002,0.2161545784187274
0.001440000000000002,0.1852981850752877,0.001440000000000002,0.2476879676433197,0.001440000000000002,0.4518406227634233,0.001440000000000002,0.2161545751692261
0.001460000000000003,0.1852902126976254,0.001460000000000003,0.247687871716407,0.001460000000000003,0.4512434494358242,0.001460000000000003,0.2161545718117291
0.001480000000000003,0.1852820665728499,0.001480000000000003,0.2476877737068855,0.001480000000000003,0.4506266661678214,0.001480000000000003,0.2161545683610884
0.001500000000000003,0.1852738791153593,0.001500000000000003,0.2476876752367418,0.001500000000000003,0.45,0.001500000000000003,0.2161545649140736
0.001520000000000003,0.1852657807009582,0.001520000000000003,0.2476875778414531,0.001520000000000003,0.4493733338321784,0.001520000000000003,0.2161545614827864
0.001540000000000003,0.1852578946515241,0.001540000000000003,0.247687483034373,0.001540000000000003,0.4487565505641757,0.001540000000000003,0.2161545581659103
0.001560000000000003,0.1852503387039589,0.001560000000000003,0.2476873921988377,0.001560000000000003,0.4481593772365766,0.001560000000000003,0.2161545549649122
0.001580000000000003,0.1852432206148186,0.001580000000000003,0.2476873066607209,0.001580000000000003,0.4475912316294914,0.001580000000000003,0.2161545519687044
0.001600000000000003,0.1852366402766254,0.001600000000000003,0.2476872275776732,0.001600000000000003,0.4470610737385376,0.001600000000000003,0.2161545491861888
0.001620000000000003,0.1852306858921242,0.001620000000000003,0.2476871560538673,0.001620000000000003,0.4465772644703565,0.001620000000000003,0.2161545466780894
0.001640000000000003,0.1852254365535232,0.001640000000000003,0.2476870929759046,0.001640000000000003,0.446147433786121,0.001640000000000003,0.2161545444618094
0.001660000000000003,0.1852209588550345,0.001660000000000003,0.2476870392140971,0.001660000000000003,0.4457783603724899,0.001660000000000003,0.2161545425733433
0.001680000000000003,0.1852173097557087,0.001680000000000003,0.247686995363789,0.001680000000000003,0.4454758647376699,0.001680000000000003,0.2161545410334349
0.001700000000000003,0.1852145334571522,0.001700000000000003,0.2476869620452475,0.001700000000000003,0.4452447174185242,0.001700000000000003,0.2161545398633232
0.001720000000000003,0.1852126644107085,0.001720000000000003,0.2476869395725969,0.001720000000000003,0.4450885637463565,0.001720000000000003,0.2161545390720288
0.001740000000000003,0.1852117243073878,0.001740000000000003,0.2476869282993206,0.001740000000000003,0.4450098663578587,0.001740000000000003,0.2161545386769722
0.001760000000000003,0.1852117251094269,0.001760000000000003,0.2476869282817764,0.001760000000000003,0.4450098663578587,0.001760000000000003,0.2161545386735901
0.001780000000000003,0.185212666055073,0.001780000000000003,0.2476869395949129,0.001780000000000003,0.4450885637463566,0.001780000000000003,0.2161545390720009
0.001800000000000003,0.1852145366653562,0.001800000000000003,0.2476869620259403,0.001800000000000003,0.4452447174185243,0.001800000000000003,0.2161545398577746
0.001820000000000003,0.1852173137322613,0.001820000000000003,0.247686995389695,0.001820000000000003,0.44547586473767,0.001820000000000003,0.2161545410288454
0.001840000000000004,0.1852209642848843,0.001840000000000004,0.2476870392022208,0.001840000000000004,0.44577836037249,0.001840000000000004,0.216154542565839
0.001860000000000004,0.1852254426030974,0.001860000000000004,0.2476870930017973,0.001860000000000004,0.4461474337861212,0.001860000000000004,0.2161545444555756
0.001880000000000004,0.1852306932179376,0.001880000000000004,0.2476871560488203,0.001880000000000004,0.4465772644703567,0.001880000000000004,0.2161545466673376
0.001900000000000004,0.1852366480119739,0.001900000000000004,0.2476872276004884,0.001900000000000004,0.4470610737385378,0.001900000000000004,0.2161545491813312
0.001920000000000004,0.1852432293893543,0.001920000000000004,0.2476873066565371,0.001920000000000004,0.4475912316294915,0.001920000000000004,0.2161545519542074
0.001940000000000004,0.185250347629183,0.001940000000000004,0.2476873922202272,0.001940000000000004,0.4481593772365767,0.001940000000000004,0.2161545549588534
0.001960000000000004,0.1852579043370612,0.001960000000000004,0.2476874830337933,0.001960000000000004,0.4487565505641758,0.001960000000000004,0.2161545581473781
0.001980000000000004,0.1852657902415354,0.001980000000000004,0.247687577855991,0.001980000000000004,0.4493733338321786,0.001980000000000004,0.2161545614762971
0.002000000000000004,0.1852738891069067,0.002000000000000004,0.247687675235521,0.002000000000000004,0.4500000000000001,0.002000000000000004,0.2161545648973469
0.002020000000000004,0.1852820761175825,0.002020000000000004,0.247687773719029,0.002020000000000004,0.4506266661678217,0.002020000000000004,0.2161545683506025
0.002040000000000004,0.1852902223819242,0.002040000000000004,0.2476878717179997,0.002040000000000004,0.4512434494358244,0.002040000000000004,0.2161545717951306
0.002060000000000004,0.1852981940040939,0.002060000000000004,0.247687967649538,0.002060000000000004,0.4518406227634235,0.002060000000000004,0.2161545751603147
0.002080000000000004,0.1853058572379915,0.002080000000000004,0.2476880598776141,0.002080000000000004,0.4524087683705087,0.002080000000000004,0.2161545784058611
0.002100000000000004,0.1853130781856632,0.002100000000000004,0.2476881468233388,0.002100000000000004,0.4529389262614625,0.002100000000000004,0.2161545814497635
0.002120000000000004,0.1853197284936639,0.002120000000000004,0.2476882268822519,0.002120000000000004,0.4534227355296436,0.002120000000000004,0.2161545842693613
0.002140000000000004,0.1853256854617353,0.002140000000000004,0.2476882986438503,0.002140000000000004,0.453852566213879,0.002140000000000004,0.2161545867836219
0.002160000000000004,0.1853308379686678,0.002160000000000004,0.2476883606874466,0.002160000000000004,0.4542216396275102,0.002160000000000004,0.216154588966145
0.002180000000000004,0.1853350865757158,0.002180000000000004,0.2476884118932302,0.002180000000000004,0.4545241352623302,0.002180000000000004,0.2161545907633953
0.002200000000000004,0.1853383492003347,0.002200000000000004,0.2476884511849395,0.002200000000000004,0.4547552825814758,0.002200000000000004,0.2161545921456116
0.002220000000000005,0.1853405606623735,0.002220000000000005,0.2476884778585891,0.002220000000000005,0.4549114362536435,0.002220000000000005,0.2161545930815217
0.002240000000000005,0.1853416775688435,0.002240000000000005,0.2476884913013185,0.002240000000000005,0.4549901336421414,0.002240000000000005,0.2161545935562582
0.002260000000000005,0.1853416767735895,0.002260000000000005,0.2476884913202424,0.002260000000000005,0.4549901336421414,0.002260000000000005,0.2161545935545894
0.002280000000000005,0.1853405590122288,0.002280000000000005,0.2476884778377111,0.002280000000000005,0.4549114362536434,0.002280000000000005,0.2161545930870793
0.002300000000000005,0.1853383459994281,0.002300000000000005,0.2476884512052107,0.002300000000000005,0.4547552825814757,0.002300000000000005,0.2161545921487659
0.002320000000000005,0.1853350825904354,0.002320000000000005,0.2476884118750121,0.002320000000000005,0.45452413526233,0.002320000000000005,0.2161545907714016
0.002340000000000005,0.1853308325475912,0.002340000000000005,0.247688360707706,0.002340000000000005,0.45422163962751,0.002340000000000005,0.2161545889704556
0.002360000000000005,0.1853256794023835,0.002360000000000005,0.2476882986243449,0.002360000000000005,0.4538525662138789,0.002360000000000005,0.2161545867969056
0.002380000000000005,0.1853197211778949,0.002380000000000005,0.247688226902285,0.002380000000000005,0.4534227355296434,0.002380000000000005,0.2161545842741986
0.002400000000000005,0.1853130704389592,0.002400000000000005,0.2476881468023817,0.002400000000000005,0.4529389262614623,0.002400000000000005,0.216154581469821
0.002420000000000005,0.185305848474549,0.002420000000000005,0.2476880598944976,0.002420000000000005,0.4524087683705084,0.002420000000000005,0.2161545784088465
0.002440000000000005,0.1852981850638867,0.002440000000000005,0.247687967633321,0.002440000000000005,0.4518406227634232,0.002440000000000005,0.2161545751781461
0.002460000000000005,0.1852902127097,0.002460000000000005,0.2476878717298416,0.002460000000000005,0.4512434494358241,0.002460000000000005,0.2161545718033825
0.002480000000000005,0.1852820665624645,0.002480000000000005,0.2476877736961776,0.002480000000000005,0.4506266661678214,0.002480000000000005,0.2161545683704098
0.002500000000000005,0.1852738791258929,0.002500000000000005,0.2476876752494789,0.002500000000000005,0.4499999999999998,0.002500000000000005,0.2161545649046558
0.002520000000000005,0.1852657806886804,0.002520000000000005,0.2476875778273506,0.002520000000000005,0.4493733338321783,0.002520000000000005,0.2161545614908178
0.002540000000000005,0.1852578946643238,0.002540000000000005,0.2476874830493729,0.002540000000000005,0.4487565505641756,0.002540000000000005,0.2161545581570869
0.002560000000000005,0.1852503386914298,0.002560000000000005,0.2476873921853959,0.002560000000000005,0.4481593772365765,0.002560000000000005,0.2161545549724794
0.002580000000000005,0.1852432206263375,0.002580000000000005,0.2476873066741553,0.002580000000000005,0.4475912316294913,0.002580000000000005,0.2161545519643341
0.002600000000000006,0.1852366402660726,0.002600000000000006,0.2476872275648707,0.002600000000000006,0.4470610737385375,0.002600000000000006,0.2161545491926186
0.002620000000000006,0.1852306859008819,0.002620000000000006,0.2476871560654888,0.002620000000000006,0.4465772644703564,0.002620000000000006,0.2161545466729548
