/Vin X,/Vin Y,/out0 X,/out0 Y,/out1 X,/out1 Y,/out2 X,/out2 Y
0,0.45,0,0.1852738841191383,0,0.2476866438320902,0,0.2495451957043191
2e-05,0.45,2e-05,0.1852738841191381,2e-05,0.2476876751506125,2e-05,0.2495455164026211
4e-05,0.45,4e-05,0.1852738841191384,4e-05,0.247687675233637,4e-05,0.249545517225786
6.000000000000001e-05,0.45,6.000000000000001e-05,0.1852738841203124,6.000000000000001e-05,0.2476876752395576,6.000000000000001e-05,0.2495455172322671
8.000000000000001e-05,0.45,8.000000000000001e-05,0.1852738841171081,8.000000000000001e-05,0.2476876752343552,8.000000000000001e-05,0.2495455172258654
0.0001,0.45,0.0001,0.1852738841200739,0.0001,0.2476876752401991,0.0001,0.2495455172332173
0.00012,0.45,0.00012,0.1852738841182933,0.00012,0.2476876752326756,0.00012,0.2495455172237541
0.00014,0.45,0.00014,0.1852738841199874,0.00014,0.2476876752410999,0.00014,0.2495455172346469
0.00016,0.45,0.00016,0.1852738841177871,0.00016,0.2476876752312592,0.00016,0.2495455172250181
0.00018,0.45,0.00018,0.1852738841222183,0.00018,0.2476876752412975,0.00018,0.2495455172325031
0.0002,0.45,0.0002,0.1852738841172874,0.0002,0.2476876752311074,0.0002,0.2495455172252455
0.00022,0.45,0.00022,0.1852738841197644,0.00022,0.2476876752428429,0.00022,0.2495455172340179
0.00024,0.45,0.00024,0.1852738841196706,0.00024,0.2476876752296273,0.00024,0.2495455172252773
0.00026,0.45,0.00026,0.1852738841193954,0.00026,0.2476876752428392,0.00026,0.24954551723472
0.00028,0.45,0.00028,0.1852738841198555,0.00028,0.247687675229001,0.00028,0.2495455172230715
0.0003,0.45,0.0003,0.1852738841167358,0.0003,0.2476876752430147,0.0003,0.2495455172343207
0.00032,0.45,0.00032,0.1852738841200888,0.00032,0.2476876752331751,0.00032,0.2495455172243342
0.00034,0.45,0.00034,0.1852738841184599,0.00034,0.2476876752426423,0.00034,0.249545517234768
0.00036,0.45,0.00036,0.1852738841204494,0.00036,0.2476876752319292,0.00036,0.2495455172238978
0.00038,0.45,0.00038,0.1852738841190844,0.00038,0.247687675243004,0.00038,0.2495455172330617
0.0004,0.45,0.0004,0.1852738841188575,0.0004,0.2476876752303573,0.0004,0.2495455172226856
0.00042,0.45,0.00042,0.1852738841187612,0.00042,0.2476876752415013,0.00042,0.2495455172386713
0.00044,0.45,0.00044,0.1852738841213124,0.00044,0.2476876752349036,0.00044,0.24954551722261
0.00046,0.45,0.00046,0.1852738841178563,0.00046,0.2476876752380283,0.00046,0.2495455172341164
0.00048,0.45,0.00048,0.1852738841209584,0.00048,0.247687675234159,0.00048,0.2495455172257473
0.0005,0.45,0.0005,0.1852738841176491,0.0005,0.2476876752385007,0.0005,0.2495455172356164
0.0005200000000000001,0.45,0.0005200000000000001,0.1852738841215935,0.0005200000000000001,0.2476876752345856,0.0005200000000000001,0.2495455172219952
0.0005400000000000001,0.45,0.0005400000000000001,0.185273884118072,0.0005400000000000001,0.2476876752420015,0.0005400000000000001,0.2495455172372256
0.0005600000000000002,0.45,0.0005600000000000002,0.1852738841177956,0.0005600000000000002,0.2476876752317813,0.0005600000000000002,0.2495455172220092
0.0005800000000000002,0.45,0.0005800000000000002,0.1852738841196507,0.0005800000000000002,0.247687675246418,0.0005800000000000002,0.2495455172371252
0.0006000000000000003,0.45,0.0006000000000000003,0.1852738841181613,0.0006000000000000003,0.2476876752282863,0.0006000000000000003,0.2495455172201948
0.0006200000000000003,0.45,0.0006200000000000003,0.185273884120624,0.0006200000000000003,0.2476876752467641,0.0006200000000000003,0.2495455172387092
0.0006400000000000004,0.45,0.0006400000000000004,0.1852738841185877,0.0006400000000000004,0.2476876752279812,0.0006400000000000004,0.2495455172198208
0.0006600000000000004,0.45,0.0006600000000000004,0.1852738841200147,0.0006600000000000004,0.2476876752473272,0.0006600000000000004,0.2495455172380469
0.0006800000000000005,0.45,0.0006800000000000005,0.1852738841193792,0.0006800000000000005,0.2476876752250517,0.0006800000000000005,0.2495455172193576
0.0007000000000000005,0.45,0.0007000000000000005,0.1852738841191576,0.0007000000000000005,0.2476876752530002,0.0007000000000000005,0.2495455172374494
0.0007200000000000006,0.45,0.0007200000000000006,0.1852738841198384,0.0007200000000000006,0.2476876752219382,0.0007200000000000006,0.2495455172200989
0.0007400000000000006,0.45,0.0007400000000000006,0.1852738841178213,0.0007400000000000006,0.2476876752510307,0.0007400000000000006,0.249545517236493
0.0007600000000000007,0.45,0.0007600000000000007,0.1852738841198447,0.0007600000000000007,0.2476876752238749,0.0007600000000000007,0.2495455172217831
0.0007800000000000007,0.45,0.0007800000000000007,0.1852738841162559,0.0007800000000000007,0.2476876752485233,0.0007800000000000007,0.2495455172357713
0.0008000000000000008,0.45,0.0008000000000000008,0.1852738841210665,0.0008000000000000008,0.2476876752266816,0.0008000000000000008,0.2495455172213997
0.0008200000000000008,0.45,0.0008200000000000008,0.1852738841170773,0.0008200000000000008,0.2476876752489586,0.0008200000000000008,0.2495455172358622
0.0008400000000000009,0.45,0.0008400000000000009,0.1852738841211028,0.0008400000000000009,0.2476876752258158,0.0008400000000000009,0.2495455172225618
0.000860000000000001,0.45,0.000860000000000001,0.185273884117993,0.000860000000000001,0.2476876752470356,0.000860000000000001,0.2495455172389921
0.000880000000000001,0.45,0.000880000000000001,0.1852738841194772,0.000880000000000001,0.2476876752249204,0.000880000000000001,0.2495455172196677
0.0009000000000000011,0.45,0.0009000000000000011,0.1852738841173615,0.0009000000000000011,0.247687675247909,0.0009000000000000011,0.2495455172393647
0.0009200000000000011,0.45,0.0009200000000000011,0.185273884122043,0.0009200000000000011,0.2476876752253329,0.0009200000000000011,0.2495455172187156
0.0009400000000000012,0.45,0.0009400000000000012,0.1852738841165081,0.0009400000000000012,0.2476876752489842,0.0009400000000000012,0.2495455172410266
0.0009600000000000012,0.45,0.0009600000000000012,0.1852738841209661,0.0009600000000000012,0.2476876752241501,0.0009600000000000012,0.2495455172177358
0.0009800000000000013,0.45,0.0009800000000000013,0.1852738841153536,0.0009800000000000013,0.2476876752477853,0.0009800000000000013,0.249545517238778
0.001000000000000001,0.45,0.001000000000000001,0.1852738841224792,0.001000000000000001,0.2476876752249741,0.001000000000000001,0.2495455172217225
0.001020000000000001,0.45,0.001020000000000001,0.1852738841148618,0.001020000000000001,0.2476876752479396,0.001020000000000001,0.2495455172349375
0.001040000000000001,0.45,0.001040000000000001,0.1852738841237536,0.001040000000000001,0.2476876752283032,0.001040000000000001,0.2495455172226179
0.001060000000000001,0.45,0.001060000000000001,0.1852738841151061,0.001060000000000001,0.2476876752470598,0.001060000000000001,0.249545517236371
0.001080000000000002,0.45,0.001080000000000002,0.185273884124009,0.001080000000000002,0.2476876752282621,0.001080000000000002,0.2495455172226667
0.001100000000000002,0.45,0.001100000000000002,0.1852738841153762,0.001100000000000002,0.2476876752476355,0.001100000000000002,0.2495455172376069
0.001120000000000002,0.45,0.001120000000000002,0.1852738841235638,0.001120000000000002,0.2476876752272821,0.001120000000000002,0.2495455172241574
0.001140000000000002,0.45,0.001140000000000002,0.1852738841155952,0.001140000000000002,0.2476876752469655,0.001140000000000002,0.249545517231789
0.001160000000000002,0.45,0.001160000000000002,0.1852738841233113,0.001160000000000002,0.2476876752274491,0.001160000000000002,0.2495455172255132
0.001180000000000002,0.45,0.001180000000000002,0.1852738841154508,0.001180000000000002,0.2476876752448609,0.001180000000000002,0.2495455172343261
0.001200000000000002,0.45,0.001200000000000002,0.1852738841234708,0.001200000000000002,0.2476876752301481,0.001200000000000002,0.2495455172225858
0.001220000000000002,0.45,0.001220000000000002,0.1852738841147344,0.001220000000000002,0.2476876752426117,0.001220000000000002,0.2495455172339973
0.001240000000000002,0.45,0.001240000000000002,0.1852738841243612,0.001240000000000002,0.2476876752298629,0.001240000000000002,0.2495455172244341
0.001260000000000002,0.45,0.001260000000000002,0.1852738841139673,0.001260000000000002,0.2476876752468582,0.001260000000000002,0.2495455172344662
0.001280000000000002,0.45,0.001280000000000002,0.1852738841254901,0.001280000000000002,0.2476876752273903,0.001280000000000002,0.2495455172262551
0.001300000000000002,0.45,0.001300000000000002,0.1852738841112224,0.001300000000000002,0.2476876752473066,0.001300000000000002,0.2495455172351567
0.001320000000000002,0.45,0.001320000000000002,0.1852738841282785,0.001320000000000002,0.2476876752289237,0.001320000000000002,0.2495455172238165
0.001340000000000002,0.45,0.001340000000000002,0.1852738841098146,0.001340000000000002,0.2476876752439516,0.001340000000000002,0.2495455172332607
0.001360000000000002,0.45,0.001360000000000002,0.185273884127625,0.001360000000000002,0.2476876752295731,0.001360000000000002,0.2495455172242763
0.001380000000000002,0.45,0.001380000000000002,0.1852738841108352,0.001380000000000002,0.2476876752457865,0.001380000000000002,0.2495455172355754
0.001400000000000002,0.45,0.001400000000000002,0.185273884127824,0.001400000000000002,0.2476876752265781,0.001400000000000002,0.2495455172227422
0.001420000000000002,0.45,0.001420000000000002,0.1852738841115065,0.001420000000000002,0.2476876752459937,0.001420000000000002,0.2495455172353234
0.001440000000000002,0.45,0.001440000000000002,0.1852738841266359,0.001440000000000002,0.2476876752294489,0.001440000000000002,0.2495455172256267
0.001460000000000003,0.45,0.001460000000000003,0.1852738841109249,0.001460000000000003,0.247687675242511,0.001460000000000003,0.2495455172319656
0.001480000000000003,0.45,0.001480000000000003,0.1852738841276041,0.001480000000000003,0.2476876752326202,0.001480000000000003,0.2495455172258003
0.001500000000000003,0.45,0.001500000000000003,0.1852738841095905,0.001500000000000003,0.2476876752398509,0.001500000000000003,0.2495455172336525
0.001520000000000003,0.45,0.001520000000000003,0.1852738841293657,0.001520000000000003,0.2476876752351803,0.001520000000000003,0.2495455172264591
0.001540000000000003,0.45,0.001540000000000003,0.1852738841075873,0.001540000000000003,0.247687675238606,0.001540000000000003,0.2495455172327362
0.001560000000000003,0.45,0.001560000000000003,0.1852738841307582,0.001560000000000003,0.2476876752365751,0.001560000000000003,0.2495455172249144
0.001580000000000003,0.45,0.001580000000000003,0.185273884108591,0.001580000000000003,0.2476876752355673,0.001580000000000003,0.2495455172328537
0.001600000000000003,0.45,0.001600000000000003,0.1852738841297505,0.001600000000000003,0.2476876752380288,0.001600000000000003,0.2495455172235845
0.001620000000000003,0.45,0.001620000000000003,0.1852738841075964,0.001620000000000003,0.2476876752339923,0.001620000000000003,0.2495455172362263
0.001640000000000003,0.45,0.001640000000000003,0.1852738841320003,0.001640000000000003,0.2476876752426493,0.001640000000000003,0.249545517223642
0.001660000000000003,0.45,0.001660000000000003,0.1852738841048176,0.001660000000000003,0.2476876752303231,0.001660000000000003,0.2495455172333927
0.001680000000000003,0.45,0.001680000000000003,0.1852738841342984,0.001680000000000003,0.2476876752450065,0.001680000000000003,0.2495455172240952
0.001700000000000003,0.45,0.001700000000000003,0.1852738841031495,0.001700000000000003,0.2476876752297604,0.001700000000000003,0.2495455172343567
0.001720000000000003,0.45,0.001720000000000003,0.185273884133891,0.001720000000000003,0.2476876752427629,0.001720000000000003,0.2495455172243325
0.001740000000000003,0.45,0.001740000000000003,0.1852738841045032,0.001740000000000003,0.2476876752294766,0.001740000000000003,0.2495455172362013
0.001760000000000003,0.45,0.001760000000000003,0.1852738841333282,0.001760000000000003,0.2476876752465572,0.001760000000000003,0.2495455172222988
0.001780000000000003,0.45,0.001780000000000003,0.1852738841041683,0.001780000000000003,0.2476876752257352,0.001780000000000003,0.2495455172341659
0.001800000000000003,0.45,0.001800000000000003,0.1852738841345814,0.001800000000000003,0.2476876752497225,0.001800000000000003,0.2495455172244805
0.001820000000000003,0.45,0.001820000000000003,0.1852738841047974,0.001820000000000003,0.2476876752221145,0.001820000000000003,0.2495455172328741
0.001840000000000004,0.45,0.001840000000000004,0.185273884134334,0.001840000000000004,0.2476876752519591,0.001840000000000004,0.2495455172265573
0.001860000000000004,0.45,0.001860000000000004,0.1852738841048792,0.001860000000000004,0.2476876752222117,0.001860000000000004,0.2495455172318655
0.001880000000000004,0.45,0.001880000000000004,0.1852738841338079,0.001880000000000004,0.2476876752522534,0.001880000000000004,0.2495455172280693
0.001900000000000004,0.45,0.001900000000000004,0.1852738841054983,0.001900000000000004,0.2476876752231856,0.001900000000000004,0.2495455172315441
0.001920000000000004,0.45,0.001920000000000004,0.1852738841326054,0.001920000000000004,0.2476876752533242,0.001920000000000004,0.2495455172275654
0.001940000000000004,0.45,0.001940000000000004,0.1852738841064043,0.001940000000000004,0.2476876752218385,0.001940000000000004,0.2495455172298457
0.001960000000000004,0.45,0.001960000000000004,0.1852738841311594,0.001960000000000004,0.2476876752522992,0.001960000000000004,0.2495455172283847
0.001980000000000004,0.45,0.001980000000000004,0.1852738841077521,0.001980000000000004,0.2476876752235574,0.001980000000000004,0.2495455172292721
0.002000000000000004,0.45,0.002000000000000004,0.1852738841303046,0.002000000000000004,0.2476876752507135,0.002000000000000004,0.2495455172273159
0.002020000000000004,0.45,0.002020000000000004,0.1852738841075105,0.002020000000000004,0.247687675222337,0.002020000000000004,0.249545517231638
0.002040000000000004,0.45,0.002040000000000004,0.1852738841315899,0.002040000000000004,0.2476876752536556,0.002040000000000004,0.2495455172248378
0.002060000000000004,0.45,0.002060000000000004,0.1852738841057788,0.002060000000000004,0.2476876752186918,0.002060000000000004,0.2495455172320895
0.002080000000000004,0.45,0.002080000000000004,0.1852738841334313,0.002080000000000004,0.2476876752573338,0.002080000000000004,0.249545517226204
0.002100000000000004,0.45,0.002100000000000004,0.1852738841035619,0.002100000000000004,0.2476876752173572,0.002100000000000004,0.2495455172338546
0.002120000000000004,0.45,0.002120000000000004,0.1852738841346314,0.002120000000000004,0.2476876752579511,0.002120000000000004,0.2495455172272183
0.002140000000000004,0.45,0.002140000000000004,0.1852738841044307,0.002140000000000004,0.2476876752172051,0.002140000000000004,0.2495455172325818
0.002160000000000004,0.45,0.002160000000000004,0.185273884134524,0.002160000000000004,0.2476876752564464,0.002160000000000004,0.2495455172262888
0.002180000000000004,0.45,0.002180000000000004,0.1852738841034525,0.002180000000000004,0.2476876752158911,0.002180000000000004,0.2495455172335597
0.002200000000000004,0.45,0.002200000000000004,0.1852738841360359,0.002200000000000004,0.2476876752575086,0.002200000000000004,0.2495455172232605
0.002220000000000005,0.45,0.002220000000000005,0.1852738841018555,0.002220000000000005,0.2476876752199042,0.002220000000000005,0.24954551723628
0.002240000000000005,0.45,0.002240000000000005,0.1852738841374006,0.002240000000000005,0.2476876752546201,0.002240000000000005,0.249545517222542
0.002260000000000005,0.45,0.002260000000000005,0.1852738841016806,0.002260000000000005,0.247687675220026,0.002260000000000005,0.2495455172342872
0.002280000000000005,0.45,0.002280000000000005,0.1852738841354611,0.002280000000000005,0.2476876752545221,0.002280000000000005,0.2495455172252877
0.002300000000000005,0.45,0.002300000000000005,0.1852738841038415,0.002300000000000005,0.2476876752196238,0.002300000000000005,0.2495455172352394
0.002320000000000005,0.45,0.002320000000000005,0.1852738841337626,0.002320000000000005,0.2476876752566739,0.002320000000000005,0.2495455172216438
0.002340000000000005,0.45,0.002340000000000005,0.1852738841044892,0.002340000000000005,0.2476876752151909,0.002340000000000005,0.2495455172361165
0.002360000000000005,0.45,0.002360000000000005,0.1852738841343432,0.002360000000000005,0.2476876752604839,0.002360000000000005,0.2495455172241156
0.002380000000000005,0.45,0.002380000000000005,0.1852738841049718,0.002380000000000005,0.247687675211537,0.002380000000000005,0.2495455172320775
0.002400000000000005,0.45,0.002400000000000005,0.1852738841343764,0.002400000000000005,0.2476876752647637,0.002400000000000005,0.2495455172290871
0.002420000000000005,0.45,0.002420000000000005,0.1852738841047301,0.002420000000000005,0.2476876752091245,0.002420000000000005,0.2495455172286539
0.002440000000000005,0.45,0.002440000000000005,0.1852738841325284,0.002440000000000005,0.2476876752643425,0.002440000000000005,0.2495455172287005
0.002460000000000005,0.45,0.002460000000000005,0.1852738841053569,0.002460000000000005,0.2476876752082068,0.002460000000000005,0.2495455172303152
0.002480000000000005,0.45,0.002480000000000005,0.1852738841320952,0.002480000000000005,0.2476876752650601,0.002480000000000005,0.2495455172287067
0.002500000000000005,0.45,0.002500000000000005,0.1852738841067498,0.002500000000000005,0.2476876752091195,0.002500000000000005,0.2495455172282056
0.002520000000000005,0.45,0.002520000000000005,0.1852738841322194,0.002520000000000005,0.2476876752640893,0.002520000000000005,0.2495455172306383
0.002540000000000005,0.45,0.002540000000000005,0.1852738841061255,0.002540000000000005,0.2476876752105671,0.002540000000000005,0.2495455172265389
0.002560000000000005,0.45,0.002560000000000005,0.1852738841318213,0.002560000000000005,0.2476876752656408,0.002560000000000005,0.2495455172310732
0.002580000000000005,0.45,0.002580000000000005,0.1852738841066964,0.002580000000000005,0.247687675210729,0.002580000000000005,0.249545517228781
0.002600000000000006,0.45,0.002600000000000006,0.1852738841313359,0.002600000000000006,0.247687675262433,0.002600000000000006,0.2495455172295897
0.002620000000000006,0.45,0.002620000000000006,0.1852738841059049,0.002620000000000006,0.2476876752113322,0.002620000000000006,0.2495455172298004
0.002640000000000006,0.45,0.002640000000000006,0.1852738841329178,0.002640000000000006,0.2476876752618286,0.002640000000000006,0.2495455172256995
0.002660000000000006,0.45,0.002660000000000006,0.1852738841053248,0.002660000000000006,0.2476876752141551,0.002660000000000006,0.2495455172327136
0.002680000000000006,0.45,0.002680000000000006,0.1852738841324096,0.002680000000000006,0.2476876752594683,0.002680000000000006,0.2495455172253864
0.002700000000000006,0.45,0.002700000000000006,0.1852738841060838,0.002700000000000006,0.247687675212645,0.002700000000000006,0.2495455172310261
0.002720000000000006,0.45,0.002720000000000006,0.1852738841328863,0.002720000000000006,0.2476876752610916,0.002720000000000006,0.2495455172259978
0.002740000000000006,0.45,0.002740000000000006,0.1852738841062112,0.002740000000000006,0.2476876752155789,0.002740000000000006,0.2495455172325239
0.002760000000000006,0.45,0.002760000000000006,0.185273884133367,0.002760000000000006,0.2476876752568915,0.002760000000000006,0.2495455172248451
0.002780000000000006,0.45,0.002780000000000006,0.185273884105147,0.002780000000000006,0.2476876752158424,0.002780000000000006,0.2495455172351181
0.002800000000000006,0.45,0.002800000000000006,0.1852738841337894,0.002800000000000006,0.2476876752611323,0.002800000000000006,0.2495455172240582
0.002820000000000006,0.45,0.002820000000000006,0.1852738841042116,0.002820000000000006,0.2476876752132753,0.002820000000000006,0.2495455172330014
0.002840000000000006,0.45,0.002840000000000006,0.1852738841341325,0.002840000000000006,0.2476876752595118,0.002840000000000006,0.2495455172268433
0.002860000000000006,0.45,0.002860000000000006,0.185273884105505,0.002860000000000006,0.2476876752120503,0.002860000000000006,0.2495455172316232
0.002880000000000006,0.45,0.002880000000000006,0.1852738841336004,0.002880000000000006,0.2476876752613684,0.002880000000000006,0.2495455172278579
