/out0 (Freq=1000) X,/out0 (Freq=1000) Y,/out1 (Freq=1000) X,/out1 (Freq=1000) Y,/out2 (Freq=1000) X,/out2 (Freq=1000) Y
0,0.07683903455311218,0,0.07503362890881446,0,0.07503362564766156
0.01066666666666667,0.07683914726120146,0.01066666666666667,0.07503369722710673,0.01066666666666667,0.07503369396519634
0.02133333333333334,0.07683915060243812,0.02133333333333334,0.0750336972271131,0.02133333333333334,0.07503369396519627
0.032,0.07683915523708008,0.032,0.07503369722712336,0.032,0.07503369396519621
0.04266666666666667,0.07683916166113833,0.04266666666666667,0.0750336972271354,0.04266666666666667,0.07503369396519648
0.05333333333333334,0.07683917055796151,0.05333333333333334,0.07503369722715161,0.05333333333333334,0.07503369396519631
0.06400000000000002,0.07683918286720781,0.06400000000000002,0.07503369722717464,0.06400000000000002,0.07503369396519631
0.07466666666666669,0.07683919987818454,0.07466666666666669,0.07503369722720561,0.07466666666666669,0.07503369396519631
0.08533333333333336,0.07683922335545459,0.08533333333333336,0.07503369722725002,0.08533333333333336,0.07503369396519628
0.09600000000000003,0.07683925570692171,0.09600000000000003,0.07503369722730978,0.09600000000000003,0.07503369396519634
0.1066666666666667,0.0768393002072072,0.1066666666666667,0.07503369722739196,0.1066666666666667,0.07503369396519631
0.1173333333333334,0.07683936129217576,0.1173333333333334,0.07503369722750629,0.1173333333333334,0.07503369396519632
0.128,0.07683944494368496,0.128,0.07503369722766107,0.128,0.07503369396519627
0.1386666666666667,0.07683955918695674,0.1386666666666667,0.07503369722787287,0.1386666666666667,0.07503369396519634
0.1493333333333333,0.07683971472572555,0.1493333333333333,0.07503369722816139,0.1493333333333333,0.07503369396519628
0.16,0.07683992574217871,0.16,0.07503369722855316,0.16,0.0750336939651963
0.1706666666666667,0.07684021088888331,0.1706666666666667,0.07503369722908233,0.1706666666666667,0.07503369396519631
0.1813333333333333,0.07684059449750681,0.1813333333333333,0.07503369722979462,0.1813333333333333,0.0750336939651963
0.192,0.07684110802387786,0.192,0.07503369723074728,0.192,0.07503369396519635
0.2026666666666666,0.07684179174075428,0.2026666666666666,0.07503369723201668,0.2026666666666666,0.07503369396519631
0.2133333333333333,0.07684269667965919,0.2133333333333333,0.07503369723369682,0.2133333333333333,0.07503369396519625
0.2239999999999999,0.07684388681380466,0.2239999999999999,0.07503369723590629,0.2239999999999999,0.07503369396519624
0.2346666666666666,0.07684544146966406,0.2346666666666666,0.07503369723879413,0.2346666666666666,0.0750336939651963
0.2453333333333333,0.0768474579600851,0.2453333333333333,0.07503369724253749,0.2453333333333333,0.07503369396519638
0.2559999999999999,0.07685005445176181,0.2559999999999999,0.07503369724735949,0.2559999999999999,0.07503369396519627
0.2666666666666666,0.07685337311641081,0.2666666666666666,0.07503369725352375,0.2666666666666666,0.07503369396519638
0.2773333333333333,0.07685758366527592,0.2773333333333333,0.07503369726134171,0.2773333333333333,0.07503369396519628
0.2879999999999999,0.07686288742089338,0.2879999999999999,0.07503369727119429,0.2879999999999999,0.07503369396519631
0.2986666666666666,0.07686952212192312,0.2986666666666666,0.07503369728351968,0.2986666666666666,0.07503369396519632
0.3093333333333332,0.07687776766606999,0.3093333333333332,0.07503369729884482,0.3093333333333332,0.07503369396519645
0.3199999999999999,0.0768879529515567,0.3199999999999999,0.07503369731777614,0.3199999999999999,0.07503369396519655
0.3306666666666666,0.07690046386304907,0.3306666666666666,0.07503369734104032,0.3306666666666666,0.07503369396519648
0.3413333333333332,0.07691575225371752,0.3413333333333332,0.07503369736948055,0.3413333333333332,0.0750336939651965
0.3519999999999999,0.07693434550171203,0.3519999999999999,0.07503369740408682,0.3519999999999999,0.07503369396519656
0.3626666666666665,0.07695685587939789,0.3626666666666665,0.07503369744600927,0.3626666666666665,0.07503369396519663
0.3733333333333332,0.07698398859764495,0.3733333333333332,0.0750336974965779,0.3733333333333332,0.07503369396519687
0.3839999999999998,0.07701654703084498,0.3839999999999998,0.0750336975573129,0.3839999999999998,0.07503369396519678
0.3946666666666665,0.07705543337880391,0.3946666666666665,0.07503369762993045,0.3946666666666665,0.07503369396519682
0.4053333333333332,0.07710164299395755,0.4053333333333332,0.07503369771633638,0.4053333333333332,0.07503369396519698
0.4159999999999998,0.07715625091654796,0.4159999999999998,0.07503369781860028,0.4159999999999998,0.07503369396519759
0.4266666666666665,0.07722038989529253,0.4266666666666665,0.07503369793892822,0.4266666666666665,0.0750336939651977
0.4373333333333331,0.07729522030411409,0.4373333333333331,0.07503369807960772,0.4373333333333331,0.07503369396519793
0.4479999999999998,0.07738189372976796,0.4479999999999998,0.0750336982429505,0.4479999999999998,0.07503369396519824
0.4586666666666664,0.07748151329515671,0.4586666666666664,0.07503369843122061,0.4586666666666664,0.0750336939651986
0.4693333333333331,0.07759509463659592,0.4693333333333331,0.07503369864656539,0.4693333333333331,0.07503369396519875
0.4799999999999998,0.07772353158586283,0.4799999999999998,0.07503369889096846,0.4799999999999998,0.07503369396519913
0.4906666666666664,0.07786756993902216,0.4906666666666664,0.07503369916618846,0.4906666666666664,0.07503369396519946
0.5013333333333331,0.07802779139360617,0.5013333333333331,0.07503369947373836,0.5013333333333331,0.07503369396520035
0.5119999999999998,0.07820460815784004,0.5119999999999998,0.07503369981487515,0.5119999999999998,0.07503369396520078
0.5226666666666665,0.07839826727683726,0.5226666666666665,0.0750337001905993,0.5226666666666665,0.07503369396520165
0.5333333333333332,0.07860886267952889,0.5333333333333332,0.07503370060167813,0.5333333333333332,0.07503369396520221
0.5439999999999999,0.07883635244997701,0.5439999999999999,0.07503370104867882,0.5439999999999999,0.07503369396520347
0.5546666666666666,0.07908057882521946,0.5546666666666666,0.07503370153199186,0.5546666666666666,0.07503369396520389
0.5653333333333334,0.07934128877262728,0.5653333333333334,0.07503370205186873,0.5653333333333334,0.075033693965205
0.5760000000000001,0.0796181535287025,0.5760000000000001,0.07503370260845064,0.5760000000000001,0.07503369396520597
0.5866666666666668,0.07991078604052497,0.5866666666666668,0.07503370320180258,0.5866666666666668,0.0750336939652068
0.5973333333333335,0.08021875574458801,0.5973333333333335,0.07503370383192873,0.5973333333333335,0.07503369396520806
0.6080000000000002,0.08054160049939819,0.6080000000000002,0.07503370449880233,0.6080000000000002,0.0750336939652093
0.6186666666666669,0.08087883575133922,0.6186666666666669,0.07503370520236156,0.6186666666666669,0.07503369396521048
0.6293333333333336,0.08122996117172984,0.6293333333333336,0.07503370594253528,0.6293333333333336,0.07503369396521174
0.6400000000000003,0.08159446508122496,0.6400000000000003,0.07503370671923704,0.6400000000000003,0.07503369396521302
0.6506666666666671,0.08197182699988322,0.6506666666666671,0.07503370753237219,0.6506666666666671,0.07503369396521455
0.6613333333333338,0.08236151864836436,0.6613333333333338,0.07503370838183011,0.6613333333333338,0.075033693965216
0.6720000000000005,0.08276300369384756,0.6720000000000005,0.07503370926747908,0.6720000000000005,0.0750336939652175
0.6826666666666672,0.08317573649424713,0.6826666666666672,0.07503371018916768,0.6826666666666672,0.07503369396521915
0.6933333333333339,0.08359916005318904,0.6933333333333339,0.07503371114670301,0.6933333333333339,0.07503369396522067
0.7040000000000006,0.08403270336011777,0.7040000000000006,0.07503371213984644,0.7040000000000006,0.07503369396522247
0.7146666666666673,0.08447577825683862,0.7146666666666673,0.07503371316829474,0.7146666666666673,0.07503369396522445
0.7253333333333341,0.08492777594433125,0.7253333333333341,0.07503371423167292,0.7253333333333341,0.07503369396522623
0.7360000000000008,0.08538806322208348,0.7360000000000008,0.07503371532951256,0.7360000000000008,0.07503369396522815
0.7466666666666675,0.08585597853587723,0.7466666666666675,0.07503371646122438,0.7466666666666675,0.07503369396523038
0.7573333333333342,0.08633082789831922,0.7573333333333342,0.07503371762609477,0.7573333333333342,0.0750336939652323
0.7680000000000009,0.08681188073898893,0.7680000000000009,0.07503371882325541,0.7680000000000009,0.07503369396523418
0.7786666666666676,0.08729836573736742,0.7786666666666676,0.07503372005165973,0.7786666666666676,0.07503369396523653
0.7893333333333343,0.08778946669101376,0.7893333333333343,0.07503372131006009,0.7893333333333343,0.07503369396523844
0.800000000000001,0.08828431847401544,0.800000000000001,0.07503372259697993,0.800000000000001,0.07503369396524087
0.8106666666666678,0.08878248262516567,0.8106666666666678,0.07503372391197019,0.8106666666666678,0.07503369396524302
0.8213333333333345,0.08928368944089488,0.8213333333333345,0.07503372525498603,0.8213333333333345,0.07503369396524548
0.8320000000000012,0.08978604223787927,0.8320000000000012,0.07503372662149137,0.8320000000000012,0.07503369396524867
0.8426666666666679,0.09028821377262894,0.8426666666666679,0.07503372800824094,0.8426666666666679,0.0750336939652511
0.8533333333333346,0.09078896014765633,0.8533333333333346,0.07503372941200863,0.8533333333333346,0.07503369396525321
0.8640000000000013,0.09128700908257673,0.8640000000000013,0.07503373082927459,0.8640000000000013,0.07503369396525585
0.874666666666668,0.09178103348993023,0.874666666666668,0.07503373225614859,0.874666666666668,0.07503369396525847
0.8853333333333347,0.09226964348992821,0.8853333333333347,0.07503373368831506,0.8853333333333347,0.07503369396526061
0.8960000000000015,0.09275138479529391,0.8960000000000015,0.07503373512102383,0.8960000000000015,0.07503369396526348
0.9066666666666682,0.0932247406560677,0.9066666666666682,0.07503373654907275,0.9066666666666682,0.0750336939652658
0.9173333333333349,0.0936881368571269,0.9173333333333349,0.07503373796681853,0.9173333333333349,0.07503369396526854
0.9280000000000016,0.09413995007004138,0.9280000000000016,0.07503373936819237,0.9280000000000016,0.07503369396527078
0.9386666666666683,0.09457852028928394,0.9386666666666683,0.07503374074673691,0.9386666666666683,0.07503369396527314
0.949333333333335,0.09500216841200972,0.949333333333335,0.07503374209566444,0.949333333333335,0.07503369396527562
0.9600000000000017,0.095409220316585,0.9600000000000017,0.07503374340795377,0.9600000000000017,0.07503369396527766
0.9706666666666685,0.09579803903335676,0.9706666666666685,0.07503374467646504,0.9706666666666685,0.0750336939652799
0.9813333333333352,0.09616706667955198,0.9813333333333352,0.07503374589412944,0.9813333333333352,0.07503369396528205
0.9920000000000019,0.09651487755243059,0.9920000000000019,0.07503374705414702,0.9920000000000019,0.07503369396528424
1.002666666666669,0.09684024283418148,1.002666666666669,0.07503374815027647,1.002666666666669,0.075033693965286
1.013333333333335,0.09714220537980216,1.013333333333335,0.0750337491771413,1.013333333333335,0.07503369396528776
1.024000000000002,0.09742015973869854,1.024000000000002,0.07503375013059112,1.024000000000002,0.07503369396528962
1.034666666666668,0.09767392804279312,1.034666666666668,0.07503375100801493,1.034666666666668,0.07503369396529123
1.045333333333335,0.09790381774584385,1.045333333333335,0.07503375180863948,1.045333333333335,0.07503369396529271
1.056000000000002,0.0981106447015402,1.056000000000002,0.07503375253365882,1.056000000000002,0.07503369396529372
1.066666666666668,0.09829570761732014,1.066666666666668,0.0750337531861915,1.066666666666668,0.07503369396529463
1.077333333333335,0.09846070912060204,1.077333333333335,0.07503375377103494,1.077333333333335,0.07503369396529591
1.088000000000001,0.09860763255547775,1.088000000000001,0.07503375429423446,1.088000000000001,0.07503369396529701
1.098666666666668,0.09873859638471476,1.098666666666668,0.07503375476253807,1.098666666666668,0.07503369396529763
1.109333333333335,0.09885571333168293,1.109333333333335,0.07503375518288179,1.109333333333335,0.07503369396529858
1.120000000000001,0.09896097683484829,1.120000000000001,0.07503375556193853,1.120000000000001,0.07503369396529896
1.130666666666668,0.09905618629451338,1.130666666666668,0.07503375590581618,1.130666666666668,0.07503369396530001
1.141333333333334,0.09914291095900941,1.141333333333334,0.07503375621989972,1.141333333333334,0.07503369396530027
1.152000000000001,0.0992224845944574,1.152000000000001,0.07503375650880417,1.152000000000001,0.07503369396530066
1.162666666666668,0.09929602039224489,1.162666666666668,0.0750337567763944,1.162666666666668,0.07503369396530142
1.173333333333334,0.09936443651368558,1.173333333333334,0.07503375702588282,1.173333333333334,0.07503369396530185
1.184000000000001,0.09942848523581871,1.184000000000001,0.07503375725990817,1.184000000000001,0.07503369396530207
1.194666666666667,0.09948878135675397,1.194666666666667,0.07503375748063013,1.194666666666667,0.07503369396530277
1.205333333333334,0.09954582763882171,1.205333333333334,0.07503375768982309,1.205333333333334,0.07503369396530297
1.216000000000001,0.09960003646885822,1.216000000000001,0.07503375788894016,1.216000000000001,0.07503369396530322
1.226666666666667,0.09965174771680972,1.226666666666667,0.07503375807918337,1.226666666666667,0.07503369396530367
1.237333333333334,0.09970124316494079,1.237333333333334,0.07503375826154968,1.237333333333334,0.07503369396530389
1.248,0.09974875802254349,1.248,0.07503375843687214,1.248,0.07503369396530432
1.258666666666667,0.09979449005115289,1.258666666666667,0.07503375860585235,1.258666666666667,0.07503369396530453
1.269333333333334,0.09983860677358782,1.269333333333334,0.0750337587690815,1.269333333333334,0.07503369396530489
1.28,0.09988125116720273,1.28,0.07503375892706554,1.28,0.07503369396530508
1.290666666666667,0.09992254616745049,1.290666666666667,0.07503375908024602,1.290666666666667,0.07503369396530561
1.301333333333333,0.09996259824121864,1.301333333333333,0.07503375922899362,1.301333333333333,0.07503369396530585
1.312,0.1000015002338654,1.312,0.07503375937364086,1.312,0.07503369396530599
1.322666666666667,0.1000393336484136,1.322666666666667,0.0750337595144764,1.322666666666667,0.07503369396530622
1.333333333333333,0.1000761704800544,1.333333333333333,0.07503375965175386,1.333333333333333,0.07503369396530632
1.344,0.1001120747009886,1.344,0.07503375978570208,1.344,0.07503369396530656
1.354666666666666,0.1001471034694164,1.354666666666666,0.07503375991652281,1.354666666666666,0.07503369396530669
1.365333333333333,0.1001813081197159,1.365333333333333,0.07503376004439612,1.365333333333333,0.07503369396530712
1.376,0.1002147349784067,1.376,0.07503376016949014,1.376,0.07503369396530726
1.386666666666666,0.1002474260404642,1.386666666666666,0.07503376029194911,1.386666666666666,0.07503369396530747
1.397333333333333,0.1002794195332531,1.397333333333333,0.07503376041191209,1.397333333333333,0.07503369396530744
1.407999999999999,0.1003107503894564,1.407999999999999,0.07503376052950114,1.407999999999999,0.07503369396530764
1.418666666666666,0.1003414506459488,1.418666666666666,0.07503376064482913,1.418666666666666,0.07503369396530779
1.429333333333333,0.1003715497820368,1.429333333333333,0.0750337607580039,1.429333333333333,0.07503369396530836
1.439999999999999,0.1004010750078346,1.439999999999999,0.07503376086911549,1.439999999999999,0.07503369396530848
1.450666666666666,0.1004300515113734,1.450666666666666,0.07503376097826064,1.450666666666666,0.07503369396530868
1.461333333333332,0.1004585026714523,1.461333333333332,0.07503376108551743,1.461333333333332,0.07503369396530885
1.471999999999999,0.1004864502417995,1.471999999999999,0.07503376119096436,1.471999999999999,0.07503369396530897
1.482666666666666,0.1005139145112315,1.482666666666666,0.07503376129467385,1.482666666666666,0.07503369396530911
1.493333333333332,0.1005409144435385,1.493333333333332,0.07503376139671293,1.493333333333332,0.07503369396530932
1.503999999999999,0.100567467800239,1.503999999999999,0.07503376149714462,1.503999999999999,0.07503369396530937
1.514666666666665,0.1005935912489012,1.514666666666665,0.0750337615960272,1.514666666666665,0.07503369396530955
1.525333333333332,0.10061930045928,1.525333333333332,0.0750337616934164,1.525333333333332,0.07503369396530994
1.535999999999999,0.1006446101894473,1.535999999999999,0.07503376178936678,1.535999999999999,0.07503369396531009
1.546666666666665,0.1006695343644465,1.546666666666665,0.07503376188392553,1.546666666666665,0.07503369396531027
1.557333333333332,0.10069408615119,1.557333333333332,0.07503376197714072,1.557333333333332,0.07503369396531032
1.567999999999999,0.1007182780386897,1.567999999999999,0.07503376206905583,1.567999999999999,0.07503369396531044
1.578666666666665,0.1007421219533749,1.578666666666665,0.07503376215971448,1.578666666666665,0.07503369396531061
1.589333333333332,0.1007656295442492,1.589333333333332,0.07503376224915635,1.589333333333332,0.07503369396531072
1.6,0.100788813348631,1.6,0.07503376233742705,1.6,0.0750336939653109
