/net039 X,/net039 Y,/net010 X,/net010 Y,/net09 X,/net09 Y,/net08 X,/net08 Y,/net02 X,/net02 Y
0,7.369521627096384e-05,0,7.369521627088696e-05,0,7.369521627105366e-05,0,6.43780635751683e-05,0,0
1.5e-11,7.369521627095685e-05,1.5e-11,7.369521627105948e-05,1.5e-11,7.369521627106184e-05,1.5e-11,6.437806357497227e-05,1.5e-11,0
4.5e-11,7.369521627089113e-05,4.5e-11,7.369521627096123e-05,4.5e-11,7.369521627114424e-05,4.5e-11,6.43780635751482e-05,4.5e-11,0
1.05e-10,7.369521626951017e-05,1.05e-10,7.369521626930442e-05,1.05e-10,7.369521626969069e-05,1.05e-10,6.437806357469674e-05,1.05e-10,0
2.25e-10,7.369521627222348e-05,2.25e-10,7.369521627243593e-05,2.25e-10,7.369521627254508e-05,2.25e-10,6.43780635750845e-05,2.25e-10,0
4.65e-10,7.369521626939853e-05,4.65e-10,7.369521626945413e-05,4.65e-10,7.369521626974336e-05,4.65e-10,6.437806357448106e-05,4.65e-10,0
7.649999999999999e-10,7.36952162727859e-05,7.649999999999999e-10,7.369521627562486e-05,7.649999999999999e-10,7.369521627244661e-05,7.649999999999999e-10,6.437806357579078e-05,7.649999999999999e-10,0
1.065e-09,7.369521626941881e-05,1.065e-09,7.369521626340626e-05,1.065e-09,7.369521626952257e-05,1.065e-09,6.437806357404002e-05,1.065e-09,0
1.365e-09,7.369521626931638e-05,1.365e-09,7.369521627852298e-05,1.365e-09,7.369521627271262e-05,1.365e-09,6.437806357562869e-05,1.365e-09,0
1.665e-09,7.369521627261808e-05,1.665e-09,7.369521626353002e-05,1.665e-09,7.369521626961409e-05,1.665e-09,6.437806357425477e-05,1.665e-09,0
1.8325e-09,7.369521626955536e-05,1.8325e-09,7.369521627515533e-05,1.8325e-09,7.36952162726559e-05,1.8325e-09,6.437806357537229e-05,1.8325e-09,0
2e-09,7.36952162720768e-05,2e-09,7.369521626380633e-05,2e-09,7.369521626964839e-05,2e-09,6.437806357422364e-05,2e-09,0
2.120144127384571e-09,7.369521627103216e-05,2.120144127384571e-09,7.3695216270966e-05,2.120144127384571e-09,7.369521627098638e-05,2.120144127384571e-09,6.437806357534633e-05,2.120144127384571e-09,0.06674673743587282
2.261585129605973e-09,7.369521626949663e-05,2.261585129605973e-09,7.369521626932808e-05,2.261585129605973e-09,7.369521627281052e-05,2.261585129605973e-09,6.437806354950669e-05,2.261585129605973e-09,0.1453250720033182
2.400273538304042e-09,7.369521627561079e-05,2.400273538304042e-09,7.369521627278595e-05,2.400273538304042e-09,7.369521626646229e-05,2.400273538304042e-09,6.437806369103807e-05,2.400273538304042e-09,0.2223741879466899
2.455450261564964e-09,7.369521626641643e-05,2.455450261564964e-09,7.369521626641288e-05,2.455450261564964e-09,7.369521627480497e-05,2.455450261564964e-09,6.437806291739903e-05,2.455450261564964e-09,0.2530279230916465
2.483038623195425e-09,7.369521627204756e-05,2.483038623195425e-09,7.369521627461704e-05,2.483038623195425e-09,7.369521627435828e-05,2.483038623195425e-09,6.437806573990501e-05,2.483038623195425e-09,0.2683547906641247
2.538215346456346e-09,7.369521626965571e-05,2.538215346456346e-09,7.369521626737541e-05,2.538215346456346e-09,7.369521625990733e-05,2.538215346456346e-09,6.437806085178296e-05,2.538215346456346e-09,0.299008525809081
2.560737121398754e-09,7.369521627220931e-05,2.560737121398754e-09,7.369521627395396e-05,2.560737121398754e-09,7.369521629330913e-05,2.560737121398754e-09,6.437806609314611e-05,2.560737121398754e-09,0.3115206229993076
2.571998008869958e-09,7.369521627015106e-05,2.571998008869958e-09,7.369521627140566e-05,2.571998008869958e-09,7.369521625230123e-05,2.571998008869958e-09,6.437806418626329e-05,2.571998008869958e-09,0.317776671594421
2.594519783812366e-09,7.369521626898939e-05,2.594519783812366e-09,7.369521627103686e-05,2.594519783812366e-09,7.369521627312448e-05,2.594519783812366e-09,6.437806165887279e-05,2.594519783812366e-09,0.3302887687846477
2.619292015544423e-09,7.369521627269161e-05,2.619292015544423e-09,7.369521627112703e-05,2.619292015544423e-09,7.369521628307892e-05,2.619292015544423e-09,6.437806587505336e-05,2.619292015544423e-09,0.3440511197469018
2.640503769765506e-09,7.369521626961352e-05,2.640503769765506e-09,7.369521627100012e-05,2.640503769765506e-09,7.369521624851706e-05,2.640503769765506e-09,6.437806141550696e-05,2.640503769765506e-09,0.3558354276475035
2.660686031888212e-09,7.369521627506656e-05,2.660686031888212e-09,7.369521627115183e-05,2.660686031888212e-09,7.369521629892727e-05,2.660686031888212e-09,6.437806530035955e-05,2.660686031888212e-09,0.3670477954934508
2.682055619276806e-09,7.369521626745915e-05,2.682055619276806e-09,7.369521626817235e-05,2.682055619276806e-09,7.369521624706944e-05,2.682055619276806e-09,6.437806229881711e-05,2.682055619276806e-09,0.3789197884871142
2.701703988604443e-09,7.36952162711811e-05,2.701703988604443e-09,7.369521627353098e-05,2.701703988604443e-09,7.36952162896798e-05,2.701703988604443e-09,6.437806442659561e-05,2.701703988604443e-09,0.3898355492246905
2.72507920138363e-09,7.369521626770835e-05,2.72507920138363e-09,7.369521626899497e-05,2.72507920138363e-09,7.369521625484478e-05,2.72507920138363e-09,6.437806300935865e-05,2.72507920138363e-09,0.4028217785464613
2.753399842659956e-09,7.369521627406462e-05,2.753399842659956e-09,7.369521627009385e-05,2.753399842659956e-09,7.36952162855097e-05,2.753399842659956e-09,6.43780639530122e-05,2.753399842659956e-09,0.41855546814442
2.784176825806462e-09,7.369521626836256e-05,2.784176825806462e-09,7.369521627171808e-05,2.784176825806462e-09,7.369521626172678e-05,2.784176825806462e-09,6.437806333455555e-05,2.784176825806462e-09,0.4356537921147012
2.812895477102838e-09,7.369521627375267e-05,2.812895477102838e-09,7.369521627032263e-05,2.812895477102838e-09,7.369521627606542e-05,2.812895477102838e-09,6.43780636991652e-05,2.812895477102838e-09,0.4516085983904654
2.842817606891001e-09,7.369521626567352e-05,2.842817606891001e-09,7.369521627148166e-05,2.842817606891001e-09,7.369521626704888e-05,2.842817606891001e-09,6.437806353669216e-05,2.842817606891001e-09,0.4682320038283336
2.867139585824205e-09,7.369521627525398e-05,2.867139585824205e-09,7.369521627051703e-05,2.867139585824205e-09,7.369521627374375e-05,2.867139585824205e-09,6.437806353357151e-05,2.867139585824205e-09,0.4817442143467803
2.895104265130529e-09,7.36952162669828e-05,2.895104265130529e-09,7.369521627437493e-05,2.895104265130529e-09,7.369521626946946e-05,2.895104265130529e-09,6.437806366624475e-05,2.895104265130529e-09,0.4972801472947383
2.921090929981885e-09,7.369521627466757e-05,2.921090929981885e-09,7.36952162681621e-05,2.921090929981885e-09,7.369521627489137e-05,2.921090929981885e-09,6.437806344543833e-05,2.921090929981885e-09,0.5117171833232695
2.973064259684598e-09,7.369521626717328e-05,2.973064259684598e-09,7.369521627689147e-05,2.973064259684598e-09,7.369521626760587e-05,2.973064259684598e-09,6.437806371899868e-05,2.973064259684598e-09,0.5405912553803319
3.01589053222939e-09,7.36952162747234e-05,3.01589053222939e-09,7.369521626567969e-05,3.01589053222939e-09,7.369521627379998e-05,3.01589053222939e-09,6.437806341567385e-05,3.01589053222939e-09,0.5643836290163274
3.059187524506107e-09,7.369521626752704e-05,3.059187524506107e-09,7.369521627607025e-05,3.059187524506107e-09,7.369521626912212e-05,3.059187524506107e-09,6.437806374588098e-05,3.059187524506107e-09,0.5884375136145039
3.070300109813177e-09,7.369521627307123e-05,3.070300109813177e-09,7.369521627024414e-05,3.070300109813177e-09,7.369521627131115e-05,3.070300109813177e-09,6.437806337771738e-05,3.070300109813177e-09,0.5946111721184316
3.092525280427317e-09,7.369521627147659e-05,3.092525280427317e-09,7.369521626961964e-05,3.092525280427317e-09,7.369521627364201e-05,3.092525280427317e-09,6.437806377411609e-05,3.092525280427317e-09,0.606958489126287
3.099684254192669e-09,7.369521627078758e-05,3.099684254192669e-09,7.369521627122713e-05,3.099684254192669e-09,7.369521626893319e-05,3.099684254192669e-09,6.437806338447913e-05,3.099684254192669e-09,0.610935696773705
3.114002201723373e-09,7.36952162708741e-05,3.114002201723373e-09,7.369521627357345e-05,3.114002201723373e-09,7.369521627332071e-05,3.114002201723373e-09,6.437806375394952e-05,3.114002201723373e-09,0.6188901120685407
3.124927069161172e-09,7.369521627100565e-05,3.124927069161172e-09,7.369521626924157e-05,3.124927069161172e-09,7.369521626811047e-05,3.124927069161172e-09,6.437806338394265e-05,3.124927069161172e-09,0.6249594828673177
3.135313259469629e-09,7.36952162707951e-05,3.135313259469629e-09,7.369521627260089e-05,3.135313259469629e-09,7.369521627522453e-05,3.135313259469629e-09,6.437806378530949e-05,3.135313259469629e-09,0.6307295885942382
3.147649716046217e-09,7.36952162714746e-05,3.147649716046217e-09,7.369521627150136e-05,3.147649716046217e-09,7.369521627349211e-05,3.147649716046217e-09,6.437806366183493e-05,3.147649716046217e-09,0.6375831755812318
3.157684697106776e-09,7.369521627120108e-05,3.157684697106776e-09,7.369521627117288e-05,3.157684697106776e-09,7.369521629368181e-05,3.157684697106776e-09,6.437806478720332e-05,3.157684697106776e-09,0.6431581650593201
3.160409149076853e-09,7.369521626220041e-05,3.160409149076853e-09,7.369521626966504e-05,3.160409149076853e-09,7.36952160836393e-05,3.160409149076853e-09,6.437806120197723e-05,3.160409149076853e-09,0.6446717494871403
3.165858053017006e-09,7.369521623208551e-05,3.165858053017006e-09,7.369521627193762e-05,3.165858053017006e-09,7.369521495041381e-05,3.165858053017006e-09,6.437802986669976e-05,3.165858053017006e-09,0.647698918342781
3.176755860897312e-09,7.369521629125074e-05,3.176755860897312e-09,7.369521626978362e-05,3.176755860897312e-09,7.369521568586753e-05,3.176755860897312e-09,6.437799191043245e-05,3.176755860897312e-09,0.6537532560540623
3.184473711922878e-09,7.369521744390649e-05,3.184473711922878e-09,7.369521628610406e-05,3.184473711922878e-09,7.369525749203502e-05,3.184473711922878e-09,6.437917118618274e-05,3.184473711922878e-09,0.6580409510682654
3.195005775382207e-09,7.369521617715542e-05,3.195005775382207e-09,7.369521624419481e-05,3.195005775382207e-09,7.369522828629263e-05,3.195005775382207e-09,6.438011323307175e-05,3.195005775382207e-09,0.6638920974345597
3.202561376906927e-09,7.36952019308226e-05,3.202561376906927e-09,7.369521597111769e-05,3.202561376906927e-09,7.369366249355435e-05,3.202561376906927e-09,6.433699522277983e-05,3.202561376906927e-09,0.6680896538371819
3.210983694860448e-09,7.36952093259253e-05,3.210983694860448e-09,7.36952169051585e-05,3.210983694860448e-09,7.369457155894671e-05,3.210983694860448e-09,6.430552869432068e-05,3.210983694860448e-09,0.6727687193669153
3.218019528701923e-09,7.369526225726489e-05,3.218019528701923e-09,7.369521768073072e-05,3.218019528701923e-09,7.370452768885248e-05,3.218019528701923e-09,6.454875519330266e-05,3.218019528701923e-09,0.6766775159455125
3.224396215468565e-09,7.369530190393709e-05,3.224396215468565e-09,7.369521185172534e-05,3.224396215468565e-09,7.369266357262344e-05,3.224396215468565e-09,6.451382702386969e-05,3.224396215468565e-09,0.680220119704758
3.231792182160774e-09,7.369518723491088e-05,3.231792182160774e-09,7.369521848315708e-05,3.231792182160774e-09,7.368662495729301e-05,3.231792182160774e-09,6.426222179816745e-05,3.231792182160774e-09,0.6843289900893188
3.239449998955588e-09,7.36951668613762e-05,3.239449998955588e-09,7.369521857935472e-05,3.239449998955588e-09,7.369860247358045e-05,3.239449998955588e-09,6.431867237879658e-05,3.239449998955588e-09,0.6885833327531046
3.246950559800248e-09,7.36951994417388e-05,3.246950559800248e-09,7.369521312829131e-05,3.246950559800248e-09,7.369634606231854e-05,3.246950559800248e-09,6.436681076863932e-05,3.246950559800248e-09,0.6927503110001378
3.25415975158859e-09,7.369497832334539e-05,3.25415975158859e-09,7.369521652976687e-05,3.25415975158859e-09,7.369574420176431e-05,3.25415975158859e-09,6.438063853602327e-05,3.25415975158859e-09,0.6967554175492168
3.261467744860109e-09,7.369488944458343e-05,3.261467744860109e-09,7.369521545923699e-05,3.261467744860109e-09,7.369350324210756e-05,3.261467744860109e-09,6.432111618842811e-05,3.261467744860109e-09,0.7008154138111716
3.267074170557251e-09,7.369293703723676e-05,3.267074170557251e-09,7.369520697454645e-05,3.267074170557251e-09,7.36903792071414e-05,3.267074170557251e-09,6.414923979394155e-05,3.267074170557251e-09,0.703930094754028
3.271528857588398e-09,7.367737619078312e-05,3.271528857588398e-09,7.369512655040079e-05,3.271528857588398e-09,7.369032460680512e-05,3.271528857588398e-09,6.368065750190434e-05,3.271528857588398e-09,0.7064049208824433
3.275483779055803e-09,7.364932739801544e-05,3.275483779055803e-09,7.369505103082893e-05,3.275483779055803e-09,7.369852021385295e-05,3.275483779055803e-09,6.288157429539218e-05,3.275483779055803e-09,0.7086020994754461
3.279521434900056e-09,7.37166882873414e-05,3.279521434900056e-09,7.369567564198931e-05,3.279521434900056e-09,7.370879025505751e-05,3.279521434900056e-09,6.368203942375917e-05,3.279521434900056e-09,0.710845241611142
3.282944022172777e-09,7.426952893096275e-05,3.282944022172777e-09,7.369903236388439e-05,3.282944022172777e-09,7.371319015989577e-05,3.282944022172777e-09,7.46591399200328e-05,3.282944022172777e-09,0.7127466789848762
3.286376442138787e-09,7.522478370172198e-05,3.286376442138787e-09,7.370140854059063e-05,3.286376442138787e-09,7.371065970457903e-05,3.286376442138787e-09,0.0001002165833403935,3.286376442138787e-09,0.714653578965993
3.289553093653034e-09,7.496008333609554e-05,3.289553093653034e-09,7.369237270108589e-05,3.289553093653034e-09,7.370670183336431e-05,3.289553093653034e-09,0.0001082794521430345,3.289553093653034e-09,0.7164183853627966
3.291928248363933e-09,7.379942571554496e-05,3.291928248363933e-09,7.368406648895306e-05,3.291928248363933e-09,7.370302326308678e-05,3.291928248363933e-09,6.136885304425713e-05,3.291928248363933e-09,0.7177379157577405
3.29477934380055e-09,7.265550665317322e-05,3.29477934380055e-09,7.368524494208477e-05,3.29477934380055e-09,7.368097171634603e-05,3.29477934380055e-09,-0.0001621434884980154,3.29477934380055e-09,0.7193218576669724
3.298096994242511e-09,6.869787909634187e-05,3.298096994242511e-09,7.3697398381839e-05,3.298096994242511e-09,7.365675984513195e-05,3.298096994242511e-09,-0.0007926888285518628,3.298096994242511e-09,0.7211649968013951
3.302129541925027e-09,5.73095020349477e-05,3.302129541925027e-09,7.371537798205799e-05,3.302129541925027e-09,7.367963142709324e-05,3.302129541925027e-09,-0.001211912671949776,3.302129541925027e-09,0.7234053010694592
3.3050530292602e-09,5.461390234012864e-05,3.3050530292602e-09,7.3705582639609e-05,3.3050530292602e-09,7.369411757485583e-05,3.3050530292602e-09,-0.0009754738151416792,3.3050530292602e-09,0.725029460700111
3.307772045948518e-09,6.304922999736756e-05,3.307772045948518e-09,7.368624833395286e-05,3.307772045948518e-09,7.368986854680364e-05,3.307772045948518e-09,-0.0005998383492487788,3.307772045948518e-09,0.7265400255269542
3.310486917648742e-09,8.257511906163187e-05,3.310486917648742e-09,7.36903674407329e-05,3.310486917648742e-09,7.368744733019994e-05,3.310486917648742e-09,-0.0002771895368750118,3.310486917648742e-09,0.7280482875826343
3.313380907049735e-09,0.000122673495998642,3.313380907049735e-09,7.371069853350602e-05,3.313380907049735e-09,7.368685449033476e-05,3.313380907049735e-09,-0.0002644003000452495,3.313380907049735e-09,0.729656059472075
3.315831356936039e-09,0.0001831623179415303,3.315831356936039e-09,7.372858377055739e-05,3.315831356936039e-09,7.369072389154794e-05,3.315831356936039e-09,-0.000674633759100491,3.315831356936039e-09,0.7310174205200214
3.318484373051003e-09,0.0003207748389930738,3.318484373051003e-09,7.37208211163322e-05,3.318484373051003e-09,7.36995204972406e-05,3.318484373051003e-09,-0.001509944066323856,3.318484373051003e-09,0.7324913183616685
3.322077754811817e-09,0.000370383906322757,3.322077754811817e-09,7.367594298440622e-05,3.322077754811817e-09,7.371482599208802e-05,3.322077754811817e-09,-0.002698519609964777,3.322077754811817e-09,0.7344876415621203
3.324817838054808e-09,-0.002652677217545602,3.324817838054808e-09,7.363929696052474e-05,3.324817838054808e-09,7.371818903073147e-05,3.324817838054808e-09,-0.003346610328437629,3.324817838054808e-09,0.736009910030449
3.327786225159787e-09,-0.01053234219306915,3.327786225159787e-09,7.361818991068417e-05,3.327786225159787e-09,7.371426323230683e-05,3.327786225159787e-09,-0.003581803124895538,3.327786225159787e-09,0.7376590139776593
3.330762435690364e-09,-0.01111081035523679,3.330762435690364e-09,7.363141125094626e-05,3.330762435690364e-09,7.370896641220302e-05,3.330762435690364e-09,-0.003168623126957256,3.330762435690364e-09,0.7393124642724245
3.333407536893293e-09,0.02210507910562031,3.333407536893293e-09,7.366705163176878e-05,3.333407536893293e-09,7.369873672903505e-05,3.333407536893293e-09,-0.002362573745631605,3.333407536893293e-09,0.7407819649407185
3.33593244412484e-09,0.1004252983646716,3.33593244412484e-09,7.370000699046877e-05,3.33593244412484e-09,7.368242513666687e-05,3.33593244412484e-09,-0.001654614906322699,3.33593244412484e-09,0.7421846911804667
3.338072521973334e-09,0.1939469345379629,3.338072521973334e-09,7.373469325157508e-05,3.338072521973334e-09,7.368551137293401e-05,3.338072521973334e-09,-0.0009532388427011807,3.338072521973334e-09,0.7433736233185188
3.340638031827902e-09,0.3214967970621779,3.340638031827902e-09,7.376179634862127e-05,3.340638031827902e-09,7.369468657424687e-05,3.340638031827902e-09,0.0002032182139387239,3.340638031827902e-09,0.7447989065710564
3.343453789773848e-09,0.4719664641436692,3.343453789773848e-09,7.374478409833105e-05,3.343453789773848e-09,7.368553287800364e-05,3.343453789773848e-09,0.001427136119093745,3.343453789773848e-09,0.7463632165410264
3.346189694661167e-09,0.6120189908223586,3.346189694661167e-09,7.372225614544083e-05,3.346189694661167e-09,7.3682661922134e-05,3.346189694661167e-09,0.002370081038143236,3.346189694661167e-09,0.747883163700648
3.349080148530298e-09,0.732091936825358,3.349080148530298e-09,7.370318185944982e-05,3.349080148530298e-09,7.36827895240364e-05,3.349080148530298e-09,0.002921031306811774,3.349080148530298e-09,0.7494889714057212
3.351618240597896e-09,0.8042392639713686,3.351618240597896e-09,7.369807385561966e-05,3.351618240597896e-09,7.368832760596151e-05,3.351618240597896e-09,0.003049354016185475,3.351618240597896e-09,0.7508990225543867
3.354233821423537e-09,0.86786446666318,3.354233821423537e-09,7.369864993730063e-05,3.354233821423537e-09,7.369573348153266e-05,3.354233821423537e-09,0.002934562033476758,3.354233821423537e-09,0.7523521230130762
3.357088987239655e-09,1.00510024769574,3.357088987239655e-09,7.369972129985327e-05,3.357088987239655e-09,7.3700441598758e-05,3.357088987239655e-09,0.002625862906919587,3.357088987239655e-09,0.7539383262442528
3.359734590246463e-09,1.335047789126508,3.359734590246463e-09,7.369978847903604e-05,3.359734590246463e-09,7.370280328988626e-05,3.359734590246463e-09,0.002258499563386167,3.359734590246463e-09,0.7554081056924791
3.361815584301087e-09,1.841633125039998,3.361815584301087e-09,7.369939924644519e-05,3.361815584301087e-09,7.370308756571857e-05,3.361815584301087e-09,0.001976541414331992,3.361815584301087e-09,0.7565642135006038
3.363800636486812e-09,2.52314550044225,3.363800636486812e-09,7.369789197916155e-05,3.363800636486812e-09,7.370241015366236e-05,3.363800636486812e-09,0.001733509494815076,3.363800636486812e-09,0.7576670202704509
3.365051950194464e-09,3.001228197406548,3.365051950194464e-09,7.36963821532392e-05,3.365051950194464e-09,7.370094362557498e-05,3.365051950194464e-09,0.001593336030474591,3.365051950194464e-09,0.7583621945524801
3.36676298758348e-09,3.608800224245506,3.36676298758348e-09,7.369433876697735e-05,3.36676298758348e-09,7.369936393012012e-05,3.36676298758348e-09,0.001416599887613138,3.36676298758348e-09,0.7593127708797113
3.368170822543719e-09,3.997681166877277,3.368170822543719e-09,7.369273454138202e-05,3.368170822543719e-09,7.36977363244728e-05,3.368170822543719e-09,0.001281902109337019,3.368170822543719e-09,0.760094901413177
