/net039 X,/net039 Y,/net010 X,/net010 Y,/net09 X,/net09 Y,/net08 X,/net08 Y,/net02 X,/net02 Y
0,7.369521627110253e-05,0,7.369521627107148e-05,0,7.369521627096658e-05,0,6.437806357482215e-05,0,0
1.5e-11,7.369521627109553e-05,1.5e-11,7.369521627106518e-05,1.5e-11,7.369521627097482e-05,1.5e-11,6.437806357492083e-05,1.5e-11,0
4.5e-11,7.369521627104292e-05,4.5e-11,7.369521627101018e-05,4.5e-11,7.369521627105775e-05,4.5e-11,6.437806357488128e-05,4.5e-11,0
1.05e-10,7.369521627228225e-05,1.05e-10,7.369521626939564e-05,1.05e-10,7.369521627259443e-05,1.05e-10,6.43780635751154e-05,1.05e-10,0
2.25e-10,7.369521626955499e-05,2.25e-10,7.369521627233182e-05,2.25e-10,7.369521626966534e-05,2.25e-10,6.437806357458037e-05,2.25e-10,0
4.65e-10,7.369521627222836e-05,4.65e-10,7.369521626965669e-05,4.65e-10,7.369521627256994e-05,4.65e-10,6.43780635750513e-05,4.65e-10,0
7.649999999999999e-10,7.369521627281977e-05,7.649999999999999e-10,7.36952162723109e-05,7.649999999999999e-10,7.369521626975139e-05,7.649999999999999e-10,6.437806357485497e-05,7.649999999999999e-10,0
1.065e-09,7.369521626918408e-05,1.065e-09,7.369521626969499e-05,1.065e-09,7.369521626902889e-05,1.065e-09,6.437806357513872e-05,1.065e-09,0
1.365e-09,7.369521626967116e-05,1.365e-09,7.369521627557211e-05,1.365e-09,7.369521627000268e-05,1.365e-09,6.437806357466167e-05,1.365e-09,0
1.665e-09,7.369521627539857e-05,1.665e-09,7.36952162664175e-05,1.665e-09,7.369521627205067e-05,1.665e-09,6.437806357486079e-05,1.665e-09,0
1.8325e-09,7.369521626673296e-05,1.8325e-09,7.36952162752287e-05,1.8325e-09,7.369521627013221e-05,1.8325e-09,6.437806357522721e-05,1.8325e-09,0
2e-09,7.369521627470888e-05,2e-09,7.369521626700858e-05,2e-09,7.369521627220103e-05,2e-09,6.437806357444008e-05,2e-09,0
2.120144127384571e-09,7.369521627071219e-05,2.120144127384571e-09,7.369521627069706e-05,2.120144127384571e-09,7.369521627115972e-05,2.120144127384571e-09,6.43780635752778e-05,2.120144127384571e-09,0.06674673743587282
2.261585129605973e-09,7.369521626967788e-05,2.261585129605973e-09,7.369521627255444e-05,2.261585129605973e-09,7.369521626949448e-05,2.261585129605973e-09,6.43780635495367e-05,2.261585129605973e-09,0.1453250720033182
2.400273538304042e-09,7.369521627203494e-05,2.400273538304042e-09,7.369521626948449e-05,2.400273538304042e-09,7.369521627275427e-05,2.400273538304042e-09,6.437806369101196e-05,2.400273538304042e-09,0.2223741879466899
2.455450261564963e-09,7.369521627001988e-05,2.455450261564963e-09,7.369521627216534e-05,2.455450261564963e-09,7.369521626888289e-05,2.455450261564963e-09,6.437806291736241e-05,2.455450261564963e-09,0.2530279230916461
2.483038623195424e-09,7.369521627205695e-05,2.483038623195424e-09,7.369521627266009e-05,2.483038623195424e-09,7.369521627911826e-05,2.483038623195424e-09,6.437806573984709e-05,2.483038623195424e-09,0.2683547906641242
2.538215346456345e-09,7.36952162696942e-05,2.538215346456345e-09,7.369521626954697e-05,2.538215346456345e-09,7.369521625852986e-05,2.538215346456345e-09,6.437806085160668e-05,2.538215346456345e-09,0.2990085258090806
2.560737121398751e-09,7.369521627189702e-05,2.560737121398751e-09,7.369521627221286e-05,2.560737121398751e-09,7.369521629155803e-05,2.560737121398751e-09,6.437806609386846e-05,2.560737121398751e-09,0.3115206229993059
2.571998008869954e-09,7.369521627086308e-05,2.571998008869954e-09,7.369521627250967e-05,2.571998008869954e-09,7.36952162533631e-05,2.571998008869954e-09,6.437806418657064e-05,2.571998008869954e-09,0.3177766715944186
2.594519783812359e-09,7.369521627170484e-05,2.594519783812359e-09,7.369521627278786e-05,2.594519783812359e-09,7.369521627240131e-05,2.594519783812359e-09,6.437806165861455e-05,2.594519783812359e-09,0.330288768784644
2.61929201554438e-09,7.369521627026037e-05,2.61929201554438e-09,7.369521626956309e-05,2.61929201554438e-09,7.369521628339387e-05,2.61929201554438e-09,6.437806587507554e-05,2.61929201554438e-09,0.3440511197468777
2.64050376976548e-09,7.369521627147995e-05,2.64050376976548e-09,7.369521627473895e-05,2.64050376976548e-09,7.36952162482693e-05,2.64050376976548e-09,6.437806141552003e-05,2.64050376976548e-09,0.3558354276474888
2.66068603188823e-09,7.36952162705202e-05,2.66068603188823e-09,7.369521626789242e-05,2.66068603188823e-09,7.369521629912247e-05,2.66068603188823e-09,6.437806530046844e-05,2.66068603188823e-09,0.3670477954934609
2.682055619276823e-09,7.369521627117826e-05,2.682055619276823e-09,7.369521627061127e-05,2.682055619276823e-09,7.369521624691045e-05,2.682055619276823e-09,6.437806229851128e-05,2.682055619276823e-09,0.3789197884871236
2.701703988604454e-09,7.369521627091317e-05,2.701703988604454e-09,7.369521627125555e-05,2.701703988604454e-09,7.369521629007417e-05,2.701703988604454e-09,6.437806442651001e-05,2.701703988604454e-09,0.3898355492246965
2.725079201383649e-09,7.369521627143238e-05,2.725079201383649e-09,7.369521627354072e-05,2.725079201383649e-09,7.369521625417598e-05,2.725079201383649e-09,6.437806300886031e-05,2.725079201383649e-09,0.4028217785464718
2.753399842659972e-09,7.36952162704632e-05,2.753399842659972e-09,7.369521626596899e-05,2.753399842659972e-09,7.36952162830527e-05,2.753399842659972e-09,6.437806395285774e-05,2.753399842659972e-09,0.4185554681444288
2.78417682580648e-09,7.369521627117206e-05,2.78417682580648e-09,7.369521627534139e-05,2.78417682580648e-09,7.369521626067913e-05,2.78417682580648e-09,6.437806333427763e-05,2.78417682580648e-09,0.4356537921147108
2.812895477102867e-09,7.369521627066567e-05,2.812895477102867e-09,7.369521626728115e-05,2.812895477102867e-09,7.369521627984438e-05,2.812895477102867e-09,6.437806369904911e-05,2.812895477102867e-09,0.4516085983904816
2.842817606891021e-09,7.369521627122081e-05,2.842817606891021e-09,7.36952162744321e-05,2.842817606891021e-09,7.369521626367085e-05,2.842817606891021e-09,6.437806353681241e-05,2.842817606891021e-09,0.4682320038283451
2.867139585824209e-09,7.369521627070072e-05,2.867139585824209e-09,7.369521626791374e-05,2.867139585824209e-09,7.369521627689168e-05,2.867139585824209e-09,6.437806353408558e-05,2.867139585824209e-09,0.4817442143467827
2.895104265130529e-09,7.36952162713147e-05,2.895104265130529e-09,7.369521627370934e-05,2.895104265130529e-09,7.369521626663376e-05,2.895104265130529e-09,6.437806366597168e-05,2.895104265130529e-09,0.497280147294738
2.921090929981873e-09,7.369521627068691e-05,2.921090929981873e-09,7.369521626832761e-05,2.921090929981873e-09,7.369521627447701e-05,2.921090929981873e-09,6.437806344517336e-05,2.921090929981873e-09,0.5117171833232627
2.973064259684561e-09,7.369521627108954e-05,2.973064259684561e-09,7.369521627375031e-05,2.973064259684561e-09,7.369521626809262e-05,2.973064259684561e-09,6.437806371920691e-05,2.973064259684561e-09,0.5405912553803117
3.015890532229237e-09,7.369521627084792e-05,3.015890532229237e-09,7.369521626866687e-05,3.015890532229237e-09,7.369521627339441e-05,3.015890532229237e-09,6.437806341589024e-05,3.015890532229237e-09,0.5643836290162429
3.059187524506024e-09,7.369521627104271e-05,3.059187524506024e-09,7.369521627326752e-05,3.059187524506024e-09,7.369521626637265e-05,3.059187524506024e-09,6.437806374546831e-05,3.059187524506024e-09,0.5884375136144577
3.070300109813089e-09,7.369521627086486e-05,3.070300109813089e-09,7.369521626965972e-05,3.070300109813089e-09,7.369521627058714e-05,3.070300109813089e-09,6.437806337816167e-05,3.070300109813089e-09,0.5946111721183825
3.092525280427218e-09,7.369521627109734e-05,3.092525280427218e-09,7.369521627263246e-05,3.092525280427218e-09,7.369521627122977e-05,3.092525280427218e-09,6.437806377375181e-05,3.092525280427218e-09,0.606958489126232
3.09968425419259e-09,7.3695216270923e-05,3.09968425419259e-09,7.36952162721105e-05,3.09968425419259e-09,7.369521626995848e-05,3.09968425419259e-09,6.437806338448703e-05,3.09968425419259e-09,0.6109356967736609
3.114002201723334e-09,7.369521627143981e-05,3.114002201723334e-09,7.369521627022726e-05,3.114002201723334e-09,7.369521627223147e-05,3.114002201723334e-09,6.437806375404554e-05,3.114002201723334e-09,0.6188901120685186
3.124927069161134e-09,7.369521627061945e-05,3.124927069161134e-09,7.369521626901117e-05,3.124927069161134e-09,7.369521627163982e-05,3.124927069161134e-09,6.43780633846093e-05,3.124927069161134e-09,0.6249594828672966
3.135313259469601e-09,7.369521627157967e-05,3.135313259469601e-09,7.369521627274074e-05,3.135313259469601e-09,7.369521627274417e-05,3.135313259469601e-09,6.437806378058444e-05,3.135313259469601e-09,0.630729588594223
3.1476497160462e-09,7.369521627048636e-05,3.1476497160462e-09,7.369521626908371e-05,3.1476497160462e-09,7.369521627561881e-05,3.1476497160462e-09,6.437806366750394e-05,3.1476497160462e-09,0.6375831755812221
3.157684697106782e-09,7.369521627197016e-05,3.157684697106782e-09,7.36952162726691e-05,3.157684697106782e-09,7.369521629486404e-05,3.157684697106782e-09,6.437806479728757e-05,3.157684697106782e-09,0.6431581650593233
3.160409149076861e-09,7.369521626242015e-05,3.160409149076861e-09,7.369521627147532e-05,3.160409149076861e-09,7.369521608217149e-05,3.160409149076861e-09,6.437806118814059e-05,3.160409149076861e-09,0.6446717494871448
3.165858053017018e-09,7.369521623488639e-05,3.165858053017018e-09,7.369521626914279e-05,3.165858053017018e-09,7.369521494882555e-05,3.165858053017018e-09,6.437802981234831e-05,3.165858053017018e-09,0.6476989183427877
3.176755860897332e-09,7.36952162917477e-05,3.176755860897332e-09,7.369521627210452e-05,3.176755860897332e-09,7.36952156896595e-05,3.176755860897332e-09,6.437799189044353e-05,3.176755860897332e-09,0.6537532560540735
3.184473711923254e-09,7.369521744415419e-05,3.184473711923254e-09,7.369521628731864e-05,3.184473711923254e-09,7.369525752682577e-05,3.184473711923254e-09,6.437917211207224e-05,3.184473711923254e-09,0.6580409510684743
3.19500577538263e-09,7.36952161743986e-05,3.19500577538263e-09,7.369521624381041e-05,3.19500577538263e-09,7.369522827612744e-05,3.19500577538263e-09,6.438011433370962e-05,3.19500577538263e-09,0.6638920974347943
3.20256137691456e-09,7.369520193230571e-05,3.20256137691456e-09,7.369521597076499e-05,3.20256137691456e-09,7.369366094670706e-05,3.20256137691456e-09,6.433695358395341e-05,3.20256137691456e-09,0.6680896538414224
3.210983694800318e-09,7.36952093223281e-05,3.210983694800318e-09,7.369521690611017e-05,3.210983694800318e-09,7.369457168248322e-05,3.210983694800318e-09,6.430547857098182e-05,3.210983694800318e-09,0.67276871933351
3.218019528720985e-09,7.369526226119344e-05,3.218019528720985e-09,7.369521768250411e-05,3.218019528720985e-09,7.370453838592456e-05,3.218019528720985e-09,6.454898737316429e-05,3.218019528720985e-09,0.6766775159561025
3.224396214739189e-09,7.369530189817649e-05,3.224396214739189e-09,7.369521184505055e-05,3.224396214739189e-09,7.369265620410989e-05,3.224396214739189e-09,6.451390649898322e-05,3.224396214739189e-09,0.6802201192995492
3.231792182411087e-09,7.369518724343708e-05,3.231792182411087e-09,7.369521848407638e-05,3.231792182411087e-09,7.368661559805326e-05,3.231792182411087e-09,6.426200472026471e-05,3.231792182411087e-09,0.6843289902283815
3.239450011701785e-09,7.369516686003648e-05,3.239450011701785e-09,7.36952185830175e-05,3.239450011701785e-09,7.369860915945774e-05,3.239450011701785e-09,6.43186041160201e-05,3.239450011701785e-09,0.688583339834325
3.246950571519115e-09,7.369519943983153e-05,3.246950571519115e-09,7.36952131293939e-05,3.246950571519115e-09,7.369634915316175e-05,3.246950571519115e-09,6.436685596161147e-05,3.246950571519115e-09,0.6927503175106193
3.254159767303199e-09,7.369497832257268e-05,3.254159767303199e-09,7.369521652678902e-05,3.254159767303199e-09,7.369574386948205e-05,3.254159767303199e-09,6.43806889960405e-05,3.254159767303199e-09,0.6967554262795548
3.261467761370244e-09,7.369488944494591e-05,3.261467761370244e-09,7.369521545443068e-05,3.261467761370244e-09,7.369350029521438e-05,3.261467761370244e-09,6.432107470609333e-05,3.261467761370244e-09,0.7008154229834689
3.267074187418399e-09,7.369293701787731e-05,3.267074187418399e-09,7.369520697595758e-05,3.267074187418399e-09,7.369037463710717e-05,3.267074187418399e-09,6.414908967584642e-05,3.267074187418399e-09,0.7039301041213328
3.271528871931401e-09,7.367737608925236e-05,3.271528871931401e-09,7.369512655042516e-05,3.271528871931401e-09,7.369032130789704e-05,3.271528871931401e-09,6.368044164257001e-05,3.271528871931401e-09,0.7064049288507783
3.275483793115356e-09,7.364932736293759e-05,3.275483793115356e-09,7.369505103287559e-05,3.275483793115356e-09,7.369852841849281e-05,3.275483793115356e-09,6.288152665293982e-05,3.275483793115356e-09,0.708602107286309
3.279521445592305e-09,7.371668895814738e-05,3.279521445592305e-09,7.369567565236182e-05,3.279521445592305e-09,7.370880748303098e-05,3.279521445592305e-09,6.368233046514097e-05,3.279521445592305e-09,0.7108452475512805
3.28294403335294e-09,7.426953189443234e-05,3.28294403335294e-09,7.369903238204515e-05,3.28294403335294e-09,7.371320822573156e-05,3.28294403335294e-09,7.465975133708957e-05,3.28294403335294e-09,0.712746685196078
3.286376452101902e-09,7.522478565665319e-05,3.286376452101902e-09,7.370140853000482e-05,3.286376452101902e-09,7.371066973227465e-05,3.286376452101902e-09,0.0001002173277999812,3.286376452101902e-09,0.7146535845010569
3.289553095698212e-09,7.496008163196786e-05,3.289553095698212e-09,7.369237266963509e-05,3.289553095698212e-09,7.370670480383259e-05,3.289553095698212e-09,0.000108280117631093,3.289553095698212e-09,0.7164183864990066
3.291928250529141e-09,7.379942396569873e-05,3.291928250529141e-09,7.368406648042621e-05,3.291928250529141e-09,7.370302056372571e-05,3.291928250529141e-09,6.136937334767487e-05,3.291928250529141e-09,0.7177379169606338
3.2947793459867e-09,7.265550602951662e-05,3.2947793459867e-09,7.368524494195059e-05,3.2947793459867e-09,7.368094020495305e-05,3.2947793459867e-09,-0.0001621436693788117,3.2947793459867e-09,0.7193218588815001
3.298096996025895e-09,6.869787521584784e-05,3.298096996025895e-09,7.369739838973653e-05,3.298096996025895e-09,7.365671596907343e-05,3.298096996025895e-09,-0.0007926898017410869,3.298096996025895e-09,0.7211649977921636
3.30212954560714e-09,5.730949512477058e-05,3.30212954560714e-09,7.371537799720771e-05,3.30212954560714e-09,7.367960693852659e-05,3.30212954560714e-09,-0.001211913614190947,3.30212954560714e-09,0.7234053031150778
3.305053032343481e-09,5.461390531819566e-05,3.305053032343481e-09,7.370558262973849e-05,3.305053032343481e-09,7.369411142440104e-05,3.305053032343481e-09,-0.0009754744078313056,3.305053032343481e-09,0.7250294624130449
3.307772049165526e-09,6.304924395473205e-05,3.307772049165526e-09,7.368624834556075e-05,3.307772049165526e-09,7.368988023402367e-05,3.307772049165526e-09,-0.0005998386270325624,3.307772049165526e-09,0.726540027314181
3.310486921015399e-09,8.257514877030798e-05,3.310486921015399e-09,7.369036745421408e-05,3.310486921015399e-09,7.368746441432231e-05,3.310486921015399e-09,-0.000277189732076464,3.310486921015399e-09,0.7280482894529992
3.313380908828765e-09,0.0001226735219445589,3.313380908828765e-09,7.371069854000374e-05,3.313380908828765e-09,7.368687615011432e-05,3.313380908828765e-09,-0.0002644005604337659,3.313380908828765e-09,0.7296560604604252
3.315831358928982e-09,0.0001831623770260548,3.315831358928982e-09,7.372858376752813e-05,3.315831358928982e-09,7.369074453207318e-05,3.315831358928982e-09,-0.0006746341174570727,3.315831358928982e-09,0.7310174216272121
3.318484375307607e-09,0.0003207749758566511,3.318484375307607e-09,7.372082108802711e-05,3.318484375307607e-09,7.369953973904653e-05,3.318484375307607e-09,-0.001509944539489464,3.318484375307607e-09,0.732491319615337
3.322077757376503e-09,0.0003703832914233365,3.322077757376503e-09,7.367594294658415e-05,3.322077757376503e-09,7.371483664776358e-05,3.322077757376503e-09,-0.002698519913341834,3.322077757376503e-09,0.7344876429869462
3.324817840693921e-09,-0.002652682092623273,3.324817840693921e-09,7.363929693121958e-05,3.324817840693921e-09,7.371819371072845e-05,3.324817840693921e-09,-0.003346610385941425,3.324817840693921e-09,0.7360099114966225
3.327786227847395e-09,-0.01053234861894744,3.327786227847395e-09,7.361818990480172e-05,3.327786227847395e-09,7.371426192546666e-05,3.327786227847395e-09,-0.003581802771364669,3.327786227847395e-09,0.7376590154707748
3.330762438444125e-09,-0.01111079882019008,3.330762438444125e-09,7.363141128157278e-05,3.330762438444125e-09,7.370896252565294e-05,3.330762438444125e-09,-0.003168622221752157,3.330762438444125e-09,0.7393124658022917
3.333407539867586e-09,0.02210513845212592,3.333407539867586e-09,7.36670516663226e-05,3.333407539867586e-09,7.369873142703143e-05,3.333407539867586e-09,-0.002362572774577988,3.333407539867586e-09,0.7407819665931034
3.335932446139678e-09,0.1004253697800813,3.335932446139678e-09,7.37000070197894e-05,3.335932446139678e-09,7.368241991558974e-05,3.335932446139678e-09,-0.001654614311250088,3.335932446139678e-09,0.742184692299821
3.338072524017523e-09,0.1939470189631117,3.338072524017523e-09,7.373469328689431e-05,3.338072524017523e-09,7.368550642740436e-05,3.338072524017523e-09,-0.0009532380405215446,3.338072524017523e-09,0.7433736244541792
3.340638034015477e-09,0.3214968982499555,3.340638034015477e-09,7.376179634987881e-05,3.340638034015477e-09,7.369468225898382e-05,3.340638034015477e-09,0.000203219132009732,3.340638034015477e-09,0.7447989077863758
3.343453792267188e-09,0.4719665839038209,3.343453792267188e-09,7.374478408120046e-05,3.343453792267188e-09,7.368552941685595e-05,3.343453792267188e-09,0.001427137019510225,3.343453792267188e-09,0.7463632179262156
3.346189695209485e-09,0.6120190066298596,3.346189695209485e-09,7.372225613929225e-05,3.346189695209485e-09,7.368265916737047e-05,3.346189695209485e-09,0.002370081103885126,3.346189695209485e-09,0.7478831640052694
3.349080148738844e-09,0.7320919346308595,3.349080148738844e-09,7.370318186056137e-05,3.349080148738844e-09,7.368278770442849e-05,3.349080148738844e-09,0.002921031256986882,3.349080148738844e-09,0.7494889715215801
3.35161824057867e-09,0.8042392576197479,3.35161824057867e-09,7.369807385674258e-05,3.35161824057867e-09,7.368832623289786e-05,3.35161824057867e-09,0.003049353961789437,3.35161824057867e-09,0.7508990225437058
3.354233821490445e-09,0.8678644613143306,3.354233821490445e-09,7.369864993603243e-05,3.354233821490445e-09,7.369573280908271e-05,3.354233821490445e-09,0.002934561996585258,3.354233821490445e-09,0.7523521230502472
3.357088987279224e-09,1.005100232198056,3.357088987279224e-09,7.369972129995728e-05,3.357088987279224e-09,7.370044114664793e-05,3.357088987279224e-09,0.002625862888471186,3.357088987279224e-09,0.7539383262662354
3.359734590273541e-09,1.335047748860644,3.359734590273541e-09,7.369978847775359e-05,3.359734590273541e-09,7.3702803320502e-05,3.359734590273541e-09,0.002258499558137697,3.359734590273541e-09,0.7554081057075227
3.361815584361416e-09,1.841633069142581,3.361815584361416e-09,7.369939924392389e-05,3.361815584361416e-09,7.370308752896305e-05,3.361815584361416e-09,0.001976541406344612,3.361815584361416e-09,0.7565642135341201
3.363800636498768e-09,2.523145414191715,3.363800636498768e-09,7.369789197878938e-05,3.363800636498768e-09,7.370241043442975e-05,3.363800636498768e-09,0.001733509496801275,3.363800636498768e-09,0.7576670202770932
3.365051950238271e-09,3.001228121978389,3.365051950238271e-09,7.369638215355002e-05,3.365051950238271e-09,7.370094373711405e-05,3.365051950238271e-09,0.001593336028100072,3.365051950238271e-09,0.7583621945768174
3.366762987661816e-09,3.608800171448147,3.366762987661816e-09,7.36943387665252e-05,3.366762987661816e-09,7.36993642932601e-05,3.366762987661816e-09,0.001416599885255451,3.366762987661816e-09,0.759312770923231
3.36817082262524e-09,3.997681129158336,3.36817082262524e-09,7.36927345392705e-05,3.36817082262524e-09,7.369773651969103e-05,3.36817082262524e-09,0.001281902106021968,3.36817082262524e-09,0.7600949014584668
3.369653633251833e-09,4.291282298357424,3.369653633251833e-09,7.369152810563756e-05,3.369653633251833e-09,7.369672056400703e-05,3.369653633251833e-09,0.001152583024497029,3.369653633251833e-09,0.7609186851399073
