/out0 X,/out0 Y,/out1 X,/out1 Y,/Vin X,/Vin Y
0,0.1838085654953112,0,0.2476703961814805,0,0.475
2e-05,0.1838762896321351,2e-05,0.2476711770506854,2e-05,0.4781333308391076
4e-05,0.1839556580773854,4e-05,0.2476720974906413,4e-05,0.4812172471791213
6.000000000000001e-05,0.1840373499954618,6.000000000000001e-05,0.247673046506942,6.000000000000001e-05,0.4842031138171169
8.000000000000001e-05,0.184123487252204,8.000000000000001e-05,0.24767404942275,8.000000000000001e-05,0.4870438418525428
0.0001,0.1842131738298688,0.0001,0.2476750962266966,0.0001,0.4896946313073118
0.00012,0.1843044833329584,0.00012,0.2476761646460296,0.00012,0.4921136776482172
0.00014,0.1843951223335518,0.00014,0.2476772279305619,0.00014,0.4942628310693947
0.00016,0.1844814064621201,0.00016,0.2476782427089039,0.00016,0.4961081981375504
0.00018,0.1845593166793852,0.00018,0.2476791611821516,0.00018,0.4976206763116505
0.0002,0.1846236866416224,0.0002,0.2476799217889805,0.0002,0.4987764129073788
0.00022,0.1846700760697852,0.00022,0.2476804709973056,0.00022,0.4995571812682172
0.00024,0.1846942240372348,0.00024,0.2476807576972817,0.00024,0.4999506682107068
0.00026,0.1846943337763303,0.00026,0.2476807597873682,0.00026,0.4999506682107068
0.00028,0.1846699963954857,0.00028,0.2476804726373241,0.00028,0.4995571812682172
0.0003,0.1846238027674328,0.0003,0.2476799270180867,0.0003,0.4987764129073788
0.00032,0.1845592532763313,0.00032,0.2476791655273747,0.00032,0.4976206763116505
0.00034,0.1844814954418423,0.00034,0.2476782494496184,0.00034,0.4961081981375504
0.00036,0.18439505981084,0.00036,0.24767723344342,0.00036,0.4942628310693947
0.00038,0.1843045380338559,0.00038,0.247676171541504,0.00038,0.4921136776482172
0.0004,0.1842131071892639,0.0004,0.2476751017793709,0.0004,0.4896946313073118
0.00042,0.1841235128745256,0.00042,0.2476740557149167,0.00042,0.4870438418525428
0.00044,0.1840372802933447,0.00044,0.2476730515277006,0.00044,0.4842031138171169
0.00046,0.1839557020686878,0.00046,0.2476721033643585,0.00046,0.4812172471791213
0.00048,0.1838792870662879,0.00048,0.2476712173800606,0.00048,0.4781333308391076
0.0005,0.1838085608570792,0.0005,0.2476703986563721,0.0005,0.475
0.0005200000000000001,0.1837435634078563,0.0005200000000000001,0.2476696479202908,0.0005200000000000001,0.4718666691608924
0.0005400000000000001,0.1836844813843912,0.0005400000000000001,0.2476689663241082,0.0005400000000000001,0.4687827528208786
0.0005600000000000002,0.1836311689791586,0.0005600000000000002,0.2476683525186534,0.0005600000000000002,0.465796886182883
0.0005800000000000002,0.1835836751768768,0.0005800000000000002,0.2476678061176659,0.0005800000000000002,0.4629561581474571
0.0006000000000000003,0.1835417912521224,0.0006000000000000003,0.2476673251357812,0.0006000000000000003,0.4603053686926881
0.0006200000000000003,0.1835055172039131,0.0006200000000000003,0.247666908681192,0.0006200000000000003,0.4578863223517827
0.0006400000000000004,0.1834746349586662,0.0006400000000000004,0.247666554738502,0.0006400000000000004,0.4557371689306052
0.0006600000000000004,0.1834491388654461,0.0006600000000000004,0.2476662624151839,0.0006600000000000004,0.4538918018624495
0.0006800000000000005,0.1834288290014142,0.0006800000000000005,0.247666029966105,0.0006800000000000005,0.4523793236883494
0.0007000000000000005,0.1834137197113212,0.0007000000000000005,0.2476658567829804,0.0007000000000000005,0.4512235870926211
0.0007200000000000006,0.1834036459980224,0.0007200000000000006,0.2476657415897985,0.0007200000000000006,0.4504428187317827
0.0007400000000000006,0.1833986588233614,0.0007400000000000006,0.247665684226651,0.0007400000000000006,0.4500493317892932
0.0007600000000000007,0.183398637742643,0.0007600000000000007,0.2476656839934828,0.0007600000000000007,0.4500493317892932
0.0007800000000000007,0.1834036794646998,0.0007800000000000007,0.2476657412880915,0.0007800000000000007,0.4504428187317828
0.0008000000000000008,0.1834137104642759,0.0008000000000000008,0.2476658560031798,0.0008000000000000008,0.4512235870926212
0.0008200000000000008,0.1834288746407703,0.0008200000000000008,0.2476660291217988,0.0008200000000000008,0.4523793236883495
0.0008400000000000009,0.1834491400865186,0.0008400000000000009,0.2476662610531397,0.0008400000000000009,0.4538918018624497
0.000860000000000001,0.1834746917829042,0.000860000000000001,0.2476665533102949,0.000860000000000001,0.4557371689306053
0.000880000000000001,0.1835055265989966,0.000880000000000001,0.2476669066926084,0.000880000000000001,0.4578863223517829
0.0009000000000000011,0.1835418574662427,0.0009000000000000011,0.2476673230735305,0.0009000000000000011,0.4603053686926883
0.0009200000000000011,0.1835836893927176,0.0009200000000000011,0.2476678034296725,0.0009200000000000011,0.4629561581474573
0.0009400000000000012,0.1836312419650142,0.0009400000000000012,0.2476683497607997,0.0009400000000000012,0.4657968861828832
0.0009600000000000012,0.1836844958668469,0.0009600000000000012,0.2476689628527411,0.0009600000000000012,0.4687827528208788
0.0009800000000000013,0.1837436398024755,0.0009800000000000013,0.2476696443993757,0.0009800000000000013,0.4718666691608925
0.001000000000000001,0.1838085697384915,0.001000000000000001,0.2476703943131235,0.001000000000000001,0.4750000000000001
0.001020000000000001,0.1838793629796568,0.001020000000000001,0.2476712130515437,0.001020000000000001,0.4781333308391078
0.001040000000000001,0.1839556981444837,0.001040000000000001,0.2476720980885611,0.001040000000000001,0.4812172471791216
0.001060000000000001,0.1840373519624579,0.001060000000000001,0.2476730464147509,0.001060000000000001,0.4842031138171171
0.001080000000000002,0.1841234880689987,0.001080000000000002,0.2476740495460967,0.001080000000000002,0.4870438418525431
0.001100000000000002,0.1842131726382389,0.001100000000000002,0.2476750961017029,0.001100000000000002,0.489694631307312
0.001120000000000002,0.1843044848317086,0.001120000000000002,0.2476761647750388,0.001120000000000002,0.4921136776482174
0.001140000000000002,0.1843951204789319,0.001140000000000002,0.2476772277964082,0.001140000000000002,0.4942628310693948
0.001160000000000002,0.1844814087230964,0.001160000000000002,0.2476782428432986,0.001160000000000002,0.4961081981375505
0.001180000000000002,0.1845593140010116,0.001180000000000002,0.2476791610443382,0.001180000000000002,0.4976206763116506
0.001200000000000002,0.1846236897436362,0.001200000000000002,0.2476799219322787,0.001200000000000002,0.4987764129073789
0.001220000000000002,0.1846700726259985,0.001220000000000002,0.2476804708516347,0.001220000000000002,0.4995571812682172
0.001240000000000002,0.1846942277254367,0.001240000000000002,0.2476807578427199,0.001240000000000002,0.4999506682107068
0.001260000000000002,0.1846943300370007,0.001260000000000002,0.2476807596441994,0.001260000000000002,0.4999506682107068
0.001280000000000002,0.1846700000206158,0.001280000000000002,0.2476804727801513,0.001280000000000002,0.4995571812682171
0.001300000000000002,0.1846237994642293,0.001300000000000002,0.2476799268812782,0.001300000000000002,0.4987764129073787
0.001320000000000002,0.1845592561615555,0.001320000000000002,0.2476791656606397,0.001320000000000002,0.4976206763116503
0.001340000000000002,0.1844814930546192,0.001340000000000002,0.2476782493280025,0.001340000000000002,0.4961081981375501
0.001360000000000002,0.1843950617328336,0.001360000000000002,0.2476772335598003,0.001360000000000002,0.4942628310693945
0.001380000000000002,0.1843045365438062,0.001380000000000002,0.2476761714335869,0.001380000000000002,0.492113677648217
0.001400000000000002,0.1842131083316871,0.001400000000000002,0.2476751018823697,0.001400000000000002,0.4896946313073115
0.001420000000000002,0.1841235120247393,0.001420000000000002,0.2476740556128344,0.001420000000000002,0.4870438418525425
0.001440000000000002,0.1840372809131869,0.001440000000000002,0.2476730516230457,0.001440000000000002,0.4842031138171166
0.001460000000000003,0.1839557016402322,0.001460000000000003,0.2476721032707033,0.001460000000000003,0.481217247179121
0.001480000000000003,0.1838792873468827,0.001480000000000003,0.2476712174724976,0.001480000000000003,0.4781333308391072
0.001500000000000003,0.1838085607017766,0.001500000000000003,0.2476703985667945,0.001500000000000003,0.4749999999999996
0.001520000000000003,0.1837435634624853,0.001520000000000003,0.2476696480111969,0.001520000000000003,0.471866669160892
0.001540000000000003,0.1836844814117563,0.001540000000000003,0.2476689662334328,0.001540000000000003,0.4687827528208782
0.001560000000000003,0.183631168882877,0.001560000000000003,0.2476683526084987,0.001560000000000003,0.4657968861828826
0.001580000000000003,0.1835836753310629,0.001580000000000003,0.2476678060307315,0.001580000000000003,0.4629561581474567
0.001600000000000003,0.1835417910523873,0.001600000000000003,0.2476673252226286,0.001600000000000003,0.4603053686926878
0.001620000000000003,0.1835055174418992,0.001620000000000003,0.24766690859663,0.001620000000000003,0.4578863223517824
0.001640000000000003,0.1834746346896602,0.001640000000000003,0.2476665548204022,0.001640000000000003,0.455737168930605
0.001660000000000003,0.1834491391603171,0.001660000000000003,0.2476662623310174,0.001660000000000003,0.4538918018624494
0.001680000000000003,0.1834288286890502,0.001680000000000003,0.2476660300477712,0.001680000000000003,0.4523793236883493
0.001700000000000003,0.1834137200381969,0.001700000000000003,0.247665856702151,0.001700000000000003,0.451223587092621
0.001720000000000003,0.183403645663056,0.001720000000000003,0.2476657416729982,0.001720000000000003,0.4504428187317827
0.001740000000000003,0.1833986591625959,0.001740000000000003,0.2476656841428731,0.001740000000000003,0.4500493317892932
0.001760000000000003,0.1833986374052003,0.001760000000000003,0.2476656840748514,0.001760000000000003,0.4500493317892932
0.001780000000000003,0.183403679798013,0.001780000000000003,0.2476657412075053,0.001780000000000003,0.4504428187317828
0.001800000000000003,0.1834137101428236,0.001800000000000003,0.2476658560860806,0.001800000000000003,0.4512235870926213
0.001820000000000003,0.1834288749508848,0.001820000000000003,0.2476660290384963,0.001820000000000003,0.4523793236883497
0.001840000000000004,0.1834491397958735,0.001840000000000004,0.24766626113705,0.001840000000000004,0.4538918018624499
0.001860000000000004,0.1834746920483157,0.001860000000000004,0.247666553230405,0.001860000000000004,0.4557371689306056
0.001880000000000004,0.1835055263658021,0.001880000000000004,0.2476669067728689,0.001880000000000004,0.4578863223517832
0.001900000000000004,0.1835418576613704,0.001900000000000004,0.247667322994832,0.001900000000000004,0.4603053686926886
0.001920000000000004,0.1835836892442154,0.001920000000000004,0.2476678035102977,0.001920000000000004,0.4629561581474576
0.001940000000000004,0.1836312420586304,0.001940000000000004,0.2476683496816822,0.001940000000000004,0.4657968861828836
0.001960000000000004,0.1836844958389131,0.001960000000000004,0.2476689629304339,0.001960000000000004,0.4687827528208792
0.001980000000000004,0.1837436397501347,0.001980000000000004,0.2476696443201406,0.001980000000000004,0.471866669160893
0.002000000000000004,0.1838085698887237,0.002000000000000004,0.2476703943937467,0.002000000000000004,0.4750000000000006
0.002020000000000004,0.1838793627149805,0.002020000000000004,0.2476712129679215,0.002020000000000004,0.4781333308391082
0.002040000000000004,0.1839556985484643,0.002040000000000004,0.2476720981746725,0.002040000000000004,0.481217247179122
0.002060000000000004,0.1840373513950163,0.002060000000000004,0.2476730463282282,0.002060000000000004,0.4842031138171175
0.002080000000000004,0.1841234888387359,0.002080000000000004,0.2476740496335999,0.002080000000000004,0.4870438418525434
0.002100000000000004,0.1842131716347816,0.002100000000000004,0.247675096013454,0.002100000000000004,0.4896946313073123
0.002120000000000004,0.1843044861143904,0.002120000000000004,0.2476761648625077,0.002120000000000004,0.4921136776482177
0.002140000000000004,0.1843951188780419,0.002140000000000004,0.2476772277093687,0.002140000000000004,0.4942628310693951
0.002160000000000004,0.1844814106869051,0.002160000000000004,0.247678242936292,0.002160000000000004,0.4961081981375507
0.002180000000000004,0.184559311663629,0.002180000000000004,0.2476791609498308,0.002180000000000004,0.4976206763116507
0.002200000000000004,0.1846236924581822,0.002200000000000004,0.2476799220296365,0.002200000000000004,0.4987764129073791
0.002220000000000005,0.1846700696018413,0.002220000000000005,0.2476804707539587,0.002220000000000005,0.4995571812682174
0.002240000000000005,0.1846942309689415,0.002240000000000005,0.2476807579433565,0.002240000000000005,0.4999506682107068
0.002260000000000005,0.1846943267470192,0.002260000000000005,0.2476807595425307,0.002260000000000005,0.4999506682107067
0.002280000000000005,0.1846700032057395,0.002280000000000005,0.2476804728781092,0.002280000000000005,0.4995571812682171
0.002300000000000005,0.1846237965663586,0.002300000000000005,0.2476799267850699,0.002300000000000005,0.4987764129073786
0.002320000000000005,0.1845592586833072,0.002320000000000005,0.2476791657498337,0.002320000000000005,0.4976206763116502
0.002340000000000005,0.1844814909774499,0.002340000000000005,0.2476782492394124,0.002340000000000005,0.49610819813755
0.002360000000000005,0.1843950633944167,0.002360000000000005,0.2476772336432064,0.002360000000000005,0.4942628310693942
0.002380000000000005,0.1843045352627906,0.002380000000000005,0.2476761713535034,0.002380000000000005,0.4921136776482166
0.002400000000000005,0.1842131092989941,0.002400000000000005,0.2476751019573248,0.002400000000000005,0.4896946313073112
0.002420000000000005,0.1841235113183219,0.002420000000000005,0.2476740555420169,0.002420000000000005,0.4870438418525421
0.002440000000000005,0.1840372814144179,0.002440000000000005,0.2476730516923661,0.002440000000000005,0.4842031138171162
0.002460000000000005,0.1839557013079457,0.002460000000000005,0.2476721032016712,0.002460000000000005,0.4812172471791206
0.002480000000000005,0.1838792875464871,0.002480000000000005,0.2476712175364302,0.002480000000000005,0.4781333308391068
0.002500000000000005,0.1838085606125732,0.002500000000000005,0.247670398503105,0.002500000000000005,0.4749999999999991
0.002520000000000005,0.1837435634659643,0.002520000000000005,0.2476696480688385,0.002520000000000005,0.4718666691608916
0.002540000000000005,0.1836844814831109,0.002540000000000005,0.2476689661782018,0.002540000000000005,0.4687827528208778
0.002560000000000005,0.1836311687504477,0.002560000000000005,0.2476683526629401,0.002560000000000005,0.4657968861828823
0.002580000000000005,0.1835836755128199,0.002580000000000005,0.2476678059755484,0.002580000000000005,0.4629561581474564
0.002600000000000006,0.183541790831179,0.002600000000000006,0.2476673252756632,0.002600000000000006,0.4603053686926875
0.002620000000000006,0.183505517695921,0.002620000000000006,0.2476669085420334,0.002620000000000006,0.4578863223517821
0.002640000000000006,0.1834746344097818,0.002640000000000006,0.2476665548761076,0.002640000000000006,0.4557371689306047
0.002660000000000006,0.1834491394597872,0.002660000000000006,0.2476662622776008,0.002660000000000006,0.4538918018624492
0.002680000000000006,0.1834288283737247,0.002680000000000006,0.2476660301020336,0.002680000000000006,0.4523793236883491
0.002700000000000006,0.183413720365148,0.002700000000000006,0.2476658566535785,0.002700000000000006,0.4512235870926208
0.002720000000000006,0.183403645330966,0.002720000000000006,0.2476657417200895,0.002720000000000006,0.4504428187317826
0.002740000000000006,0.1833986594992092,0.002740000000000006,0.2476656840980323,0.002740000000000006,0.4500493317892931
0.002760000000000006,0.1833986370711887,0.002760000000000006,0.2476656841231069,0.002760000000000006,0.4500493317892932
0.002780000000000006,0.1834036801284024,0.002780000000000006,0.2476657411583398,0.002780000000000006,0.4504428187317829
0.002800000000000006,0.1834137098219608,0.002800000000000006,0.2476658561326016,0.002800000000000006,0.4512235870926214
0.002820000000000006,0.183428875256061,0.002820000000000006,0.2476660289929841,0.002820000000000006,0.4523793236883499
0.002840000000000006,0.1834491395088061,0.002840000000000006,0.2476662611818695,0.002840000000000006,0.4538918018624501
0.002860000000000006,0.1834746923125636,0.002860000000000006,0.247666553183417,0.002860000000000006,0.4557371689306058
0.002880000000000006,0.1835055261311723,0.002880000000000006,0.2476669068175514,0.002880000000000006,0.4578863223517834
0.002900000000000006,0.1835418578629693,0.002900000000000006,0.2476673229491623,0.002900000000000006,0.4603053686926889
0.002920000000000006,0.183583689084221,0.002920000000000006,0.2476678035515777,0.002920000000000006,0.4629561581474579
0.002940000000000006,0.1836312421700309,0.002940000000000006,0.247668349638914,0.002940000000000006,0.465796886182884
0.002960000000000006,0.1836844957891302,0.002960000000000006,0.2476689629745744,0.002960000000000006,0.4687827528208796
0.002980000000000007,0.1837436397281628,0.002980000000000007,0.2476696442773824,0.002980000000000007,0.4718666691608934
0.003000000000000007,0.1838085699976913,0.003000000000000007,0.2476703944367986,0.003000000000000007,0.475000000000001
