/net039 X,/net039 Y,/net010 X,/net010 Y,/net09 X,/net09 Y,/net08 X,/net08 Y,/net02 X,/net02 Y
0,7.369521627072507e-05,0,7.369521627104097e-05,0,7.369521340574817e-05,0,6.290386083900295e-05,0,0
1.5e-11,7.369521627071884e-05,1.5e-11,7.369521627101107e-05,1.5e-11,7.36952134054564e-05,1.5e-11,6.290386083914301e-05,1.5e-11,0
4.5e-11,7.369521627088456e-05,4.5e-11,7.369521627094465e-05,4.5e-11,7.369521340543992e-05,4.5e-11,6.290386083921387e-05,4.5e-11,0
1.05e-10,7.369521626957066e-05,1.05e-10,7.369521627227155e-05,1.05e-10,7.36952134067473e-05,1.05e-10,6.290386083903293e-05,1.05e-10,0
2.25e-10,7.369521627223728e-05,2.25e-10,7.369521626969771e-05,2.25e-10,7.369521340357962e-05,2.25e-10,6.290386083933448e-05,2.25e-10,0
4.65e-10,7.369521627282284e-05,4.65e-10,7.369521627237945e-05,4.65e-10,7.369521340993003e-05,4.65e-10,6.29038608387617e-05,4.65e-10,0
7.649999999999999e-10,7.369521626549689e-05,7.649999999999999e-10,7.369521627273899e-05,7.649999999999999e-10,7.369521340060427e-05,7.649999999999999e-10,6.290386083957066e-05,7.649999999999999e-10,0
1.065e-09,7.369521627630788e-05,1.065e-09,7.369521626920269e-05,1.065e-09,7.369521340997108e-05,1.065e-09,6.29038608385649e-05,1.065e-09,0
1.365e-09,7.369521626565089e-05,1.365e-09,7.369521627271319e-05,1.365e-09,7.369521340372678e-05,1.365e-09,6.29038608396793e-05,1.365e-09,0
1.665e-09,7.369521627637149e-05,1.665e-09,7.369521626942009e-05,1.665e-09,7.369521340345908e-05,1.665e-09,6.290386083840336e-05,1.665e-09,0
1.8325e-09,7.36952162657592e-05,1.8325e-09,7.369521627260183e-05,1.8325e-09,7.369521341018982e-05,1.8325e-09,6.290386083963394e-05,1.8325e-09,0
2e-09,7.369521627262201e-05,2e-09,7.369521626947862e-05,2e-09,7.369521340357979e-05,2e-09,6.290386083849271e-05,2e-09,0
2.120144127384571e-09,7.369521627112653e-05,2.120144127384571e-09,7.36952162709762e-05,2.120144127384571e-09,7.369521340578736e-05,2.120144127384571e-09,6.290386083947513e-05,2.120144127384571e-09,0.06674673743587282
2.261585129605973e-09,7.369521626639796e-05,2.261585129605973e-09,7.369521626953669e-05,2.261585129605973e-09,7.369521340641848e-05,2.261585129605973e-09,6.290386081523146e-05,2.261585129605973e-09,0.1453250720033182
2.400273538304042e-09,7.3695216275411e-05,2.400273538304042e-09,7.369521627205314e-05,2.400273538304042e-09,7.369521340712259e-05,2.400273538304042e-09,6.290386094637819e-05,2.400273538304042e-09,0.2223741879466899
2.455450261564968e-09,7.369521626699729e-05,2.455450261564968e-09,7.369521626706082e-05,2.455450261564968e-09,7.369521340294135e-05,2.455450261564968e-09,6.290386024797202e-05,2.455450261564968e-09,0.2530279230916486
2.48303862319543e-09,7.369521627411848e-05,2.48303862319543e-09,7.369521627411086e-05,2.48303862319543e-09,7.36952134138936e-05,2.48303862319543e-09,6.290386276282871e-05,2.48303862319543e-09,0.2683547906641279
2.538215346456356e-09,7.369521626790851e-05,2.538215346456356e-09,7.369521626809853e-05,2.538215346456356e-09,7.369521339342079e-05,2.538215346456356e-09,6.290385841926655e-05,2.538215346456356e-09,0.2990085258090865
2.560737121398757e-09,7.369521627360923e-05,2.560737121398757e-09,7.369521627326434e-05,2.560737121398757e-09,7.369521342598246e-05,2.560737121398757e-09,6.290386312453578e-05,2.560737121398757e-09,0.3115206229993092
2.571998008869957e-09,7.369521627192679e-05,2.571998008869957e-09,7.369521626902204e-05,2.571998008869957e-09,7.369521338486255e-05,2.571998008869957e-09,6.290386124075306e-05,2.571998008869957e-09,0.3177766715944205
2.594519783812358e-09,7.36952162706929e-05,2.594519783812358e-09,7.369521627021057e-05,2.594519783812358e-09,7.369521341901277e-05,2.594519783812358e-09,6.290385925321273e-05,2.594519783812358e-09,0.3302887687846431
2.619292015544418e-09,7.369521627129694e-05,2.619292015544418e-09,7.369521627163564e-05,2.619292015544418e-09,7.369521340456772e-05,2.619292015544418e-09,6.290386283576843e-05,2.619292015544418e-09,0.3440511197468986
2.640503769765494e-09,7.369521627091474e-05,2.640503769765494e-09,7.369521627075362e-05,2.640503769765494e-09,7.369521339577661e-05,2.640503769765494e-09,6.290385888326165e-05,2.640503769765494e-09,0.3558354276474964
2.660686031888206e-09,7.369521627063479e-05,2.660686031888206e-09,7.369521627098404e-05,2.660686031888206e-09,7.369521342350626e-05,2.660686031888206e-09,6.290386246848659e-05,2.660686031888206e-09,0.3670477954934476
2.682055619276796e-09,7.369521627117074e-05,2.682055619276796e-09,7.369521627115441e-05,2.682055619276796e-09,7.369521338535484e-05,2.682055619276796e-09,6.290385958564389e-05,2.682055619276796e-09,0.3789197884871087
2.701703988604428e-09,7.36952162708094e-05,2.701703988604428e-09,7.369521627049241e-05,2.701703988604428e-09,7.369521342196751e-05,2.701703988604428e-09,6.290386171404035e-05,2.701703988604428e-09,0.389835549224682
2.725079201383627e-09,7.369521627124326e-05,2.725079201383627e-09,7.369521627151157e-05,2.725079201383627e-09,7.369521339253557e-05,2.725079201383627e-09,6.290386023129161e-05,2.725079201383627e-09,0.4028217785464595
2.753399842659945e-09,7.36952162734522e-05,2.753399842659945e-09,7.369521627046756e-05,2.753399842659945e-09,7.369521341681085e-05,2.753399842659945e-09,6.290386126615649e-05,2.753399842659945e-09,0.4185554681444138
2.784176825806449e-09,7.369521626620632e-05,2.784176825806449e-09,7.369521627160097e-05,2.784176825806449e-09,7.369521339813307e-05,2.784176825806449e-09,6.290386054776257e-05,2.784176825806449e-09,0.4356537921146941
2.812895477102833e-09,7.369521627504623e-05,2.812895477102833e-09,7.36952162675815e-05,2.812895477102833e-09,7.369521341433229e-05,2.812895477102833e-09,6.290386101271871e-05,2.812895477102833e-09,0.4516085983904629
2.842817606890991e-09,7.369521626714996e-05,2.842817606890991e-09,7.369521627123607e-05,2.842817606890991e-09,7.369521340078256e-05,2.842817606890991e-09,6.290386075438337e-05,2.842817606890991e-09,0.4682320038283284
2.867139585824209e-09,7.369521627435986e-05,2.867139585824209e-09,7.369521627357524e-05,2.867139585824209e-09,7.369521340859522e-05,2.867139585824209e-09,6.290386083970633e-05,2.867139585824209e-09,0.4817442143467827
2.895104265130543e-09,7.369521627084851e-05,2.895104265130543e-09,7.369521626872556e-05,2.895104265130543e-09,7.369521340053668e-05,2.895104265130543e-09,6.290386089272685e-05,2.895104265130543e-09,0.4972801472947461
2.921090929981886e-09,7.369521627134726e-05,2.921090929981886e-09,7.369521627021077e-05,2.921090929981886e-09,7.369521340867892e-05,2.921090929981886e-09,6.290386074208571e-05,2.921090929981886e-09,0.51171718332327
2.973064259684572e-09,7.369521627087675e-05,2.973064259684572e-09,7.369521627188345e-05,2.973064259684572e-09,7.369521340535516e-05,2.973064259684572e-09,6.290386095288643e-05,2.973064259684572e-09,0.5405912553803178
3.015890532229313e-09,7.36952162709728e-05,3.015890532229313e-09,7.369521627013005e-05,3.015890532229313e-09,7.369521340469213e-05,3.015890532229313e-09,6.290386070776383e-05,3.015890532229313e-09,0.564383629016285
3.059187524506075e-09,7.369521626770416e-05,3.059187524506075e-09,7.369521627178289e-05,3.059187524506075e-09,7.369521340668454e-05,3.059187524506075e-09,6.290386098463282e-05,3.059187524506075e-09,0.5884375136144859
3.070300109813141e-09,7.369521627277492e-05,3.070300109813141e-09,7.369521626793976e-05,3.070300109813141e-09,7.369521340303064e-05,3.070300109813141e-09,6.290386066102696e-05,3.070300109813141e-09,0.594611172118412
3.092525280427275e-09,7.369521626921044e-05,3.092525280427275e-09,7.36952162766162e-05,3.092525280427275e-09,7.369521340811139e-05,3.092525280427275e-09,6.290386102325486e-05,3.092525280427275e-09,0.6069584891262637
3.099684254192637e-09,7.369521627191629e-05,3.099684254192637e-09,7.369521626806688e-05,3.099684254192637e-09,7.369521340251005e-05,3.099684254192637e-09,6.290386065649505e-05,3.099684254192637e-09,0.6109356967736873
3.114002201723362e-09,7.369521626973765e-05,3.114002201723362e-09,7.369521627449681e-05,3.114002201723362e-09,7.369521340884042e-05,3.114002201723362e-09,6.290386101286946e-05,3.114002201723362e-09,0.6188901120685345
3.124927069161163e-09,7.369521627170892e-05,3.124927069161163e-09,7.36952162684049e-05,3.124927069161163e-09,7.369521340099028e-05,3.124927069161163e-09,6.29038606640377e-05,3.124927069161163e-09,0.6249594828673128
3.135313259469618e-09,7.369521627030321e-05,3.135313259469618e-09,7.369521627103104e-05,3.135313259469618e-09,7.369521341210805e-05,3.135313259469618e-09,6.290386104639231e-05,3.135313259469618e-09,0.6307295885942322
3.147649716046207e-09,7.369521626937648e-05,3.147649716046207e-09,7.369521627029156e-05,3.147649716046207e-09,7.369521339829666e-05,3.147649716046207e-09,6.290386071646406e-05,3.147649716046207e-09,0.6375831755812258
3.157684697106856e-09,7.369521627179853e-05,3.157684697106856e-09,7.369521626949001e-05,3.157684697106856e-09,7.36952134231333e-05,3.157684697106856e-09,6.290386128309454e-05,3.157684697106856e-09,0.6431581650593645
3.160409149076931e-09,7.369521626386022e-05,3.160409149076931e-09,7.369521627136221e-05,3.160409149076931e-09,7.36952132500673e-05,3.160409149076931e-09,6.290385934783232e-05,3.160409149076931e-09,0.6446717494871841
3.165858053017082e-09,7.36952162318241e-05,3.165858053017082e-09,7.369521627089127e-05,3.165858053017082e-09,7.369521242000667e-05,3.165858053017082e-09,6.290384746288861e-05,3.165858053017082e-09,0.6476989183428233
3.176755860897383e-09,7.369521629191723e-05,3.176755860897383e-09,7.369521627040234e-05,3.176755860897383e-09,7.369521332741562e-05,3.176755860897383e-09,6.290384372407166e-05,3.176755860897383e-09,0.6537532560541018
3.184473711924341e-09,7.36952174400639e-05,3.184473711924341e-09,7.369521628590481e-05,3.184473711924341e-09,7.369524398721206e-05,3.184473711924341e-09,6.290429295171033e-05,3.184473711924341e-09,0.6580409510690785
3.19500577538388e-09,7.369521618422977e-05,3.19500577538388e-09,7.369521624924886e-05,3.19500577538388e-09,7.369521115085044e-05,3.19500577538388e-09,6.290434177860702e-05,3.19500577538388e-09,0.6638920974354892
3.202561376940929e-09,7.369520206454524e-05,3.202561376940929e-09,7.369521609112957e-05,3.202561376940929e-09,7.369406150470594e-05,3.202561376940929e-09,6.288840595275905e-05,3.202561376940929e-09,0.6680896538560719
3.210983694489254e-09,7.369520906004918e-05,3.210983694489254e-09,7.369521665977032e-05,3.210983694489254e-09,7.369514468905145e-05,3.210983694489254e-09,6.288694023436725e-05,3.210983694489254e-09,0.6727687191606964
3.218019528683563e-09,7.369526137668324e-05,3.218019528683563e-09,7.369521683075117e-05,3.218019528683563e-09,7.370235624411043e-05,3.218019528683563e-09,6.297888328021306e-05,3.218019528683563e-09,0.6766775159353127
3.224396211762359e-09,7.369530438155664e-05,3.224396211762359e-09,7.369521431099365e-05,3.224396211762359e-09,7.36909166594003e-05,3.224396211762359e-09,6.290976709821147e-05,3.224396211762359e-09,0.6802201176457549
3.231792188839689e-09,7.369518657860901e-05,3.231792188839689e-09,7.369521777061073e-05,3.231792188839689e-09,7.368954779986069e-05,3.231792188839689e-09,6.285206100894384e-05,3.231792188839689e-09,0.6843289937998273
3.239450059032586e-09,7.369516436029034e-05,3.239450059032586e-09,7.369521604677233e-05,3.239450059032586e-09,7.369974308167357e-05,3.239450059032586e-09,6.292041892909961e-05,3.239450059032586e-09,0.6885833661292142
3.246950615286435e-09,7.369520175375e-05,3.246950615286435e-09,7.36952155535989e-05,3.246950615286435e-09,7.369521502996793e-05,3.246950615286435e-09,6.289977290534648e-05,3.246950615286435e-09,0.6927503418257974
3.254159825100872e-09,7.369497819824365e-05,3.254159825100872e-09,7.369521644488777e-05,3.254159825100872e-09,7.369538363133391e-05,3.254159825100872e-09,6.290184558369449e-05,3.254159825100872e-09,0.6967554583893735
3.261467822381142e-09,7.369488924264967e-05,3.261467822381142e-09,7.369521515441958e-05,3.261467822381142e-09,7.369377552038127e-05,3.261467822381142e-09,6.286940236676017e-05,3.261467822381142e-09,0.7008154568784123
3.267074249700154e-09,7.369293715529404e-05,3.267074249700154e-09,7.369520715910025e-05,3.267074249700154e-09,7.369188821049877e-05,3.267074249700154e-09,6.278111012330783e-05,3.267074249700154e-09,0.7039301387223078
3.271528924915252e-09,7.36773752792359e-05,3.271528924915252e-09,7.369512610574236e-05,3.271528924915252e-09,7.369256090271797e-05,3.271528924915252e-09,6.239483393779573e-05,3.271528924915252e-09,0.7064049582862511
3.275483845053524e-09,7.364932566738518e-05,3.275483845053524e-09,7.369504945060505e-05,3.275483845053524e-09,7.369946961512148e-05,3.275483845053524e-09,6.158100423553422e-05,3.275483845053524e-09,0.7086021361408464
3.279521485024492e-09,7.371668992003644e-05,3.279521485024492e-09,7.369567421000761e-05,3.279521485024492e-09,7.370596864428574e-05,3.279521485024492e-09,6.219640904680031e-05,3.279521485024492e-09,0.7108452694580509
3.282944074518244e-09,7.426954186481452e-05,3.282944074518244e-09,7.369903158251885e-05,3.282944074518244e-09,7.370709163844025e-05,3.282944074518244e-09,7.283875605725694e-05,3.282944074518244e-09,0.7127467080656912
3.286376488712654e-09,7.522479464992438e-05,3.286376488712654e-09,7.370141037051604e-05,3.286376488712654e-09,7.370309197922706e-05,3.286376488712654e-09,9.799716520816428e-05,3.286376488712654e-09,0.7146536048403632
3.289553102974698e-09,7.496008510662867e-05,3.289553102974698e-09,7.369238208886337e-05,3.289553102974698e-09,7.369962107717907e-05,3.289553102974698e-09,0.0001060428792893298,3.289553102974698e-09,0.7164183905414991
3.291928258295159e-09,7.379943568028734e-05,3.291928258295159e-09,7.368408428108681e-05,3.291928258295159e-09,7.369689972740818e-05,3.291928258295159e-09,5.976858078740963e-05,3.291928258295159e-09,0.7177379212750882
3.294779353732389e-09,7.265553886696344e-05,3.294779353732389e-09,7.368528034836491e-05,3.294779353732389e-09,7.367883540360963e-05,3.294779353732389e-09,-0.000161194681493692,3.294779353732389e-09,0.7193218631846603
3.298097002926387e-09,6.869787320028229e-05,3.298097002926387e-09,7.369743055849754e-05,3.298097002926387e-09,7.366374419753259e-05,3.298097002926387e-09,-0.0007857428387989748,3.298097002926387e-09,0.7211650016257704
3.302129561525162e-09,5.730928560663759e-05,3.302129561525162e-09,7.371519667925283e-05,3.302129561525162e-09,7.369095815423927e-05,3.302129561525162e-09,-0.001206153797326174,3.302129561525162e-09,0.7234053119584233
3.305053045591204e-09,5.461388260621476e-05,3.305053045591204e-09,7.370548767645408e-05,3.305053045591204e-09,7.37024226295807e-05,3.305053045591204e-09,-0.0009764427328534126,3.305053045591204e-09,0.725029469772891
3.307772062981379e-09,6.304945727321465e-05,3.307772062981379e-09,7.368635653845716e-05,3.307772062981379e-09,7.369614575735561e-05,3.307772062981379e-09,-0.0006058642804101119,3.307772062981379e-09,0.7265400349896552
3.310486935689821e-09,8.257538091563263e-05,3.310486935689821e-09,7.369051888149217e-05,3.310486935689821e-09,7.369291275441537e-05,3.310486935689821e-09,-0.0002848837734874124,3.310486935689821e-09,0.728048297605456
3.313380916327343e-09,0.000122673620814054,3.313380916327343e-09,7.371084496935005e-05,3.313380916327343e-09,7.369112121647889e-05,3.313380916327343e-09,-0.0002686866487673243,3.313380916327343e-09,0.7296560646263017
3.315831367471656e-09,0.0001831625567428237,3.315831367471656e-09,7.372865499105885e-05,3.315831367471656e-09,7.369291220874741e-05,3.315831367471656e-09,-0.0006721368742403579,3.315831367471656e-09,0.731017426373142
3.318484385086756e-09,0.0003207756639299591,3.318484385086756e-09,7.372077491589951e-05,3.318484385086756e-09,7.369851009117406e-05,3.318484385086756e-09,-0.001498899519102429,3.318484385086756e-09,0.7324913250481976
3.322077768772549e-09,0.0003703800437497526,3.322077768772549e-09,7.367572937931045e-05,3.322077768772549e-09,7.370900682644309e-05,3.322077768772549e-09,-0.002681968207386182,3.322077768772549e-09,0.7344876493180829
3.324817852340639e-09,-0.002652709066178321,3.324817852340639e-09,7.363912698643185e-05,3.324817852340639e-09,7.371033940652919e-05,3.324817852340639e-09,-0.003331869241841721,3.324817852340639e-09,0.7360099179670219
3.327786239636234e-09,-0.01053238387157704,3.327786239636234e-09,7.361812876822025e-05,3.327786239636234e-09,7.370693644041477e-05,3.327786239636234e-09,-0.003574057060513732,3.327786239636234e-09,0.7376590220201298
3.330762450712648e-09,-0.01111073488658612,3.330762450712648e-09,7.363143609439408e-05,3.330762450712648e-09,7.370383093098479e-05,3.330762450712648e-09,-0.003171986553792972,3.330762450712648e-09,0.7393124726181376
3.333407554068017e-09,0.02210547793633385,3.333407554068017e-09,7.366718124845912e-05,3.333407554068017e-09,7.369628188857111e-05,3.333407554068017e-09,-0.002375800182870065,3.333407554068017e-09,0.7407819744822318
3.335932456499507e-09,0.1004258325675188,3.335932456499507e-09,7.370026997139569e-05,3.335932456499507e-09,7.368343571003761e-05,3.335932456499507e-09,-0.001671398462713361,3.335932456499507e-09,0.7421846980552818
3.338072534440692e-09,0.1939475545095333,3.338072534440692e-09,7.373477852917915e-05,3.338072534440692e-09,7.368804704691503e-05,3.338072534440692e-09,-0.000973018962184234,3.338072534440692e-09,0.7433736302448288
3.340638045573206e-09,0.3214975374595047,3.340638045573206e-09,7.376175239288831e-05,3.340638045573206e-09,7.36963963992198e-05,3.340638045573206e-09,0.0001791045533681982,3.340638045573206e-09,0.7447989142073369
3.343453805864353e-09,0.4719673307917787,3.343453805864353e-09,7.374482384885893e-05,3.343453805864353e-09,7.368684922543826e-05,3.343453805864353e-09,0.001400959184465159,3.343453805864353e-09,0.7463632254801962
3.346189697545971e-09,0.612019134543788,3.346189697545971e-09,7.372229913920216e-05,3.346189697545971e-09,7.368482201766534e-05,3.346189697545971e-09,0.00234597381179335,3.346189697545971e-09,0.7478831653033171
3.349080149018253e-09,0.7320919393310535,3.349080149018253e-09,7.370322464298424e-05,3.349080149018253e-09,7.368532546225634e-05,3.349080149018253e-09,0.002903744892600806,3.349080149018253e-09,0.7494889716768069
3.351618239737368e-09,0.8042392352976832,3.351618239737368e-09,7.369800304981666e-05,3.351618239737368e-09,7.368992241993441e-05,3.351618239737368e-09,0.003039188678816513,3.351618239737368e-09,0.7508990220763154
3.354233821432642e-09,0.8678644526878504,3.354233821432642e-09,7.369854544866915e-05,3.354233821432642e-09,7.369572803637013e-05,3.354233821432642e-09,0.002931314247963125,3.354233821432642e-09,0.7523521230181343
3.357088987631476e-09,1.005100227581529,3.357088987631476e-09,7.369960019833954e-05,3.357088987631476e-09,7.369888496103196e-05,3.357088987631476e-09,0.002628146726311511,3.357088987631476e-09,0.7539383264619309
3.359734590550689e-09,1.335047700747014,3.359734590550689e-09,7.369971604232923e-05,3.359734590550689e-09,7.370066398111361e-05,3.359734590550689e-09,0.002264079470844058,3.359734590550689e-09,0.7554081058614938
3.361815584814948e-09,1.841633034556815,3.361815584814948e-09,7.36993465347091e-05,3.361815584814948e-09,7.370093123771868e-05,3.361815584814948e-09,0.001983075840203592,3.361815584814948e-09,0.7565642137860822
3.363800636800719e-09,2.523145312608828,3.363800636800719e-09,7.36978818309114e-05,3.363800636800719e-09,7.370057607007736e-05,3.363800636800719e-09,0.001740207970074375,3.363800636800719e-09,0.7576670204448439
3.365051950687186e-09,3.001228071079315,3.365051950687186e-09,7.369639264023935e-05,3.365051950687186e-09,7.369944091205619e-05,3.365051950687186e-09,0.00159975836475033,3.365051950687186e-09,0.7583621948262144
3.366762988159007e-09,3.608800141476899,3.366762988159007e-09,7.369437148149871e-05,3.366762988159007e-09,7.369841670587448e-05,3.366762988159007e-09,0.001422579295319899,3.366762988159007e-09,0.759312771199448
3.36817082309629e-09,3.997681099127619,3.36817082309629e-09,7.369278175328412e-05,3.36817082309629e-09,7.369726822954695e-05,3.36817082309629e-09,0.0012873826336753,3.36817082309629e-09,0.7600949017201613
