/net039 X,/net039 Y,/net010 X,/net010 Y,/net09 X,/net09 Y,/net08 X,/net08 Y,/net02 X,/net02 Y
0,7.3695216270907e-05,0,7.369521627090077e-05,0,7.369521304907113e-05,0,6.290393685195234e-05,0,0
1.5e-11,7.369521627090069e-05,1.5e-11,7.369521627109898e-05,1.5e-11,7.369521304880423e-05,1.5e-11,6.290393685187944e-05,1.5e-11,0
4.5e-11,7.36952162710573e-05,4.5e-11,7.36952162710302e-05,4.5e-11,7.369521304890224e-05,4.5e-11,6.290393685192501e-05,4.5e-11,0
1.05e-10,7.369521626927711e-05,1.05e-10,7.369521626944325e-05,1.05e-10,7.369521304992718e-05,1.05e-10,6.290393685189374e-05,1.05e-10,0
2.25e-10,7.369521627244832e-05,2.25e-10,7.369521627550826e-05,2.25e-10,7.369521304653623e-05,2.25e-10,6.290393685188383e-05,2.25e-10,0
4.65e-10,7.369521626937901e-05,4.65e-10,7.369521626935771e-05,4.65e-10,7.369521304981269e-05,4.65e-10,6.290393685190618e-05,4.65e-10,0
7.649999999999999e-10,7.369521627255135e-05,7.649999999999999e-10,7.369521626934592e-05,7.649999999999999e-10,7.36952130498552e-05,7.649999999999999e-10,6.290393685180183e-05,7.649999999999999e-10,0
1.065e-09,7.369521626965055e-05,1.065e-09,7.369521626968244e-05,1.065e-09,7.369521304956115e-05,1.065e-09,6.290393685191987e-05,1.065e-09,0
1.365e-09,7.369521627231282e-05,1.365e-09,7.369521627556593e-05,1.365e-09,7.369521304654506e-05,1.365e-09,6.290393685181229e-05,1.365e-09,0
1.665e-09,7.369521626955397e-05,1.665e-09,7.369521626321604e-05,1.665e-09,7.369521304965838e-05,1.665e-09,6.290393685188439e-05,1.665e-09,0
1.8325e-09,7.36952162720904e-05,1.8325e-09,7.369521628149016e-05,1.8325e-09,7.369521304709248e-05,1.8325e-09,6.290393685183361e-05,1.8325e-09,0
2e-09,7.369521626663044e-05,2e-09,7.369521626062547e-05,2e-09,7.369521305225537e-05,2e-09,6.290393685201066e-05,2e-09,0
2.120144127384571e-09,7.36952162708835e-05,2.120144127384571e-09,7.369521627069533e-05,2.120144127384571e-09,7.369521304877696e-05,2.120144127384571e-09,6.290393685234667e-05,2.120144127384571e-09,0.06674673743587282
2.261585129605973e-09,7.369521626927945e-05,2.261585129605973e-09,7.369521627260163e-05,2.261585129605973e-09,7.369521304673781e-05,2.261585129605973e-09,6.290393682813012e-05,2.261585129605973e-09,0.1453250720033182
2.400273538304042e-09,7.369521626944942e-05,2.400273538304042e-09,7.369521626938321e-05,2.400273538304042e-09,7.369521304974986e-05,2.400273538304042e-09,6.290393695870948e-05,2.400273538304042e-09,0.2223741879466899
2.45545026156497e-09,7.369521627560339e-05,2.45545026156497e-09,7.369521627259301e-05,2.45545026156497e-09,7.36952130435563e-05,2.45545026156497e-09,6.290393626379435e-05,2.45545026156497e-09,0.2530279230916502
2.483038623195434e-09,7.36952162672747e-05,2.483038623195434e-09,7.369521626963317e-05,2.483038623195434e-09,7.369521305917664e-05,2.483038623195434e-09,6.290393876667519e-05,2.483038623195434e-09,0.2683547906641302
2.538215346456363e-09,7.369521627479197e-05,2.538215346456363e-09,7.36952162721223e-05,2.538215346456363e-09,7.369521303389121e-05,2.538215346456363e-09,6.290393444334592e-05,2.538215346456363e-09,0.2990085258090902
2.560737121398774e-09,7.369521627036936e-05,2.560737121398774e-09,7.36952162699032e-05,2.560737121398774e-09,7.369521307360956e-05,2.560737121398774e-09,6.290393912726869e-05,2.560737121398774e-09,0.3115206229993188
2.57199800886998e-09,7.369521627154466e-05,2.57199800886998e-09,7.369521627177082e-05,2.57199800886998e-09,7.369521302719052e-05,2.57199800886998e-09,6.290393724719196e-05,2.57199800886998e-09,0.3177766715944331
2.594519783812391e-09,7.369521627326239e-05,2.594519783812391e-09,7.369521627008446e-05,2.594519783812391e-09,7.36952130569239e-05,2.594519783812391e-09,6.290393527919319e-05,2.594519783812391e-09,0.3302887687846617
2.619292015544407e-09,7.369521627207218e-05,2.619292015544407e-09,7.369521627167219e-05,2.619292015544407e-09,7.369521305177906e-05,2.619292015544407e-09,6.290393883381847e-05,2.619292015544407e-09,0.3440511197468926
2.640503769765503e-09,7.369521627017487e-05,2.640503769765503e-09,7.369521627025978e-05,2.640503769765503e-09,7.369521303266009e-05,2.640503769765503e-09,6.290393490925275e-05,2.640503769765503e-09,0.3558354276475015
2.660686031888216e-09,7.369521627179785e-05,2.660686031888216e-09,7.369521626916658e-05,2.660686031888216e-09,7.36952130714408e-05,2.660686031888216e-09,6.290393847273327e-05,2.660686031888216e-09,0.3670477954934531
2.682055619276801e-09,7.369521627016386e-05,2.682055619276801e-09,7.369521627247476e-05,2.682055619276801e-09,7.369521302387661e-05,2.682055619276801e-09,6.290393560277165e-05,2.682055619276801e-09,0.3789197884871114
2.701703988604434e-09,7.369521626901231e-05,2.701703988604434e-09,7.369521627250013e-05,2.701703988604434e-09,7.369521307075942e-05,2.701703988604434e-09,6.290393772638122e-05,2.701703988604434e-09,0.3898355492246854
2.725079201383629e-09,7.369521627271109e-05,2.725079201383629e-09,7.36952162696253e-05,2.725079201383629e-09,7.369521302774288e-05,2.725079201383629e-09,6.290393624199018e-05,2.725079201383629e-09,0.4028217785464604
2.75339984265995e-09,7.369521626953595e-05,2.75339984265995e-09,7.369521627197038e-05,2.75339984265995e-09,7.36952130665677e-05,2.75339984265995e-09,6.290393728318128e-05,2.75339984265995e-09,0.4185554681444164
2.784176825806453e-09,7.369521627191438e-05,2.784176825806453e-09,7.36952162702346e-05,2.784176825806453e-09,7.369521303212145e-05,2.784176825806453e-09,6.290393655549528e-05,2.784176825806453e-09,0.4356537921146959
2.812895477102839e-09,7.369521627010719e-05,2.812895477102839e-09,7.36952162719111e-05,2.812895477102839e-09,7.36952130648474e-05,2.812895477102839e-09,6.290393703169317e-05,2.812895477102839e-09,0.451608598390466
2.842817606890994e-09,7.369521627172001e-05,2.842817606890994e-09,7.369521626738252e-05,2.842817606890994e-09,7.369521303658919e-05,2.842817606890994e-09,6.290393676092862e-05,2.842817606890994e-09,0.4682320038283302
2.867139585824203e-09,7.369521627024981e-05,2.867139585824203e-09,7.369521627383663e-05,2.867139585824203e-09,7.369521305771823e-05,2.867139585824203e-09,6.290393685881968e-05,2.867139585824203e-09,0.4817442143467796
2.895104265130513e-09,7.369521626906948e-05,2.895104265130513e-09,7.369521626578512e-05,2.895104265130513e-09,7.369521304292112e-05,2.895104265130513e-09,6.290393689980647e-05,2.895104265130513e-09,0.4972801472947294
2.921090929981875e-09,7.369521627254832e-05,2.921090929981875e-09,7.369521627540852e-05,2.921090929981875e-09,7.369521305497918e-05,2.921090929981875e-09,6.290393676051558e-05,2.921090929981875e-09,0.5117171833232638
2.973064259684599e-09,7.369521627243951e-05,2.973064259684599e-09,7.369521626661587e-05,2.973064259684599e-09,7.369521304203657e-05,2.973064259684599e-09,6.290393696070452e-05,2.973064259684599e-09,0.5405912553803327
3.015890532229367e-09,7.3695216270047e-05,3.015890532229367e-09,7.369521627471414e-05,3.015890532229367e-09,7.369521305323019e-05,3.015890532229367e-09,6.290393672547403e-05,3.015890532229367e-09,0.5643836290163149
3.059187524506116e-09,7.369521627184805e-05,3.059187524506116e-09,7.369521626456427e-05,3.059187524506116e-09,7.36952130463989e-05,3.059187524506116e-09,6.290393699250598e-05,3.059187524506116e-09,0.5884375136145089
3.070300109813178e-09,7.36952162680794e-05,3.070300109813178e-09,7.369521627772937e-05,3.070300109813178e-09,7.369521305045051e-05,3.070300109813178e-09,6.290393667675602e-05,3.070300109813178e-09,0.5946111721184322
3.092525280427301e-09,7.36952162711053e-05,3.092525280427301e-09,7.3695216264454e-05,3.092525280427301e-09,7.369521304919937e-05,3.092525280427301e-09,6.290393703302641e-05,3.092525280427301e-09,0.6069584891262785
3.099684254192658e-09,7.369521627124664e-05,3.099684254192658e-09,7.369521627407741e-05,3.099684254192658e-09,7.369521304616515e-05,3.099684254192658e-09,6.290393667033349e-05,3.099684254192658e-09,0.6109356967736987
3.114002201723371e-09,7.369521627092549e-05,3.114002201723371e-09,7.369521626726062e-05,3.114002201723371e-09,7.369521305029937e-05,3.114002201723371e-09,6.290393702525751e-05,3.114002201723371e-09,0.6188901120685396
3.12492706916117e-09,7.369521627084642e-05,3.12492706916117e-09,7.36952162737985e-05,3.12492706916117e-09,7.369521304787646e-05,3.12492706916117e-09,6.290393667777141e-05,3.12492706916117e-09,0.6249594828673165
3.135313259469619e-09,7.36952162709033e-05,3.135313259469619e-09,7.369521627106188e-05,3.135313259469619e-09,7.369521305516531e-05,3.135313259469619e-09,6.290393705608089e-05,3.135313259469619e-09,0.6307295885942329
3.147649716046204e-09,7.369521627134364e-05,3.147649716046204e-09,7.369521626875951e-05,3.147649716046204e-09,7.369521304648404e-05,3.147649716046204e-09,6.290393672301475e-05,3.147649716046204e-09,0.6375831755812242
3.157684697106851e-09,7.369521627109996e-05,3.157684697106851e-09,7.369521627214116e-05,3.157684697106851e-09,7.369521306658956e-05,3.157684697106851e-09,6.290393726902265e-05,3.157684697106851e-09,0.6431581650593614
3.160409149076926e-09,7.369521626307333e-05,3.160409149076926e-09,7.369521627241768e-05,3.160409149076926e-09,7.369521289002532e-05,3.160409149076926e-09,6.290393540523969e-05,3.160409149076926e-09,0.6446717494871808
3.165858053017075e-09,7.369521623051768e-05,3.165858053017075e-09,7.36952162695831e-05,3.165858053017075e-09,7.369521206041439e-05,3.165858053017075e-09,6.290392450188106e-05,3.165858053017075e-09,0.6476989183428197
3.176755860897375e-09,7.369521629520059e-05,3.176755860897375e-09,7.369521627215061e-05,3.176755860897375e-09,7.369521296927285e-05,3.176755860897375e-09,6.290392203990737e-05,3.176755860897375e-09,0.6537532560540973
3.184473711924334e-09,7.369521743825316e-05,3.184473711924334e-09,7.369521628173153e-05,3.184473711924334e-09,7.369524374189592e-05,3.184473711924334e-09,6.290433531393957e-05,3.184473711924334e-09,0.6580409510690742
3.195005775383871e-09,7.369521618640448e-05,3.195005775383871e-09,7.369521625035006e-05,3.195005775383871e-09,7.369521093843526e-05,3.195005775383871e-09,6.290435244560087e-05,3.195005775383871e-09,0.6638920974354838
3.202561376940955e-09,7.3695202067824e-05,3.202561376940955e-09,7.369521609808175e-05,3.202561376940955e-09,7.369405701232776e-05,3.202561376940955e-09,6.288975204976906e-05,3.202561376940955e-09,0.6680896538560859
3.210983694440289e-09,7.369520904631351e-05,3.210983694440289e-09,7.369521664830458e-05,3.210983694440289e-09,7.369513826231089e-05,3.210983694440289e-09,6.28893794258028e-05,3.210983694440289e-09,0.6727687191334937
3.21801952863111e-09,7.369526133810168e-05,3.21801952863111e-09,7.369521678815337e-05,3.21801952863111e-09,7.370237933191612e-05,3.21801952863111e-09,6.297353043060772e-05,3.21801952863111e-09,0.676677515906172
3.22439621136479e-09,7.369530451753804e-05,3.22439621136479e-09,7.369521445192848e-05,3.22439621136479e-09,7.369093846086987e-05,3.22439621136479e-09,6.290476020708555e-05,3.22439621136479e-09,0.6802201174248832
3.231792189012112e-09,7.369518651513617e-05,3.231792189012112e-09,7.369521770637565e-05,3.231792189012112e-09,7.368950923446314e-05,3.231792189012112e-09,6.285798781518094e-05,3.231792189012112e-09,0.6843289938956175
3.239450059118552e-09,7.36951642233173e-05,3.239450059118552e-09,7.369521591312736e-05,3.239450059118552e-09,7.369972460989982e-05,3.239450059118552e-09,6.292176784059784e-05,3.239450059118552e-09,0.6885833661769736
3.24695061543073e-09,7.369520195321418e-05,3.24695061543073e-09,7.369521575038337e-05,3.24695061543073e-09,7.369524182867927e-05,3.24695061543073e-09,6.289860660799565e-05,3.24695061543073e-09,0.6927503419059609
3.25415982523066e-09,7.36949781161802e-05,3.25415982523066e-09,7.369521636103642e-05,3.25415982523066e-09,7.36953851926813e-05,3.25415982523066e-09,6.290251668636842e-05,3.25415982523066e-09,0.6967554584614775
3.261467822531449e-09,7.369488923752948e-05,3.261467822531449e-09,7.369521514769154e-05,3.261467822531449e-09,7.369376783086039e-05,3.261467822531449e-09,6.28704199460305e-05,3.261467822531449e-09,0.7008154569619162
3.267074249851165e-09,7.369293720436971e-05,3.267074249851165e-09,7.369520720919226e-05,3.267074249851165e-09,7.369187361484755e-05,3.267074249851165e-09,6.27865664559541e-05,3.267074249851165e-09,0.7039301388062025
3.271528925044762e-09,7.367737522079033e-05,3.271528925044762e-09,7.369512604816667e-05,3.271528925044762e-09,7.369253555657768e-05,3.271528925044762e-09,6.240296086010116e-05,3.271528925044762e-09,0.7064049583582013
3.275483845180676e-09,7.364932560019292e-05,3.275483845180676e-09,7.369504938620275e-05,3.275483845180676e-09,7.369945964869534e-05,3.275483845180676e-09,6.158643855211719e-05,3.275483845180676e-09,0.7086021362114867
3.279521485126381e-09,7.371668989009512e-05,3.279521485126381e-09,7.369567417932316e-05,3.279521485126381e-09,7.370600241965931e-05,3.279521485126381e-09,6.219303180540226e-05,3.279521485126381e-09,0.7108452695146559
3.282944074628613e-09,7.426954205563171e-05,3.282944074628613e-09,7.36990317590509e-05,3.282944074628613e-09,7.370716488776846e-05,3.282944074628613e-09,7.283256638662858e-05,3.282944074628613e-09,0.7127467081270071
3.286376488806848e-09,7.522479484408263e-05,3.286376488806848e-09,7.370141055575814e-05,3.286376488806848e-09,7.370317892435658e-05,3.286376488806848e-09,9.799820325588119e-05,3.286376488806848e-09,0.7146536048926936
3.28955310296152e-09,7.496008484745132e-05,3.28955310296152e-09,7.369238181648992e-05,3.28955310296152e-09,7.369969771059865e-05,3.28955310296152e-09,0.0001060420364435804,3.28955310296152e-09,0.7164183905341777
3.291928258279879e-09,7.379943487833234e-05,3.291928258279879e-09,7.36840834624104e-05,3.291928258279879e-09,7.369762958237146e-05,3.291928258279879e-09,5.973871120837514e-05,3.291928258279879e-09,0.7177379212665994
3.294779353724204e-09,7.265553688332121e-05,3.294779353724204e-09,7.368527832000872e-05,3.294779353724204e-09,7.367940919022447e-05,3.294779353724204e-09,-0.0001613545914751457,3.294779353724204e-09,0.7193218631801136
3.29809700287733e-09,6.869787219291022e-05,3.29809700287733e-09,7.369742831455526e-05,3.29809700287733e-09,7.366143992142844e-05,3.29809700287733e-09,-0.0007862343036199029,3.29809700287733e-09,0.7211650015985168
3.302129561869991e-09,5.730929321935413e-05,3.302129561869991e-09,7.371520441131888e-05,3.302129561869991e-09,7.369099245710704e-05,3.302129561869991e-09,-0.001206739721617296,3.302129561869991e-09,0.7234053121499948
3.305053045887065e-09,5.461388599784308e-05,3.305053045887065e-09,7.370549355182784e-05,3.305053045887065e-09,7.370351274597394e-05,3.305053045887065e-09,-0.0009768061926068532,3.305053045887065e-09,0.7250294699372583
3.307772063278262e-09,6.304945493829407e-05,3.307772063278262e-09,7.368635635952134e-05,3.307772063278262e-09,7.369658032538178e-05,3.307772063278262e-09,-0.0006059034248714235,3.307772063278262e-09,0.7265400351545898
3.310486935991088e-09,8.257537834187197e-05,3.310486935991088e-09,7.369051395207364e-05,3.310486935991088e-09,7.369321450551799e-05,3.310486935991088e-09,-0.0002846456279996201,3.310486935991088e-09,0.7280482977728264
3.31338091646946e-09,0.0001226736205169298,3.31338091646946e-09,7.371083510600025e-05,3.31338091646946e-09,7.369100570803735e-05,3.31338091646946e-09,-0.0002684225272267093,3.31338091646946e-09,0.7296560647052552
3.315831367630468e-09,0.0001831625663098762,3.315831367630468e-09,7.372864642073271e-05,3.315831367630468e-09,7.369286865786196e-05,3.315831367630468e-09,-0.0006721433301685004,3.315831367630468e-09,0.7310174264613711
3.318484385268317e-09,0.0003207756776545924,3.318484385268317e-09,7.372077162787308e-05,3.318484385268317e-09,7.369820657034461e-05,3.318484385268317e-09,-0.001499423522201717,3.318484385268317e-09,0.7324913251490652
3.322077768960226e-09,0.0003703799999496478,3.322077768960226e-09,7.367573784180987e-05,3.322077768960226e-09,7.370884830292174e-05,3.322077768960226e-09,-0.002683133786182499,3.322077768960226e-09,0.7344876494223478
3.324817852537948e-09,-0.002652709253199497,3.324817852537948e-09,7.363913837176652e-05,3.324817852537948e-09,7.371016568120805e-05,3.324817852537948e-09,-0.003333270541790177,3.324817852537948e-09,0.7360099180766375
3.327786239850522e-09,-0.01053238406676011,3.327786239850522e-09,7.361813872520031e-05,3.327786239850522e-09,7.370712291535375e-05,3.327786239850522e-09,-0.003575321188365148,3.327786239850522e-09,0.7376590221391787
3.33076245093743e-09,-0.0111107344028467,3.33076245093743e-09,7.363144115384055e-05,3.33076245093743e-09,7.370402683581765e-05,3.33076245093743e-09,-0.003172682656746188,3.33076245093743e-09,0.7393124727430166
3.333407554281831e-09,0.02210547978400433,3.333407554281831e-09,7.366717877788789e-05,3.333407554281831e-09,7.36966150578823e-05,3.333407554281831e-09,-0.002375785008304282,3.333407554281831e-09,0.7407819746010174
3.335932456621193e-09,0.1004258325624451,3.335932456621193e-09,7.370025767644282e-05,3.335932456621193e-09,7.368367007909106e-05,3.335932456621193e-09,-0.001670841036044041,3.335932456621193e-09,0.7421846981228849
3.338072534561792e-09,0.1939475545264223,3.338072534561792e-09,7.373477037787068e-05,3.338072534561792e-09,7.368821414416806e-05,3.338072534561792e-09,-0.0009719965397244919,3.338072534561792e-09,0.7433736303121065
3.34063804570061e-09,0.3214975380701166,3.34063804570061e-09,7.376174750440671e-05,3.34063804570061e-09,7.369624990629468e-05,3.34063804570061e-09,0.0001806439866244208,3.34063804570061e-09,0.7447989142781168
3.343453805976718e-09,0.4719673308425449,3.343453805976718e-09,7.374481869569925e-05,3.343453805976718e-09,7.36867718120268e-05,3.343453805976718e-09,0.00140293159463303,3.343453805976718e-09,0.7463632255426209
3.346189697670946e-09,0.6120191353715911,3.346189697670946e-09,7.372229551110769e-05,3.346189697670946e-09,7.368476536899124e-05,3.346189697670946e-09,0.002348154885255812,3.346189697670946e-09,0.7478831653727476
3.349080149139245e-09,0.7320919399355755,3.349080149139245e-09,7.370321939919209e-05,3.349080149139245e-09,7.368522399521328e-05,3.349080149139245e-09,0.002905782361501387,3.349080149139245e-09,0.7494889717440248
3.351618239846605e-09,0.8042392354873001,3.351618239846605e-09,7.369800314824559e-05,3.351618239846605e-09,7.368969478874736e-05,3.351618239846605e-09,0.003040873189554288,3.351618239846605e-09,0.7508990221370029
3.35423382153097e-09,0.8678644528105793,3.35423382153097e-09,7.36985490533283e-05,3.35423382153097e-09,7.369549616608477e-05,3.35423382153097e-09,0.002932499173726674,3.35423382153097e-09,0.7523521230727612
3.357088987708506e-09,1.005100226998024,3.357088987708506e-09,7.369960762713252e-05,3.357088987708506e-09,7.369870289742192e-05,3.357088987708506e-09,0.002628768788449672,3.357088987708506e-09,0.7539383265047253
3.35973459061927e-09,1.335047698818826,3.35973459061927e-09,7.369972347372507e-05,3.35973459061927e-09,7.370061498061034e-05,3.35973459061927e-09,0.002264236237209828,3.35973459061927e-09,0.7554081058995944
3.361815584879723e-09,1.841633030902565,3.361815584879723e-09,7.369935358207551e-05,3.361815584879723e-09,7.370094564270153e-05,3.361815584879723e-09,0.001982956034924366,3.361815584879723e-09,0.7565642138220681
3.363800636863783e-09,2.523145307824156,3.363800636863783e-09,7.369788674582458e-05,3.363800636863783e-09,7.370065776850258e-05,3.363800636863783e-09,0.001739891826128299,3.363800636863783e-09,0.7576670204798792
3.365051950751672e-09,3.001228066933329,3.365051950751672e-09,7.369639621180827e-05,3.365051950751672e-09,7.369954439990236e-05,3.365051950751672e-09,0.001599356272222375,3.365051950751672e-09,0.7583621948620398
3.366762988225302e-09,3.608800138706396,3.366762988225302e-09,7.369437316763755e-05,3.366762988225302e-09,7.369854677543043e-05,3.366762988225302e-09,0.001422091286411802,3.366762988225302e-09,0.7593127712362786
3.368170823163104e-09,3.997681097338227,3.368170823163104e-09,7.369278188736899e-05,3.368170823163104e-09,7.369740322069228e-05,3.368170823163104e-09,0.001286851594634363,3.368170823163104e-09,0.7600949017572799
