/net039 X,/net039 Y,/net010 X,/net010 Y,/net09 X,/net09 Y,/net08 X,/net08 Y,/net02 X,/net02 Y
0,7.369521627106247e-05,0,7.369521627096233e-05,0,7.369521404612238e-05,0,6.290383084406888e-05,0,0
1.5e-11,7.369521627105623e-05,1.5e-11,7.369521627093214e-05,1.5e-11,7.369521404638822e-05,1.5e-11,6.290383084411098e-05,1.5e-11,0
4.5e-11,7.369521627099293e-05,4.5e-11,7.369521627107243e-05,4.5e-11,7.369521404632891e-05,4.5e-11,6.290383084393338e-05,4.5e-11,0
1.05e-10,7.369521626918574e-05,1.05e-10,7.369521626942326e-05,1.05e-10,7.369521404682782e-05,1.05e-10,6.290383084414071e-05,1.05e-10,0
2.25e-10,7.369521627288477e-05,2.25e-10,7.369521626930241e-05,2.25e-10,7.369521404441117e-05,2.25e-10,6.290383084410207e-05,2.25e-10,0
4.65e-10,7.369521626911476e-05,4.65e-10,7.369521627271551e-05,4.65e-10,7.369521404720705e-05,4.65e-10,6.290383084389294e-05,4.65e-10,0
7.649999999999999e-10,7.36952162727816e-05,7.649999999999999e-10,7.369521627244827e-05,7.649999999999999e-10,7.369521404421739e-05,7.649999999999999e-10,6.290383084448276e-05,7.649999999999999e-10,0
1.065e-09,7.369521626925765e-05,1.065e-09,7.36952162663943e-05,1.065e-09,7.36952140465881e-05,1.065e-09,6.290383084365156e-05,1.065e-09,0
1.365e-09,7.369521626951711e-05,1.365e-09,7.36952162751865e-05,1.365e-09,7.369521404780584e-05,1.365e-09,6.290383084465497e-05,1.365e-09,0
1.665e-09,7.369521627261339e-05,1.665e-09,7.369521626686126e-05,1.665e-09,7.369521404375419e-05,1.665e-09,6.290383084369963e-05,1.665e-09,0
1.8325e-09,7.369521626947332e-05,1.8325e-09,7.369521627494577e-05,1.8325e-09,7.369521405020072e-05,1.8325e-09,6.290383084475085e-05,1.8325e-09,0
2e-09,7.369521627503757e-05,2e-09,7.369521626725979e-05,2e-09,7.369521404450976e-05,2e-09,6.290383084383839e-05,2e-09,0
2.120144127384571e-09,7.369521627108338e-05,2.120144127384571e-09,7.369521627098825e-05,2.120144127384571e-09,7.369521404613642e-05,2.120144127384571e-09,6.290383084454955e-05,2.120144127384571e-09,0.06674673743587282
2.261585129605973e-09,7.369521627256593e-05,2.261585129605973e-09,7.369521626943964e-05,2.261585129605973e-09,7.369521404732739e-05,2.261585129605973e-09,6.290383081991837e-05,2.261585129605973e-09,0.1453250720033182
2.400273538304042e-09,7.369521626950666e-05,2.400273538304042e-09,7.369521627265161e-05,2.400273538304042e-09,7.369521404382503e-05,2.400273538304042e-09,6.290383095287849e-05,2.400273538304042e-09,0.2223741879466899
2.45545026156496e-09,7.369521627220223e-05,2.45545026156496e-09,7.369521626956436e-05,2.45545026156496e-09,7.369521404938787e-05,2.45545026156496e-09,6.290383024595469e-05,2.45545026156496e-09,0.2530279230916445
2.483038623195419e-09,7.369521626975962e-05,2.483038623195419e-09,7.369521627204288e-05,2.483038623195419e-09,7.369521404931815e-05,2.483038623195419e-09,6.290383279134693e-05,2.483038623195419e-09,0.2683547906641217
2.538215346456337e-09,7.369521627521205e-05,2.538215346456337e-09,7.369521626717897e-05,2.538215346456337e-09,7.369521403855892e-05,2.538215346456337e-09,6.290382839486943e-05,2.538215346456337e-09,0.2990085258090762
2.560737121398756e-09,7.369521626755918e-05,2.560737121398756e-09,7.369521627391958e-05,2.560737121398756e-09,7.3695214062743e-05,2.560737121398756e-09,6.290383315394619e-05,2.560737121398756e-09,0.3115206229993087
2.571998008869965e-09,7.369521627075226e-05,2.571998008869965e-09,7.36952162693595e-05,2.571998008869965e-09,7.369521402749522e-05,2.571998008869965e-09,6.290383126369222e-05,2.571998008869965e-09,0.3177766715944251
2.594519783812384e-09,7.369521627039702e-05,2.594519783812384e-09,7.36952162728307e-05,2.594519783812384e-09,7.369521405138161e-05,2.594519783812384e-09,6.290382922430473e-05,2.594519783812384e-09,0.3302887687846578
2.61929201554441e-09,7.369521627438888e-05,2.61929201554441e-09,7.369521626942348e-05,2.61929201554441e-09,7.369521405205546e-05,2.61929201554441e-09,6.290383287740751e-05,2.61929201554441e-09,0.3440511197468942
2.640503769765501e-09,7.369521626534563e-05,2.640503769765501e-09,7.369521626944875e-05,2.640503769765501e-09,7.369521402988242e-05,2.640503769765501e-09,6.290382885837392e-05,2.640503769765501e-09,0.3558354276475005
2.660686031888213e-09,7.369521627559035e-05,2.660686031888213e-09,7.369521627511042e-05,2.660686031888213e-09,7.369521406639725e-05,2.660686031888213e-09,6.290383249250644e-05,2.660686031888213e-09,0.3670477954934517
2.682055619276808e-09,7.369521626393697e-05,2.682055619276808e-09,7.369521626741479e-05,2.682055619276808e-09,7.36952140259997e-05,2.682055619276808e-09,6.290382958331269e-05,2.682055619276808e-09,0.3789197884871153
2.701703988604437e-09,7.369521627664657e-05,2.701703988604437e-09,7.3695216273897e-05,2.701703988604437e-09,7.369521406736264e-05,2.701703988604437e-09,6.290383171620631e-05,2.701703988604437e-09,0.3898355492246871
2.725079201383634e-09,7.369521626869961e-05,2.725079201383634e-09,7.369521627120834e-05,2.725079201383634e-09,7.36952140285781e-05,2.725079201383634e-09,6.290383024407824e-05,2.725079201383634e-09,0.4028217785464633
2.753399842659972e-09,7.369521627061951e-05,2.753399842659972e-09,7.369521627375099e-05,2.753399842659972e-09,7.369521406123364e-05,2.753399842659972e-09,6.290383126043542e-05,2.753399842659972e-09,0.4185554681444291
2.7841768258065e-09,7.369521627402659e-05,2.7841768258065e-09,7.369521626569622e-05,2.7841768258065e-09,7.369521403419619e-05,2.7841768258065e-09,6.290383056465327e-05,2.7841768258065e-09,0.4356537921147221
2.81289547710287e-09,7.369521626845866e-05,2.81289547710287e-09,7.369521627584952e-05,2.81289547710287e-09,7.369521405554924e-05,2.81289547710287e-09,6.29038310055908e-05,2.81289547710287e-09,0.4516085983904831
2.842817606891044e-09,7.369521627063254e-05,2.842817606891044e-09,7.369521626633658e-05,2.842817606891044e-09,7.369521404268214e-05,2.842817606891044e-09,6.290383077179972e-05,2.842817606891044e-09,0.4682320038283578
2.867139585824233e-09,7.369521627126064e-05,2.867139585824233e-09,7.36952162749781e-05,2.867139585824233e-09,7.369521404752499e-05,2.867139585824233e-09,6.290383083301776e-05,2.867139585824233e-09,0.4817442143467962
2.895104265130548e-09,7.36952162701294e-05,2.895104265130548e-09,7.369521626744294e-05,2.895104265130548e-09,7.369521404741008e-05,2.895104265130548e-09,6.290383090850857e-05,2.895104265130548e-09,0.4972801472947487
2.921090929981897e-09,7.369521627172349e-05,2.921090929981897e-09,7.369521627130458e-05,2.921090929981897e-09,7.369521404350597e-05,2.921090929981897e-09,6.290383073752252e-05,2.921090929981897e-09,0.5117171833232762
2.973064259684596e-09,7.369521627008693e-05,2.973064259684596e-09,7.369521627056757e-05,2.973064259684596e-09,7.369521405071124e-05,2.973064259684596e-09,6.290383096687959e-05,2.973064259684596e-09,0.5405912553803314
3.015890532229317e-09,7.369521627179226e-05,3.015890532229317e-09,7.369521626827474e-05,3.015890532229317e-09,7.369521404069491e-05,3.015890532229317e-09,6.290383070484021e-05,3.015890532229317e-09,0.564383629016287
3.059187524506096e-09,7.369521627028394e-05,3.059187524506096e-09,7.369521627349868e-05,3.059187524506096e-09,7.369521405048414e-05,3.059187524506096e-09,6.290383099654891e-05,3.059187524506096e-09,0.5884375136144979
3.070300109813156e-09,7.369521627145392e-05,3.070300109813156e-09,7.369521626969214e-05,3.070300109813156e-09,7.369521404367279e-05,3.070300109813156e-09,6.290383066102983e-05,3.070300109813156e-09,0.5946111721184202
3.092525280427276e-09,7.369521627068672e-05,3.092525280427276e-09,7.369521627225399e-05,3.092525280427276e-09,7.369521404791942e-05,3.092525280427276e-09,6.290383103130042e-05,3.092525280427276e-09,0.6069584891262646
3.099684254192638e-09,7.369521627128853e-05,3.099684254192638e-09,7.36952162704392e-05,3.099684254192638e-09,7.369521404265913e-05,3.099684254192638e-09,6.290383066076149e-05,3.099684254192638e-09,0.6109356967736875
3.11400220172336e-09,7.36952162729445e-05,3.11400220172336e-09,7.369521627133543e-05,3.11400220172336e-09,7.369521405169143e-05,3.11400220172336e-09,6.290383101815096e-05,3.11400220172336e-09,0.6188901120685334
3.124927069161154e-09,7.369521626720474e-05,3.124927069161154e-09,7.369521627089227e-05,3.124927069161154e-09,7.36952140447775e-05,3.124927069161154e-09,6.290383066646633e-05,3.124927069161154e-09,0.624959482867308
3.135313259469605e-09,7.369521627346969e-05,3.135313259469605e-09,7.369521627110057e-05,3.135313259469605e-09,7.369521405045888e-05,3.135313259469605e-09,6.290383105896868e-05,3.135313259469605e-09,0.6307295885942249
3.147649716046195e-09,7.369521626903689e-05,3.147649716046195e-09,7.369521627079536e-05,3.147649716046195e-09,7.369521404265362e-05,3.147649716046195e-09,6.290383073808381e-05,3.147649716046195e-09,0.6375831755812194
3.157684697106845e-09,7.369521627246151e-05,3.157684697106845e-09,7.369521627329649e-05,3.157684697106845e-09,7.369521406286512e-05,3.157684697106845e-09,6.290383135344388e-05,3.157684697106845e-09,0.6431581650593584
3.160409149076922e-09,7.369521626259792e-05,3.160409149076922e-09,7.369521627236852e-05,3.160409149076922e-09,7.369521388953876e-05,3.160409149076922e-09,6.290382926475329e-05,3.160409149076922e-09,0.644671749487179
3.165858053017076e-09,7.369521623328767e-05,3.165858053017076e-09,7.369521626854916e-05,3.165858053017076e-09,7.369521306417766e-05,3.165858053017076e-09,6.29038151210897e-05,3.165858053017076e-09,0.64769891834282
3.176755860897384e-09,7.36952162905657e-05,3.176755860897384e-09,7.369521627510079e-05,3.176755860897384e-09,7.369521397606743e-05,3.176755860897384e-09,6.290380789854329e-05,3.176755860897384e-09,0.6537532560541022
3.184473711924344e-09,7.369521744131125e-05,3.184473711924344e-09,7.369521628119765e-05,3.184473711924344e-09,7.369524455448095e-05,3.184473711924344e-09,6.290434082806861e-05,3.184473711924344e-09,0.6580409510690801
3.19500577538388e-09,7.369521618220443e-05,3.19500577538388e-09,7.36952162525693e-05,3.19500577538388e-09,7.369521166170976e-05,3.19500577538388e-09,6.290447807733883e-05,3.19500577538388e-09,0.6638920974354886
3.20256137694089e-09,7.369520204748205e-05,3.20256137694089e-09,7.369521607460346e-05,3.20256137694089e-09,7.369406482608079e-05,3.20256137694089e-09,6.288543560981403e-05,3.20256137694089e-09,0.66808965385605
3.210983694543491e-09,7.369520909403518e-05,3.210983694543491e-09,7.369521669210448e-05,3.210983694543491e-09,7.369515055000901e-05,3.210983694543491e-09,6.288095336585919e-05,3.210983694543491e-09,0.6727687191908281
3.218019528741672e-09,7.369526147881543e-05,3.218019528741672e-09,7.369521692657006e-05,3.218019528741672e-09,7.370234273071105e-05,3.218019528741672e-09,6.299073222861852e-05,3.218019528741672e-09,0.6766775159675953
3.224396212202564e-09,7.369530407660251e-05,3.224396212202564e-09,7.36952140102611e-05,3.224396212202564e-09,7.369089510936608e-05,3.224396212202564e-09,6.292335997196006e-05,3.224396212202564e-09,0.6802201178903133
3.231792188649966e-09,7.369518667991962e-05,3.231792188649966e-09,7.369521786879093e-05,3.231792188649966e-09,7.368957197572746e-05,3.231792188649966e-09,6.2839970637061e-05,3.231792188649966e-09,0.6843289936944256
3.23945005893874e-09,7.369516469954379e-05,3.23945005893874e-09,7.369521638638339e-05,3.23945005893874e-09,7.36997701296958e-05,3.23945005893874e-09,6.291480880469816e-05,3.23945005893874e-09,0.6885833660770777
3.246950615127932e-09,7.369520134207641e-05,3.246950615127932e-09,7.369521514291858e-05,3.246950615127932e-09,7.369519123114829e-05,3.246950615127932e-09,6.290267968623239e-05,3.246950615127932e-09,0.69275034173774
3.254159824958688e-09,7.369497830593293e-05,3.254159824958688e-09,7.369521655025825e-05,3.254159824958688e-09,7.369537749341172e-05,3.254159824958688e-09,6.290108186479654e-05,3.254159824958688e-09,0.6967554583103823
3.261467822216384e-09,7.369488930445101e-05,3.261467822216384e-09,7.369521521728378e-05,3.261467822216384e-09,7.369378585921824e-05,3.261467822216384e-09,6.28667444287299e-05,3.261467822216384e-09,0.7008154567868798
3.267074249534648e-09,7.369293705420333e-05,3.267074249534648e-09,7.369520705599401e-05,3.267074249534648e-09,7.369189723014513e-05,3.267074249534648e-09,6.276859588700211e-05,3.267074249534648e-09,0.7039301386303598
3.271528924773327e-09,7.36773753780993e-05,3.271528924773327e-09,7.369512620155433e-05,3.271528924773327e-09,7.369258115470167e-05,3.271528924773327e-09,6.237459148113048e-05,3.271528924773327e-09,0.7064049582074037
3.275483844914181e-09,7.364932583673207e-05,3.275483844914181e-09,7.369504962035071e-05,3.275483844914181e-09,7.36994829640678e-05,3.275483844914181e-09,6.156528148761864e-05,3.275483844914181e-09,0.7086021360634337
3.279521484912701e-09,7.371669003060692e-05,3.279521484912701e-09,7.369567432337141e-05,3.279521484912701e-09,7.370595127502057e-05,3.279521484912701e-09,6.22017167130666e-05,3.279521484912701e-09,0.7108452693959451
3.282944074397091e-09,7.426954160224479e-05,3.282944074397091e-09,7.369903133434322e-05,3.282944074397091e-09,7.370703905729236e-05,3.282944074397091e-09,7.286129944259314e-05,3.282944074397091e-09,0.7127467079983837
3.286376488609238e-09,7.522479425975764e-05,3.286376488609238e-09,7.37014099927923e-05,3.286376488609238e-09,7.370301912977004e-05,3.286376488609238e-09,9.802256088697898e-05,3.286376488609238e-09,0.7146536047829102
3.289553102989276e-09,7.496008515234014e-05,3.289553102989276e-09,7.369238215281169e-05,3.289553102989276e-09,7.369954714566761e-05,3.289553102989276e-09,0.0001060703953781161,3.289553102989276e-09,0.7164183905495979
3.291928258312145e-09,7.379943644029232e-05,3.291928258312145e-09,7.3684085059516e-05,3.291928258312145e-09,7.369683483017334e-05,3.291928258312145e-09,5.982251555397187e-05,3.291928258312145e-09,0.717737921284525
3.294779353741493e-09,7.265554059177099e-05,3.294779353741493e-09,7.368528211462132e-05,3.294779353741493e-09,7.367880360424132e-05,3.294779353741493e-09,-0.0001610302566091389,3.294779353741493e-09,0.7193218631897182
3.298097002968946e-09,6.869787457899895e-05,3.298097002968946e-09,7.369743308209073e-05,3.298097002968946e-09,7.366381826527844e-05,3.298097002968946e-09,-0.0007852667870357641,3.298097002968946e-09,0.7211650016494143
3.302129561219745e-09,5.73092804344891e-05,3.302129561219745e-09,7.371519191164979e-05,3.302129561219745e-09,7.369132176701994e-05,3.302129561219745e-09,-0.00120541677059093,3.302129561219745e-09,0.7234053117887475
3.305053045324604e-09,5.46138777117739e-05,3.305053045324604e-09,7.370548109277011e-05,3.305053045324604e-09,7.370271367459122e-05,3.305053045324604e-09,-0.0009757703874706047,3.305053045324604e-09,0.7250294696247799
3.307772062712907e-09,6.304945539366696e-05,3.307772062712907e-09,7.368635184691862e-05,3.307772062712907e-09,7.36959434271332e-05,3.307772062712907e-09,-0.0006055072022152306,3.307772062712907e-09,0.726540034840504
3.310486935434783e-09,8.257538252669167e-05,3.310486935434783e-09,7.369051964893394e-05,3.310486935434783e-09,7.369242991489052e-05,3.310486935434783e-09,-0.0002849535042592684,3.310486935434783e-09,0.7280482974637685
3.313380916214683e-09,0.0001226736240419283,3.313380916214683e-09,7.371085519868347e-05,3.313380916214683e-09,7.369080867181832e-05,3.313380916214683e-09,-0.000268996209951148,3.313380916214683e-09,0.7296560645637129
3.315831367347996e-09,0.0001831625487980302,3.315831367347996e-09,7.372866738674015e-05,3.315831367347996e-09,7.369289142686955e-05,3.315831367347996e-09,-0.0006723133999444312,3.315831367347996e-09,0.7310174263044421
3.318484384945271e-09,0.0003207756470358709,3.318484384945271e-09,7.372078370864918e-05,3.318484384945271e-09,7.369880941698867e-05,3.318484384945271e-09,-0.001498569932471109,3.318484384945271e-09,0.7324913249695949
3.322077768634668e-09,0.000370380095586851,3.322077768634668e-09,7.367572525469202e-05,3.322077768634668e-09,7.370954673863412e-05,3.322077768634668e-09,-0.002680735897647491,3.322077768634668e-09,0.734487649241482
3.324817852194969e-09,-0.002652708898815165,3.324817852194969e-09,7.363911511098195e-05,3.324817852194969e-09,7.371071958814424e-05,3.324817852194969e-09,-0.003330080856509687,3.324817852194969e-09,0.7360099178860942
3.327786239473781e-09,-0.01053238378485114,3.327786239473781e-09,7.361811346678597e-05,3.327786239473781e-09,7.370685877319828e-05,3.327786239473781e-09,-0.003572127436216701,3.327786239473781e-09,0.7376590219298784
3.330762450530845e-09,-0.01111073531307148,3.330762450530845e-09,7.363142439256464e-05,3.330762450530845e-09,7.370338450313418e-05,3.330762450530845e-09,-0.003170525182983512,3.330762450530845e-09,0.7393124725171361
3.333407553879242e-09,0.02210547643941997,3.333407553879242e-09,7.366717864378942e-05,3.333407553879242e-09,7.369567932218182e-05,3.333407553879242e-09,-0.00237515653356398,3.333407553879242e-09,0.7407819743773565
3.335932456360224e-09,0.100425831946952,3.335932456360224e-09,7.370027908758739e-05,3.335932456360224e-09,7.368277160360122e-05,3.335932456360224e-09,-0.001671587330965759,3.335932456360224e-09,0.7421846979779024
3.338072534311695e-09,0.1939475545165739,3.338072534311695e-09,7.373478836635421e-05,3.338072534311695e-09,7.368760725231611e-05,3.338072534311695e-09,-0.000973964437274952,3.338072534311695e-09,0.7433736301731638
3.340638045422741e-09,0.321497536704565,3.340638045422741e-09,7.376176378228679e-05,3.340638045422741e-09,7.369648064364313e-05,3.340638045422741e-09,0.0001773631176222508,3.340638045422741e-09,0.7447989141237452
3.343453805732406e-09,0.4719673314919957,3.343453805732406e-09,7.37448330031444e-05,3.343453805732406e-09,7.36870513651785e-05,3.343453805732406e-09,0.001398488689431315,3.343453805732406e-09,0.7463632254068922
3.346189697312202e-09,0.6120191307197029,3.346189697312202e-09,7.372230411775309e-05,3.346189697312202e-09,7.368489711631953e-05,3.346189697312202e-09,0.002342989129932093,3.346189697312202e-09,0.7478831651734457
3.349080148780378e-09,0.7320919364355289,3.349080148780378e-09,7.370323227591203e-05,3.349080148780378e-09,7.368552764718497e-05,3.349080148780378e-09,0.002900655425339137,3.349080148780378e-09,0.7494889715446543
3.351618239506555e-09,0.8042392335326345,3.351618239506555e-09,7.369800616310608e-05,3.351618239506555e-09,7.369032751789072e-05,3.351618239506555e-09,0.003036368346306028,3.351618239506555e-09,0.7508990219480862
3.354233821213437e-09,0.8678644506625014,3.354233821213437e-09,7.369854458474785e-05,3.354233821213437e-09,7.369626401897268e-05,3.354233821213437e-09,0.002929067824974819,3.354233821213437e-09,0.752352122896354
3.357088987422132e-09,1.005100222630315,3.357088987422132e-09,7.369959276652675e-05,3.357088987422132e-09,7.369933672381954e-05,3.357088987422132e-09,0.002626681835448618,3.357088987422132e-09,0.7539383263456291
3.359734590363182e-09,1.335047691943965,3.359734590363182e-09,7.36997060766069e-05,3.359734590363182e-09,7.37008966642568e-05,3.359734590363182e-09,0.002263348248602323,3.359734590363182e-09,0.7554081057573234
3.361815584640186e-09,1.841633023145625,3.361815584640186e-09,7.369933570017531e-05,3.361815584640186e-09,7.370098101264241e-05,3.361815584640186e-09,0.001982838104782089,3.361815584640186e-09,0.7565642136889922
3.363800636622508e-09,2.523145296915098,3.363800636622508e-09,7.36978727637515e-05,3.363800636622508e-09,7.370047946353424e-05,3.363800636622508e-09,0.001740356816942548,3.363800636622508e-09,0.7576670203458375
3.365051950510138e-09,3.001228055468977,3.365051950510138e-09,7.36963849315108e-05,3.365051950510138e-09,7.369926567773104e-05,3.365051950510138e-09,0.001600095845885966,3.365051950510138e-09,0.7583621947278543
3.366762987989907e-09,3.608800130613612,3.366762987989907e-09,7.369436611281505e-05,3.366762987989907e-09,7.369816306900947e-05,3.366762987989907e-09,0.001423119465182151,3.366762987989907e-09,0.7593127711055038
3.368170822930069e-09,3.997681091802588,3.368170822930069e-09,7.369277861102488e-05,3.368170822930069e-09,7.369698132286222e-05,3.368170822930069e-09,0.001288039292568701,3.368170822930069e-09,0.7600949016278162
