/out2 X,/out2 Y,/out1 X,/out1 Y,/out0 X,/out0 Y
0,0.07503369398091111,0,0.07504263461211751,0,0.2511617338457587
0.01066666666666667,0.07503369398091099,0.01066666666666667,0.0750426347705454,0.01066666666666667,0.2511624105385484
0.02133333333333334,0.07503369398091191,0.02133333333333334,0.07504263498413745,0.02133333333333334,0.2511633435816349
0.032,0.07503369398091241,0.032,0.07504263528037919,0.032,0.2511646376239862
0.04266666666666667,0.07503369398091284,0.04266666666666667,0.07504263569094272,0.04266666666666667,0.251166430984833
0.05333333333333334,0.07503369398091365,0.05333333333333334,0.07504263625945247,0.05333333333333334,0.2511689141452086
0.06400000000000002,0.07503369398091544,0.06400000000000002,0.07504263704588431,0.06400000000000002,0.2511723489057449
0.07466666666666669,0.07503369398091661,0.07466666666666669,0.07504263813249651,0.07466666666666669,0.251177094269173
0.08533333333333336,0.07503369398091943,0.08533333333333336,0.07504263963184063,0.08533333333333336,0.2511836412227093
0.09600000000000003,0.07503369398092288,0.09600000000000003,0.07504264169745775,0.09600000000000003,0.251192659189952
0.1066666666666667,0.07503369398092834,0.1066666666666667,0.0750426445380943,0.1066666666666667,0.2512050576174418
0.1173333333333334,0.07503369398093497,0.1173333333333334,0.07504264843648373,0.1173333333333334,0.2512220669363681
0.128,0.075033693980945,0.128,0.07504265377387623,0.128,0.2512453439498292
0.1386666666666667,0.07503369398095749,0.1386666666666667,0.07504266106188416,0.1386666666666667,0.2512771074557791
0.1493333333333333,0.07503369398097492,0.1493333333333333,0.0750426709833079,0.1493333333333333,0.251320310499538
0.16,0.07503369398099871,0.16,0.0750426844439898,0.16,0.2513788558851277
0.1706666666666667,0.0750336939810303,0.1706666666666667,0.07504270263793456,0.1706666666666667,0.2514578612691467
0.1813333333333333,0.07503369398107368,0.1813333333333333,0.07504272712828812,0.1813333333333333,0.2515639791462187
0.192,0.07503369398113099,0.192,0.07504275994722828,0.192,0.2517057752673443
0.2026666666666666,0.07503369398120838,0.2026666666666666,0.07504280371864858,0.2026666666666666,0.2518941667274318
0.2133333333333333,0.07503369398131041,0.2133333333333333,0.07504286180914907,0.2133333333333333,0.252142918761322
0.2239999999999999,0.07503369398144483,0.2239999999999999,0.07504293851572055,0.2239999999999999,0.2524691984094296
0.2346666666666666,0.07503369398162203,0.2346666666666666,0.07504303930384609,0.2346666666666666,0.2528941854559348
0.2453333333333333,0.07503369398185385,0.2453333333333333,0.07504317111851483,0.2453333333333333,0.2534437486219351
0.2559999999999999,0.0750336939821559,0.2559999999999999,0.07504334280515622,0.2559999999999999,0.2541492101705928
0.2666666666666666,0.07503369398254761,0.2666666666666666,0.07504356570060693,0.2666666666666666,0.2550482467584218
0.2773333333333333,0.07503369398305509,0.2773333333333333,0.07504385449119545,0.2773333333333333,0.256186010116544
0.2879999999999999,0.07503369398371262,0.2879999999999999,0.07504422849566122,0.2879999999999999,0.2576166002121346
0.2986666666666666,0.07503369398456562,0.2986666666666666,0.07504471363364344,0.2986666666666666,0.2594050914276625
0.3093333333333332,0.0750336939856763,0.3093333333333332,0.07504534552383899,0.3093333333333332,0.2616304123735708
0.3199999999999999,0.07503369398713527,0.3199999999999999,0.07504617449759296,0.3199999999999999,0.2643895407542743
0.3306666666666666,0.07503369398906809,0.3306666666666666,0.07504727398097039,0.3306666666666666,0.2678037519607743
0.3413333333333332,0.07503369399167205,0.3413333333333332,0.07504875506656392,0.3413333333333332,0.2720281591135877
0.3519999999999999,0.07503369399525728,0.3519999999999999,0.07505079305960477,0.3519999999999999,0.2772667043173726
0.3626666666666665,0.07503369400033442,0.3626666666666665,0.07505367861777101,0.3626666666666665,0.2837965006218039
0.3733333333333332,0.07503369400779862,0.3733333333333332,0.07505792306596476,0.3733333333333332,0.2920087648609621
0.3839999999999998,0.07503369401935767,0.3839999999999998,0.07506449328037812,0.3839999999999998,0.3024799852032543
0.3946666666666665,0.07503369403853025,0.3946666666666665,0.07507538756766555,0.3946666666666665,0.3160982022623574
0.4053333333333332,0.07503369407342499,0.4053333333333332,0.07509520678152995,0.4053333333333332,0.3342787856560073
0.4159999999999998,0.07503369414563189,0.4159999999999998,0.07513618064532242,0.4159999999999998,0.3592642548873847
0.4266666666666665,0.07503369431227597,0.4266666666666665,0.07523055070244875,0.4266666666666665,0.3934195547738122
0.4373333333333331,0.07503369470736132,0.4373333333333331,0.07545321627209732,0.4373333333333331,0.4365961773403729
0.4479999999999998,0.07503369556083628,0.4479999999999998,0.0759295188904706,0.4479999999999998,0.4859653376762837
0.4586666666666664,0.07503369715593818,0.4586666666666664,0.07680150170696923,0.4586666666666664,0.5396365504983356
0.4693333333333331,0.07503369971350829,0.4693333333333331,0.07815306946817525,0.4693333333333331,0.5967168252647858
0.4799999999999998,0.07503370335273277,0.4799999999999998,0.07998563259384746,0.4799999999999998,0.6565818447686965
0.4906666666666664,0.07503370811635197,0.4906666666666664,0.08224080337308304,0.4906666666666664,0.7186271477298261
0.5013333333333331,0.07503371395911757,0.5013333333333331,0.0848127867403826,0.5013333333333331,0.7822002682337471
0.5119999999999998,0.07503372067879234,0.5119999999999998,0.08754405288225479,0.5119999999999998,0.846582873585751
0.5226666666666665,0.07503372775119369,0.5226666666666665,0.09019581787559516,0.5226666666666665,0.9110018310107223
0.5333333333333332,0.07503373424751483,0.5333333333333332,0.09245942607213702,0.5333333333333332,0.9746673227295886
0.5439999999999999,0.07503373908908852,0.5439999999999999,0.09405255155774238,0.5439999999999999,1.036818679780348
0.5546666666666666,0.07503374188869662,0.5546666666666666,0.09493913173283786,0.5546666666666666,1.096707369515241
0.5653333333333334,0.07503374337748775,0.5653333333333334,0.09540019739778267,0.5653333333333334,1.153283419835555
0.5760000000000001,0.0750337442742771,0.5760000000000001,0.09567531933970874,0.5760000000000001,1.204221064986268
0.5866666666666668,0.07503374486711607,0.5866666666666668,0.09585610755391116,0.5866666666666668,1.2466604399575
0.5973333333333335,0.07503374527715342,0.5973333333333335,0.09598059988747323,0.5973333333333335,1.28037345273631
0.6080000000000002,0.07503374557831696,0.6080000000000002,0.09607174757861378,0.6080000000000002,1.307471519359161
0.6186666666666669,0.07503374581079861,0.6186666666666669,0.09614194129903716,0.6186666666666669,1.32977041086266
0.6293333333333336,0.07503374599695639,0.6293333333333336,0.09619804296067092,0.6293333333333336,1.348511223413905
0.6400000000000003,0.07503374615023954,0.6400000000000003,0.09624416739373756,0.6400000000000003,1.364544433039399
0.6506666666666671,0.07503374627916698,0.6506666666666671,0.09628291338575139,0.6506666666666671,1.378457466817251
0.6613333333333338,0.0750337463893624,0.6613333333333338,0.0963159949367756,0.6613333333333338,1.390663204025713
0.6720000000000005,0.0750337464846938,0.6720000000000005,0.09634458730567598,0.6720000000000005,1.401458637230711
0.6826666666666672,0.07503374656790628,0.6826666666666672,0.09636952504859229,0.6826666666666672,1.41106285862496
0.6933333333333339,0.07503374664101477,0.6933333333333339,0.09639141965003135,0.6933333333333339,1.419641628573645
0.7040000000000006,0.07503374670553986,0.7040000000000006,0.09641073185424286,0.7040000000000006,1.427323443256815
0.7146666666666673,0.07503374676265764,0.7146666666666673,0.09642781762279305,0.7146666666666673,1.434210231373372
0.7253333333333341,0.07503374681329839,0.7253333333333341,0.09644295826787438,0.7253333333333341,1.440384634046032
0.7360000000000008,0.07503374685820989,0.7360000000000008,0.09645638083254414,0.7360000000000008,1.445915089408693
0.7466666666666675,0.07503374689801444,0.7466666666666675,0.09646827231953764,0.7466666666666675,1.45085949383889
0.7573333333333342,0.07503374693323286,0.7573333333333342,0.09647878996416254,0.7573333333333342,1.455267933879637
0.7680000000000009,0.07503374696431106,0.7680000000000009,0.09648806891432918,0.7680000000000009,1.459184805529546
0.7786666666666676,0.07503374699164575,0.7786666666666676,0.09649622816029804,0.7786666666666676,1.462650516650402
0.7893333333333343,0.07503374701559742,0.7893333333333343,0.09650337520554064,0.7893333333333343,1.465702877173346
0.800000000000001,0.0750337470364921,0.800000000000001,0.09650960971373787,0.800000000000001,1.468378207247923
0.8106666666666678,0.07503374705464991,0.8106666666666678,0.09651502618011804,0.8106666666666678,1.470712134622021
0.8213333333333345,0.07503374707037369,0.8213333333333345,0.09651971556843923,0.8213333333333345,1.472740020270822
0.8320000000000012,0.07503374708395491,0.8320000000000012,0.09652376585706854,0.8320000000000012,1.474496962226722
0.8426666666666679,0.07503374709567923,0.8426666666666679,0.09652726156129426,0.8426666666666679,1.476017389356292
0.8533333333333346,0.07503374710581004,0.8533333333333346,0.09653028249935386,0.8533333333333346,1.477334351358287
0.8640000000000013,0.07503374711459593,0.8640000000000013,0.09653290224403596,0.8640000000000013,1.478478693163445
0.874666666666668,0.07503374712226035,0.874666666666668,0.09653518674251677,0.874666666666668,1.47947832385449
0.8853333333333347,0.07503374712899204,0.8853333333333347,0.09653719346442501,0.8853333333333347,1.480357738027635
0.8960000000000015,0.07503374713495806,0.8960000000000015,0.0965389712181067,0.8960000000000015,1.481137850989686
0.9066666666666682,0.07503374714029122,0.9066666666666682,0.09654056056837654,0.9066666666666682,1.481836117216472
0.9173333333333349,0.0750337471451009,0.9173333333333349,0.09654199466918403,0.9173333333333349,1.482466847726823
0.9280000000000016,0.07503374714948119,0.9280000000000016,0.09654330030137108,0.9280000000000016,1.483041631105926
0.9386666666666683,0.07503374715350393,0.9386666666666683,0.09654449894478158,0.9386666666666683,1.483569780063107
0.949333333333335,0.07503374715722579,0.949333333333335,0.09654560777496231,0.949333333333335,1.484058752460972
0.9600000000000017,0.07503374716069008,0.9600000000000017,0.09654664052963291,0.9600000000000017,1.484514520549768
0.9706666666666685,0.07503374716393875,0.9706666666666685,0.09654760822930832,0.9706666666666685,1.484941879831624
0.9813333333333352,0.07503374716699714,0.9813333333333352,0.09654851975906588,0.9813333333333352,1.485344699442641
0.9920000000000019,0.07503374716989281,0.9920000000000019,0.09654938232908963,0.9920000000000019,1.485726120977647
1.002666666666669,0.07503374717264237,1.002666666666669,0.09655020183481344,1.002666666666669,1.48608871431721
1.013333333333335,0.07503374717526319,1.013333333333335,0.09655098313647094,1.013333333333335,1.486434598818976
1.024000000000002,0.0750337471777721,1.024000000000002,0.09655173027541741,1.024000000000002,1.486765537219763
1.034666666666668,0.07503374718017564,1.034666666666668,0.09655244664138923,1.034666666666668,1.487083008334628
1.045333333333335,0.07503374718248766,1.045333333333335,0.09655313510208938,1.045333333333335,1.487388263420059
1.056000000000002,0.07503374718471273,1.056000000000002,0.0965537981038658,1.056000000000002,1.487682370008902
1.066666666666668,0.07503374718685911,1.066666666666668,0.09655443775033323,1.066666666666668,1.487966246153027
1.077333333333335,0.07503374718893485,1.077333333333335,0.096555055864086,1.077333333333335,1.48824068731234
1.088000000000001,0.07503374719094119,1.088000000000001,0.09655565403539583,1.088000000000001,1.488506387593526
1.098666666666668,0.07503374719288716,1.098666666666668,0.09655623366096265,1.098666666666668,1.488763956639899
1.109333333333335,0.07503374719477478,1.109333333333335,0.09655679597492883,1.109333333333335,1.489013933155594
1.120000000000001,0.07503374719660769,1.120000000000001,0.09655734207383844,1.120000000000001,1.489256795800976
1.130666666666668,0.07503374719838934,1.130666666666668,0.09655787293700523,1.130666666666668,1.489492972070603
1.141333333333334,0.07503374720012299,1.141333333333334,0.09655838944292157,1.141333333333334,1.489722845454595
1.152000000000001,0.07503374720181341,1.152000000000001,0.09655889238301896,1.152000000000001,1.489946761438938
1.162666666666668,0.07503374720345804,1.162666666666668,0.09655938247283907,1.162666666666668,1.490165032379517
1.173333333333334,0.07503374720506137,1.173333333333334,0.09655986036139318,1.173333333333334,1.490377941582253
1.184000000000001,0.07503374720662633,1.184000000000001,0.09656032663894946,1.184000000000001,1.490585746699776
1.194666666666667,0.07503374720815537,1.194666666666667,0.09656078184354937,1.194666666666667,1.490788682572079
1.205333333333334,0.07503374720964806,1.205333333333334,0.09656122646648585,1.205333333333334,1.490986963605994
1.216000000000001,0.07503374721110645,1.216000000000001,0.0965616609568547,1.216000000000001,1.491180785767964
1.226666666666667,0.07503374721253256,1.226666666666667,0.09656208572540331,1.226666666666667,1.491370328249076
1.237333333333334,0.07503374721392797,1.237333333333334,0.09656250114772486,1.237333333333334,1.49155575485544
1.248,0.07503374721529292,1.248,0.09656290756689802,1.248,1.491737215151006
1.258666666666667,0.07503374721662819,1.258666666666667,0.09656330529535004,1.258666666666667,1.491914845260444
1.269333333333334,0.07503374721793533,1.269333333333334,0.09656369461663997,1.269333333333334,1.49208876863763
1.28,0.07503374721921505,1.28,0.09656407578667646,1.28,1.492259096584746
1.290666666666667,0.07503374722046832,1.290666666666667,0.09656444903438945,1.290666666666667,1.49242592852755
1.301333333333333,0.07503374722169415,1.301333333333333,0.09656481456197261,1.301333333333333,1.492589352103428
1.312,0.0750337472228963,1.312,0.09656517254464425,1.312,1.492749443033677
1.322666666666667,0.07503374722407335,1.322666666666667,0.09656552312987288,1.322666666666667,1.492906264757165
1.333333333333333,0.07503374722522561,1.333333333333333,0.09656586643602134,1.333333333333333,1.493059867804621
1.344,0.07503374722635579,1.344,0.09656620255043513,1.344,1.493210288926235
1.354666666666666,0.0750337472274597,1.354666666666666,0.09656653152746551,1.354666666666666,1.493357550184145
1.365333333333333,0.07503374722854045,1.365333333333333,0.09656685338947503,1.365333333333333,1.493501659385413
1.376,0.07503374722959716,1.376,0.09656716814489669,1.376,1.493642618158487
1.386666666666666,0.07503374723062972,1.386666666666666,0.09656747576933598,1.386666666666666,1.493780413471306
1.397333333333333,0.07503374723163897,1.397333333333333,0.09656777604982286,1.397333333333333,1.493914947837213
1.407999999999999,0.07503374723262178,1.407999999999999,0.09656806869249818,1.407999999999999,1.494046087484694
1.418666666666666,0.07503374723357725,1.418666666666666,0.09656835333965355,1.418666666666666,1.494173669965404
1.429333333333333,0.07503374723450464,1.429333333333333,0.09656862950876255,1.429333333333333,1.494297476801669
1.439999999999999,0.07503374723539942,1.439999999999999,0.0965688965420127,1.439999999999999,1.494417210806744
1.450666666666666,0.07503374723626265,1.450666666666666,0.09656915354447536,1.450666666666666,1.494532468302138
1.461333333333332,0.07503374723708768,1.461333333333332,0.09656939929923065,1.461333333333332,1.494642700966835
1.471999999999999,0.075033747237871,1.471999999999999,0.09656963215036614,1.471999999999999,1.494747163256701
1.482666666666666,0.07503374723860191,1.482666666666666,0.0965698498484853,1.482666666666666,1.49484484297215
1.493333333333332,0.07503374723927143,1.493333333333332,0.09657004937113177,1.493333333333332,1.494934380552212
1.503999999999999,0.07503374723986765,1.503999999999999,0.09657022679061929,1.503999999999999,1.495014009650693
1.514666666666665,0.07503374724037218,1.514666666666665,0.09657037741635742,1.514666666666665,1.495081620989913
1.525333333333332,0.0750337472407744,1.525333333333332,0.09657049669718513,1.525333333333332,1.495135167604775
1.535999999999999,0.07503374724106229,1.535999999999999,0.09657058227078645,1.535999999999999,1.495173585439427
1.546666666666665,0.07503374724124434,1.546666666666665,0.09657063682749839,1.546666666666665,1.495198079576064
1.557333333333332,0.07503374724134784,1.557333333333332,0.09657066747505927,1.557333333333332,1.495211839696466
1.567999999999999,0.07503374724139887,1.567999999999999,0.0965706828387668,1.567999999999999,1.495218737814116
1.578666666666665,0.07503374724142244,1.578666666666665,0.0965706898698588,1.578666666666665,1.495221894714434
1.589333333333332,0.07503374724143376,1.589333333333332,0.09657069305834622,1.589333333333332,1.495223326320737
1.6,0.07503374724143884,1.6,0.09657069462778807,1.6,1.495224030988937
